;$FILEVERSION=1.1
;$STARTTIME=46001.9365782642
;
;   Start time: 10-12-2025 22:28:40.362
;   Generated by AtomX
;
;   Message Number
;   |         Time Offset (ms)
;   |         |        Type
;   |         |        |        ID (hex)
;   |         |        |        |     Data Length
;   |         |        |        |     |   Data Bytes (hex) ...
;   |         |        |        |     |   |
;---+--   ----+----  --+--  ----+---  +  -+ -- -- -- -- -- -- --
     1)        0.0  Rx       7C2  8  00 8C 4B 6D 3A 49 54 50 
     2)      100.8  Rx       645  8  7E 09 5A F8 86 AC 00 00 
     3)      203.9  Rx       675  8  00 58 93 2B 77 DD F8 F6 
     4)      304.7  Rx       19F  8  F8 46 B4 01 2D 08 BB 83 
     5)      405.6  Rx       70F  8  00 0C 6D 50 09 51 7F 10 
     6)      506.3  Rx  10000201  8  7C 09 D8 BC DD 00 BF 00 
     7)      606.8  Rx       236  8  67 8C 62 CD EC A0 7A E2 
     8)      707.4  Rx         2  8  00 55 00 00 00 00 00 00 
     9)      808.3  Rx       668  8  D4 DA 85 5E 00 00 00 00 
    10)      909.2  Rx       644  8  46 31 EB 40 A2 91 1F ED 
    11)     1010.2  Rx         6  8  80 3A 00 00 00 00 00 00 
    12)     1111.0  Rx       641  8  00 90 BC A8 EC 9D 02 2B 
    13)     1211.9  Rx       7D9  8  00 1E BF 5C F3 AB 6B 3C 
    14)     1312.5  Rx         5  8  00 00 00 00 72 00 00 00 
    15)     1416.0  Rx       506  8  DA 83 D6 67 AA D6 E5 96 
    16)     1617.7  Rx        8F  8  01 00 00 00 00 00 00 00 
    17)     1819.2  Rx       240  8  E3 1D AB 00 00 00 00 00 
    18)     1919.9  Rx        50  8  7B 02 00 00 00 00 00 00 
    19)     2020.4  Rx       7D7  8  00 D0 FC E3 65 D5 3F 99 
    20)     2222.2  Rx  10000207  8  51 B2 D4 69 EA 6E 24 A3 
    21)     2322.9  Rx       341  8  6D A0 2B 43 18 90 30 00 
    22)     2423.6  Rx       505  8  39 BE FC E2 01 53 55 13 
    23)     2524.6  Rx       509  8  5E 0E 6B 43 03 00 00 00 
    24)     2625.5  Rx       234  8  05 1C 01 1A 00 00 00 00 
    25)     2726.2  Rx       341  8  70 66 D7 4A 54 4B 3F 00 
    26)     2827.1  Rx       7C2  8  00 64 3E 21 8F 35 12 46 
    27)     3028.4  Rx         2  8  00 21 00 00 00 00 00 00 
    28)     3129.0  Rx       7C5  8  00 A0 8D 0D 5B F9 08 F6 
    29)     3230.0  Rx        80  8  10 30 13 02 BE 1A 39 1F 
    30)     3330.5  Rx       7C5  8  00 80 68 D5 97 FC 7A BD 
    31)     3431.2  Rx       235  8  23 02 00 00 00 00 00 00 
    32)     3532.1  Rx  10000201  8  CB BB 1D 88 2F 00 00 00 
    33)     3632.7  Rx       12B  8  01 0C 94 12 4E 02 00 00 
    34)     3733.2  Rx       650  8  0A 34 2F C6 00 00 00 00 
    35)     3833.8  Rx       675  8  00 F8 7A 80 F7 26 CE 69 
    36)     3934.7  Rx       450  8  E6 00 00 00 00 00 00 00 
    37)     4035.3  Rx       235  8  84 03 00 00 00 00 00 00 
    38)     4135.8  Rx         0  8  13 00 00 00 00 00 00 00 
    39)     4236.3  Rx         3  8  00 00 00 00 80 12 00 00 
    40)     4337.3  Rx       170  8  BD FA 9F 55 CA CF 80 F3 
    41)     4438.0  Rx  10000208  8  00 00 00 00 00 00 00 00 
    42)     4538.5  Rx       176  8  76 F5 6F 00 E3 F9 5E 12 
    43)     4639.5  Rx       502  8  F6 59 F6 EB CF 33 6A C2 
    44)     4740.3  Rx        50  8  09 00 00 00 00 00 00 00 
    45)     4841.2  Rx       64F  8  37 3F 05 1B 7B D3 1F 70 
    46)     4941.8  Rx       64F  8  0C BE 83 A5 B8 EB 5F 48 
    47)     5042.6  Rx       7C5  8  00 50 E2 56 31 AD C5 A3 
    48)     5143.6  Rx       10A  8  56 EA 53 3F 03 95 12 14 
    49)     5244.4  Rx       10B  8  02 09 02 00 00 00 00 00 
    50)     5345.5  Rx       650  8  18 3B FD 92 00 00 00 00 
    51)     5446.2  Rx       680  8  01 00 00 00 00 00 00 00 
    52)     5546.8  Rx       10B  8  05 05 0F 00 00 00 00 00 
    53)     5647.9  Rx       177  8  00 00 00 00 2A 63 DF DE 
    54)     5748.7  Rx         0  8  A3 00 00 00 00 00 00 00 
    55)     5849.5  Rx       177  8  00 00 00 00 48 57 A3 CB 
    56)     5950.4  Rx  10000208  8  00 00 00 00 00 00 00 00 
    57)     6051.0  Rx       7C2  8  00 D8 55 2A 8F 4E 40 D9 
    58)     6152.3  Rx       642  8  D6 FE 12 78 FB 8C 17 3F 
    59)     6253.2  Rx       310  8  06 02 30 A6 00 00 00 00 
    60)     6353.8  Rx  10000207  8  3A 0B F1 F4 21 22 8B 4E 
    61)     6454.6  Rx       4CE  8  04 A2 00 00 00 00 00 00 
    62)     6555.2  Rx  10000209  4  80 BB 23 0F 
    63)     6655.9  Rx       179  8  B1 70 19 A0 09 19 FB 7E 
    64)     6756.5  Rx       176  8  47 EB FE 00 41 45 35 BC 
    65)     6857.0  Rx  10000210  0   
    66)     6957.7  Rx         7  8  00 00 00 00 80 57 00 00 
    67)     7058.4  Rx       674  8  72 00 00 00 00 00 00 00 
    68)     7259.7  Rx       7D7  8  00 A0 04 45 16 84 84 F8 
    69)     7360.5  Rx       12A  8  64 70 BD A0 00 16 00 00 
    70)     7460.9  Rx       500  8  69 A7 E5 23 AE 61 53 C6 
    71)     7561.5  Rx       450  8  27 00 00 00 00 00 00 00 
    72)     7662.3  Rx       503  8  E9 CB 10 8B C4 C4 29 53 
    73)     7763.0  Rx       130  8  7F 36 33 27 4E 48 3F 00 
    74)     7863.8  Rx       176  8  8B C5 15 00 3B 04 71 A9 
    75)     7964.6  Rx       62B  8  E9 0A 00 00 B9 04 00 00 
    76)     8065.0  Rx       7C5  8  00 00 30 F6 5E CD 7A C5 
    77)     8165.7  Rx       7D8  8  00 94 74 26 27 E6 C6 7A 
    78)     8266.5  Rx       503  8  10 91 A3 EC 78 9F 38 C5 
    79)     8367.2  Rx       7CC  8  71 00 00 00 00 00 00 00 
    80)     8568.3  Rx       509  8  75 EA 60 5A 01 00 00 00 
    81)     8669.0  Rx       130  8  31 5D 98 18 90 27 71 00 
    82)     8769.8  Rx  10000204  8  60 3B 80 3E BC 34 40 06 
    83)     8870.7  Rx       177  8  00 00 00 00 D4 F3 79 BD 
    84)     8971.3  Rx         5  8  00 00 00 00 A1 00 00 00 
    85)     9072.0  Rx       650  8  09 F1 09 5A 00 00 00 00 
    86)     9172.8  Rx        52  8  FC C5 AD 39 AC E7 16 00 
    87)     9273.6  Rx       178  8  DF 66 AC B8 9D 21 DE 47 
    88)     9475.0  Rx       12E  8  F5 19 A4 B1 10 0C E7 54 
    89)     9575.7  Rx       62B  8  41 06 00 00 AB 00 00 00 
    90)     9676.3  Rx       503  8  35 1A 81 37 43 A4 4B C7 
    91)     9777.0  Rx       7C5  8  00 FC 9B 19 A2 A5 A7 63 
    92)     9878.0  Rx         2  8  00 07 00 00 00 00 00 00 
    93)    10079.2  Rx       177  8  00 00 00 00 75 84 92 7B 
    94)    10179.7  Rx       12F  8  C7 01 F8 66 4C 23 5E BF 
    95)    10280.2  Rx       7C2  8  00 70 57 BE 18 FD D4 89 
    96)    10381.1  Rx        A0  8  02 06 00 00 00 00 00 00 
    97)    10481.6  Rx         7  8  00 00 00 00 80 49 00 00 
    98)    10582.3  Rx  10000207  8  30 27 E9 29 59 5D 88 1C 
    99)    10683.4  Rx       10A  8  06 3B 74 99 B8 9D 38 19 
   100)    10784.1  Rx       641  8  00 AC CD 97 97 FC 0C 58 
   101)    10885.0  Rx       154  8  42 A2 6A 0A 1B F5 00 00 
   102)    10986.0  Rx       130  8  66 B5 BF 80 C8 9C E1 00 
   103)    11086.6  Rx  10000212  8  00 00 00 00 00 00 00 00 
   104)    11187.2  Rx       50E  8  38 AA A1 1F 00 00 00 00 
   105)    11288.3  Rx         0  8  A9 00 00 00 00 00 00 00 
   106)    11389.1  Rx        51  8  8A D5 00 00 1A A6 00 00 
   107)    11490.2  Rx       235  8  51 00 00 00 00 00 00 00 
   108)    11591.1  Rx       50A  8  B3 70 A4 F9 9C 01 00 00 
   109)    11692.0  Rx       175  8  27 A6 A5 99 64 D0 00 00 
   110)    11792.8  Rx         1  8  00 00 00 00 B5 00 00 00 
   111)    11893.4  Rx       62B  8  15 0D 00 00 E3 06 00 00 
   112)    12094.9  Rx       361  8  EF DE 10 C8 05 37 5C 00 
   113)    12195.7  Rx         5  8  00 00 00 00 F8 00 00 00 
   114)    12296.6  Rx  10000204  8  38 18 F0 3C 54 3D 68 42 
   115)    12397.3  Rx       7D6  8  85 00 00 00 00 00 00 00 
   116)    12699.2  Rx  10000201  8  32 4D A7 08 F6 00 14 00 
   117)    12799.6  Rx       506  8  42 77 7D BA C7 43 1B 7C 
   118)    12900.0  Rx         3  8  00 00 00 00 80 57 00 00 
   119)    13000.6  Rx       64B  8  8C 06 00 00 D1 05 00 00 
   120)    13101.4  Rx       10B  8  06 07 18 00 00 00 00 00 
   121)    13201.8  Rx       680  8  02 00 00 00 00 00 00 00 
   122)    13302.7  Rx       7D8  8  00 92 7A C8 0B D6 A3 0D 
   123)    13403.7  Rx   8192A3B  1  18 
   124)    13504.3  Rx       505  8  5B 79 85 AE D8 76 D0 6C 
   125)    13604.9  Rx       450  8  D2 00 00 00 00 00 00 00 
   126)    13705.7  Rx       12D  8  1C A3 12 9B 12 10 C1 B9 
   127)    13906.5  Rx       7C2  8  00 F0 6B FB D8 AD C5 B8 
   128)    14007.3  Rx       371  8  D7 C7 01 00 00 00 00 00 
   129)    14107.9  Rx       70F  8  00 98 70 C0 1D 85 65 A6 
   130)    14208.7  Rx   8192A3B  1  3D 
   131)    14309.4  Rx         4  8  83 00 00 00 00 00 00 00 
   132)    14410.0  Rx       50E  8  BE 6A 8D 7B 00 00 00 00 
   133)    14511.1  Rx  10000201  8  3C 4A 92 1F AB 00 DB 00 
   134)    14612.0  Rx       508  8  EF D6 2A 19 B3 A9 04 53 
   135)    14712.7  Rx       1A7  8  0F 47 EF 70 0C 00 42 95 
   136)    14813.3  Rx       652  8  C3 8E C2 81 36 1A 00 00 
   137)    14914.1  Rx       668  8  5B 62 A1 B3 00 00 00 00 
   138)    15216.1  Rx       650  8  1C 45 7C FE 00 00 00 00 
   139)    15316.8  Rx       508  8  64 97 D0 10 D8 21 5E 80 
   140)    15417.7  Rx       230  8  82 CC BB 81 B3 41 47 26 
   141)    15518.6  Rx       507  8  F9 50 85 5E 9A 18 8C 05 
   142)    15619.5  Rx       7C2  8  00 18 22 DA E3 57 51 C6 
   143)    15721.2  Rx   8192A3B  1  69 
   144)    15821.9  Rx       179  8  93 52 28 08 6E 80 F0 19 
   145)    15922.4  Rx        50  8  12 00 00 00 00 00 00 00 
   146)    16023.0  Rx        A0  8  02 01 00 00 00 00 00 00 
   147)    16123.8  Rx       645  8  3B 5E B0 30 5F 96 00 00 
   148)    16224.4  Rx       19F  8  54 70 CF 1D 37 D6 DC B0 
   149)    16324.9  Rx       10C  8  69 3F A1 A7 02 00 00 00 
   150)    16425.6  Rx       645  8  6A E1 8E D3 7C 32 00 00 
   151)    16526.6  Rx       507  8  8C 3D 5D D7 92 C5 A9 CB 
   152)    16627.3  Rx       310  8  FF 01 80 B1 00 00 00 00 
   153)    16727.9  Rx       157  8  4A 9B 67 4C 13 05 CD B5 
   154)    16828.6  Rx  10000204  8  74 40 E4 25 58 02 94 2A 
   155)    16929.2  Rx       361  8  F2 B8 43 36 E9 C3 5D 01 
   156)    17130.6  Rx       187  8  72 50 1F 38 3F 88 15 00 
   157)    17231.2  Rx        50  8  1A 01 00 00 00 00 00 00 
   158)    17331.7  Rx       10C  8  A4 26 65 FE 07 00 00 00 
   159)    17432.5  Rx       130  8  76 90 92 14 79 07 3B 00 
   160)    17533.3  Rx        52  8  6E 69 A1 08 AA 99 10 00 
   161)    17634.2  Rx  10000209  4  C0 C2 DA 06 
   162)    17734.9  Rx         4  8  58 00 00 00 00 00 00 00 
   163)    17835.8  Rx   8192A3B  1  5C 
   164)    17936.7  Rx       234  8  0F 06 07 04 00 00 00 00 
   165)    18037.4  Rx       154  8  6C 8B 23 19 1B 87 00 00 
   166)    18138.5  Rx       10C  8  D6 3B B5 50 0B 00 00 00 
   167)    18239.3  Rx        A0  8  02 04 00 00 00 00 00 00 
   168)    18340.3  Rx       176  8  13 60 39 00 74 BA 52 AA 
   169)    18441.0  Rx  10000209  4  80 41 20 05 
   170)    18541.7  Rx       503  8  49 7E CB E0 31 75 32 17 
   171)    18642.5  Rx       506  8  94 9A 96 2E 63 67 18 2F 
   172)    18743.2  Rx       7C5  8  00 C8 45 16 A1 D9 4D D7 
   173)    18844.9  Rx       7D8  8  00 34 8A 7D 74 59 2F 30 
   174)    18945.6  Rx       7D8  8  00 80 DE D3 FC B1 DA EE 
   175)    19046.1  Rx       450  8  6E 00 00 00 00 00 00 00 
   176)    19146.8  Rx   8192A3B  1  29 
   177)    19247.3  Rx       173  8  01 91 80 BE 00 00 00 00 
   178)    19348.0  Rx       12E  8  E1 97 53 7A 1D E9 A2 99 
   179)    19448.5  Rx  10000208  8  00 00 00 00 00 00 00 00 
   180)    19549.3  Rx       177  8  00 00 00 00 FD B7 A1 DD 
   181)    19649.8  Rx       644  8  46 0F 2D 05 E8 00 7E 9B 
   182)    19750.6  Rx       666  8  01 5F BF 73 3D 3C 50 EA 
   183)    19951.8  Rx  10000204  8  68 29 00 00 78 1E 5C 5D 
   184)    20052.5  Rx       178  8  75 72 6B 8E 03 29 53 FD 
   185)    20153.4  Rx        51  8  7C 1F 00 00 DB 88 00 00 
   186)    20253.9  Rx       64F  8  17 64 4F E1 9F DF DD CA 
   187)    20354.5  Rx       175  8  4D 75 64 9A CE 3D 00 00 
   188)    20455.2  Rx  10000207  8  A6 70 6A A2 F8 52 A9 41 
   189)    20555.9  Rx       12C  8  1B 09 CA D2 A5 E4 27 1F 
   190)    20656.7  Rx       10A  8  C6 B1 7C CD 8A 65 47 19 
   191)    20757.6  Rx       502  8  DB 78 36 E9 2F 08 36 40 
   192)    20858.1  Rx       503  8  69 CF 9A D4 BB 5F DE F2 
   193)    21059.6  Rx       64F  8  CD F0 2F CC 44 72 BD 4B 
   194)    21160.3  Rx       502  8  D4 B0 CE 0E F5 82 4F D1 
   195)    21462.0  Rx       50A  8  77 3D 4F 56 70 02 00 00 
   196)    21562.8  Rx       19F  8  89 17 37 3D 57 69 49 DD 
   197)    21663.3  Rx       651  8  12 3C 17 9D 72 00 00 00 
   198)    21763.9  Rx       501  8  19 DF 74 75 8B 1D E1 8F 
   199)    21864.8  Rx         7  8  00 00 00 00 00 48 00 00 
   200)    21965.7  Rx       508  8  0E FD BD 11 AB F0 66 85 
   201)    22066.8  Rx       7DB  8  00 E0 90 F1 36 2E C0 CC 
   202)    22167.6  Rx       12C  8  FD B3 7E 7A 36 80 28 31 
   203)    22268.3  Rx       7CC  8  1B 00 00 00 00 00 00 00 
   204)    22369.3  Rx       64B  8  8A 00 00 00 92 0C 00 00 
   205)    22470.1  Rx       157  8  1F DA 2D 95 5E F6 04 E4 
   206)    22570.8  Rx       642  8  C8 53 23 28 7C 05 4D 23 
   207)    22672.0  Rx       70F  8  00 50 39 7F 0E 0D 8B 42 
   208)    22772.9  Rx       666  8  6F 9D 80 C1 81 8A E9 4E 
   209)    22873.6  Rx       176  8  51 35 DA 00 2A 89 99 BC 
   210)    22974.4  Rx       7D8  8  00 F8 EF E1 B4 83 88 98 
   211)    23075.2  Rx       631  8  14 CE 5A A3 A2 8C D5 0C 
   212)    23175.9  Rx       310  8  FD 01 8A 88 00 00 00 00 
   213)    23377.1  Rx       175  8  E6 98 30 8C 99 16 00 00 
   214)    23478.1  Rx       64B  8  5D 07 00 00 2A 02 00 00 
   215)    23578.9  Rx       500  8  85 08 33 1B 69 43 5C F9 
   216)    23679.7  Rx       7CC  8  33 00 00 00 00 00 00 00 
   217)    23881.0  Rx         6  8  80 6F 00 00 00 00 00 00 
   218)    24082.5  Rx       641  8  00 5C EB 9C 8F 52 0F 67 
   219)    24183.4  Rx       62B  8  2F 04 00 00 88 02 00 00 
   220)    24284.1  Rx       668  8  F4 E9 7C 1E 00 00 00 00 
   221)    24384.6  Rx  10000209  4  40 08 4E 05 
   222)    24485.4  Rx         3  8  00 00 00 00 80 35 00 00 
   223)    24586.1  Rx         6  8  00 2C 00 00 00 00 00 00 
   224)    24686.7  Rx       645  8  57 09 DE B4 E1 D3 00 00 
   225)    24787.3  Rx         2  8  80 2B 00 00 00 00 00 00 
   226)    24887.9  Rx       64F  8  DF 38 8F 1D F8 38 0A D4 
   227)    24988.4  Rx         7  8  00 00 00 00 00 5F 00 00 
   228)    25089.3  Rx       500  8  55 E5 4F 04 49 E6 6E A2 
   229)    25290.8  Rx       644  8  71 99 35 3A 80 52 CE 03 
   230)    25391.4  Rx  10000208  8  00 00 00 00 00 00 00 00 
   231)    25492.2  Rx  10000210  0   
   232)    25593.2  Rx       7CC  8  12 00 00 00 00 00 00 00 
   233)    25694.2  Rx       7B4  8  B0 00 00 00 00 00 00 00 
   234)    25796.4  Rx       675  8  00 F0 10 FA D4 3A F2 9E 
   235)    25897.1  Rx       64B  8  44 09 00 00 D8 02 00 00 
   236)    25997.7  Rx       234  8  11 1D 0E 08 00 00 00 00 
   237)    26098.4  Rx       175  8  05 A8 31 B2 96 7B 00 00 
   238)    26199.3  Rx        52  8  E6 FE 05 23 46 E5 0C 00 
   239)    26299.9  Rx       310  8  67 01 1C ED 00 00 00 00 
   240)    26501.4  Rx       65B  8  69 0B 00 00 1F 08 00 00 
   241)    26602.1  Rx         0  8  7A 00 00 00 00 00 00 00 
   242)    26703.0  Rx  10000204  8  E0 47 90 1A A8 61 04 5B 
   243)    26804.0  Rx       500  8  71 72 CA CF FA D1 88 E1 
   244)    26904.7  Rx       7CC  8  15 00 00 00 00 00 00 00 
   245)    27005.5  Rx       507  8  10 0A 2C 60 B5 63 26 14 
   246)    27106.0  Rx       502  8  48 E1 6A 51 B1 FE 0E 26 
   247)    27206.7  Rx         3  8  00 00 00 00 00 6A 00 00 
   248)    27307.1  Rx         6  8  00 7A 00 00 00 00 00 00 
   249)    27407.6  Rx       506  8  04 46 C9 61 74 CC EA 0D 
   250)    27609.0  Rx  10000201  8  7E 2F 19 71 1C 00 F6 00 
   251)    27709.8  Rx       506  8  8B 0C 73 91 57 1A 3D 22 
   252)    27810.3  Rx        A0  8  02 03 00 00 00 00 00 00 
   253)    27911.0  Rx       668  8  4A D8 31 A9 00 00 00 00 
   254)    28011.6  Rx       175  8  30 49 F4 03 79 08 00 00 
   255)    28112.4  Rx        52  8  4C 04 2D E1 98 1F 16 00 
   256)    28213.1  Rx       130  8  F6 B5 09 84 A4 04 30 00 
   257)    28313.8  Rx       507  8  A3 34 FF 8C DF 45 E7 4E 
   258)    28414.5  Rx  10000207  8  08 86 B3 75 A5 94 75 3A 
   259)    28515.2  Rx       236  8  59 69 40 40 C1 70 07 54 
   260)    28616.0  Rx       12D  8  34 80 1C B7 F4 B2 B2 9C 
   261)    28716.5  Rx       600  8  23 F9 1F 84 E3 84 71 06 
   262)    28817.3  Rx       505  8  27 AB 55 B1 18 A7 AF 39 
   263)    28918.1  Rx       503  8  60 7E DF 27 CE 2B CA 4C 
   264)    29018.8  Rx       641  8  00 C8 D1 AF B7 D4 FF B2 
   265)    29120.2  Rx       12B  8  26 15 BE 08 DC 03 00 00 
   266)    29221.0  Rx       170  8  DA 1C 6D 7A 3A A0 EE 6E 
   267)    29422.5  Rx       176  8  31 52 10 00 AF 51 2A B4 
   268)    29523.3  Rx       507  8  84 5F 3D 4D AA 09 E4 06 
   269)    29624.1  Rx        91  8  A0 C5 34 BC 00 00 00 00 
   270)    29724.8  Rx       234  8  16 16 1C 0B 00 00 00 00 
   271)    29825.5  Rx       674  8  1D 00 00 00 00 00 00 00 
   272)    29926.0  Rx  10000209  4  80 53 9A 05 
   273)    30026.6  Rx       341  8  73 54 CA 23 6A 6D 00 00 
   274)    30127.4  Rx       62B  8  35 0C 00 00 E4 01 00 00 
   275)    30228.2  Rx         0  8  60 00 00 00 00 00 00 00 
   276)    30329.3  Rx       10A  8  5C 11 61 0F 78 B9 4A 05 
   277)    30430.2  Rx       674  8  8D 00 00 00 00 00 00 00 
   278)    30530.6  Rx         7  8  00 00 00 00 80 59 00 00 
   279)    30631.3  Rx        52  8  CC 3E 7C 8C B4 A6 08 00 
   280)    30731.7  Rx         5  8  00 00 00 00 40 00 00 00 
   281)    30832.3  Rx         5  8  00 00 00 00 81 00 00 00 
   282)    30933.1  Rx       503  8  FF 42 49 BD 1E 4A BE FD 
   283)    31335.7  Rx       450  8  A3 00 00 00 00 00 00 00 
   284)    31436.6  Rx       4CE  8  01 48 00 00 00 00 00 00 
   285)    31537.4  Rx       12B  8  71 12 9D 12 C3 01 00 00 
   286)    31638.4  Rx       7DA  8  00 18 B5 50 67 E9 AA B1 
   287)    31739.1  Rx        52  8  D2 CD 2B B8 96 3A 15 00 
   288)    31839.6  Rx       450  8  5E 00 00 00 00 00 00 00 
   289)    31940.1  Rx       177  8  00 00 00 00 76 46 0D AB 
   290)    32040.8  Rx       157  8  EF BF 2A 45 8E 6E 68 6A 
   291)    32141.4  Rx  10000209  4  00 3B 58 08 
   292)    32241.8  Rx       10C  8  50 03 C5 79 03 00 00 00 
   293)    32342.5  Rx       666  8  9F 9D CF 68 D2 CB 02 A3 
   294)    32443.6  Rx       509  8  FF 3B 77 A1 00 00 00 00 
   295)    32544.4  Rx        51  8  13 46 00 00 8E A5 00 00 
   296)    32644.9  Rx  10000207  8  43 A4 AE D2 5A 46 E5 8F 
   297)    32745.7  Rx       12D  8  3B 1C 40 31 67 49 C4 47 
   298)    32946.9  Rx        52  8  8F 51 95 62 43 25 1A 00 
   299)    33047.7  Rx       680  8  00 00 00 00 00 00 00 00 
   300)    33148.4  Rx       666  8  4E 84 17 65 BA 91 18 8F 
   301)    33349.9  Rx       153  8  31 02 00 00 00 00 00 00 
   302)    33450.7  Rx   8192A3B  1  7E 
   303)    33551.8  Rx       50E  8  D2 68 1E 3D 00 00 00 00 
   304)    33753.3  Rx       310  8  64 02 AB 6B 00 00 00 00 
   305)    33854.1  Rx       236  8  D8 15 C7 CA 4A D3 54 C2 
   306)    33955.0  Rx       157  8  01 60 0F 3C F9 DD 35 9F 
   307)    34155.9  Rx       7CC  8  2B 00 00 00 00 00 00 00 
   308)    34256.8  Rx       310  8  C3 02 38 B7 00 00 00 00 
   309)    34357.9  Rx       235  8  7C 01 00 00 00 00 00 00 
   310)    34458.8  Rx       12B  8  A4 14 B2 0E 45 03 00 00 
   311)    34559.5  Rx       7B4  8  64 00 00 00 00 00 00 00 
   312)    34660.5  Rx       12E  8  DC 71 CF 8A 30 16 D8 D4 
   313)    34761.3  Rx       7D9  8  00 A0 5E 6A 68 54 BF 1F 
   314)    34862.1  Rx       7D7  8  00 AF 61 34 A3 CF E3 1E 
   315)    34962.6  Rx       310  8  C7 02 CA 0F 00 00 00 00 
   316)    35063.5  Rx       157  8  62 93 85 D7 FF AB 37 0F 
   317)    35164.6  Rx        81  8  70 23 62 00 00 00 00 00 
   318)    35265.5  Rx       506  8  71 D5 38 07 E8 21 B7 1B 
   319)    35366.1  Rx       64F  8  AC 36 D6 B1 9C 23 B1 10 
   320)    35466.7  Rx       240  8  A4 91 C5 00 00 00 00 00 
   321)    35567.8  Rx  10000211  8  CA 2C FA 2A BC 58 1E CD 
   322)    35668.4  Rx       65B  8  80 05 00 00 A8 06 00 00 
   323)    35769.3  Rx       502  8  98 31 7F 46 39 A9 5E 9D 
   324)    35872.3  Rx        50  8  24 03 00 00 00 00 00 00 
   325)    35973.0  Rx         0  8  DC 00 00 00 00 00 00 00 
   326)    36074.1  Rx       651  8  9D B5 E2 F5 93 00 00 00 
   327)    36175.0  Rx         1  8  00 00 00 00 F0 00 00 00 
   328)    36275.6  Rx       240  8  D1 E8 4E 00 00 00 00 00 
   329)    36376.1  Rx       7DB  8  00 48 CE C0 D1 6B C2 F4 
   330)    36477.1  Rx       502  8  2B 72 82 5F 9B 4D 58 F7 
   331)    36577.8  Rx       236  8  7E E2 80 7D D7 E6 D5 59 
   332)    36880.0  Rx       450  8  74 00 00 00 00 00 00 00 
   333)    36980.6  Rx       50F  8  3B B3 86 7D 2B 62 77 33 
   334)    37080.9  Rx       7CC  8  74 00 00 00 00 00 00 00 
   335)    37181.5  Rx         2  8  80 39 00 00 00 00 00 00 
   336)    37282.2  Rx         3  8  00 00 00 00 80 67 00 00 
   337)    37383.1  Rx        52  8  22 7E C7 74 DB 46 13 00 
   338)    37484.1  Rx       175  8  9B FF 19 5C 5F DD 00 00 
   339)    37585.1  Rx       505  8  D6 02 7B 26 73 33 C3 DC 
   340)    37685.7  Rx       12F  8  A3 4D B6 EC 1E 7E DC 11 
   341)    37786.4  Rx       7D7  8  00 E8 C4 02 B7 E4 21 FE 
   342)    37887.1  Rx       175  8  D3 A7 7E 3B 6D 42 00 00 
   343)    37987.9  Rx       179  8  98 4C 70 7C F5 2F 05 96 
   344)    38088.8  Rx       187  8  23 D2 74 7D 56 E4 B0 00 
   345)    38189.8  Rx        51  8  47 63 00 00 02 FE 00 00 
   346)    38391.3  Rx       361  8  2F 5E DE BB 7C EF 66 00 
   347)    38592.7  Rx       361  8  32 24 4D 5B 92 52 42 00 
   348)    38693.5  Rx       12F  8  A1 9A 3E 04 15 54 5D 92 
   349)    38794.1  Rx       179  8  8D CA 9C 27 2C C7 B6 9B 
   350)    38895.0  Rx       666  8  EE AE 9B DF 42 B6 25 5E 
   351)    38995.5  Rx        8E  8  D5 3E 5F 36 00 00 00 00 
   352)    39096.1  Rx  10000212  8  00 00 00 00 00 00 00 00 
   353)    39196.7  Rx       7D7  8  00 CC CB 0E 9F DD 5B 58 
   354)    39297.2  Rx        50  8  BB 02 00 00 00 00 00 00 
   355)    39398.1  Rx       233  8  E1 DC 62 1E 82 34 28 7B 
   356)    39498.8  Rx       652  8  82 0C 3E 41 8A 3B 00 00 
   357)    39599.4  Rx       170  8  7B 6E 0E 1F EB 58 F0 7C 
   358)    39800.7  Rx       12C  8  8A 04 C0 96 85 EF 26 05 
   359)    39901.7  Rx       503  8  10 47 22 19 4F BF 46 C5 
   360)    40002.5  Rx        80  8  5A 2C 0A 00 47 11 18 1F 
   361)    40103.6  Rx        81  8  1B 27 04 00 00 00 00 00 
   362)    40204.5  Rx       230  8  C4 46 CB 3F 87 34 00 39 
   363)    40305.3  Rx       12C  8  7E 85 D2 01 26 3E 16 17 
   364)    40406.2  Rx        8E  8  CB 30 B8 2D 00 00 00 00 
   365)    40607.3  Rx         3  8  00 00 00 00 80 63 00 00 
   366)    40708.0  Rx  10000211  8  24 C3 7D 55 21 82 9C CD 
   367)    40909.0  Rx  10000208  8  00 00 00 00 00 00 00 00 
   368)    41009.8  Rx       19F  8  97 63 87 19 9C F4 4F F1 
   369)    41110.5  Rx         5  8  00 00 00 00 C7 00 00 00 
   370)    41211.3  Rx       642  8  B3 66 38 CA 33 3C DF 50 
   371)    41312.1  Rx       508  8  B1 41 29 0A 27 9F DA 66 
   372)    41412.6  Rx       7B4  8  5D 00 00 00 00 00 00 00 
   373)    41513.2  Rx         4  8  37 00 00 00 00 00 00 00 
   374)    41614.2  Rx       7CC  8  8B 00 00 00 00 00 00 00 
   375)    41714.7  Rx         1  8  00 00 00 00 E6 00 00 00 
   376)    41815.2  Rx       666  8  B8 8C 2C 42 02 0F F5 FD 
   377)    41915.9  Rx        51  8  CC B4 00 00 4C BB 00 00 
   378)    42016.3  Rx       12D  8  C4 5C 12 03 3D 57 43 AE 
   379)    42117.0  Rx       62B  8  94 02 00 00 9E 00 00 00 
   380)    42217.7  Rx       600  8  16 59 AA 68 07 C8 F2 AF 
   381)    42318.6  Rx       10C  8  36 1D 83 E5 0C 00 00 00 
   382)    42419.3  Rx       179  8  8C 75 FA D7 F9 68 E4 81 
   383)    42519.8  Rx       12E  8  E1 3A E4 6C 6B B0 9C D5 
   384)    42620.3  Rx       361  8  D5 9B 22 9C 69 B9 68 00 
   385)    42721.2  Rx         5  8  00 00 00 00 54 00 00 00 
   386)    42821.9  Rx       631  8  B9 CD 49 77 90 61 1F AD 
   387)    42922.7  Rx       505  8  B6 73 DD 44 66 84 E6 4F 
   388)    43023.4  Rx       70F  8  00 6C 11 74 1E 86 21 7D 
   389)    43124.0  Rx       7DB  8  00 D8 E4 1C 0B D4 43 4D 
   390)    43224.7  Rx       130  8  52 CC 93 14 43 9D D5 00 
   391)    43325.4  Rx       509  8  59 A5 DA D7 02 00 00 00 
   392)    43426.3  Rx         3  8  00 00 00 00 80 04 00 00 
   393)    43728.4  Rx       645  8  4B 05 51 B0 3F 6A 00 00 
   394)    43829.2  Rx       10A  8  5B 21 22 E2 9A 5D 7A 10 
   395)    43929.8  Rx       176  8  B5 63 6F 00 60 CE 47 FA 
   396)    44030.4  Rx       675  8  00 F8 9B E2 5D A7 EB C9 
   397)    44131.1  Rx       4CE  8  05 D2 00 00 00 00 00 00 
   398)    44232.1  Rx       50A  8  2A F4 CA AD 2C 02 00 00 
   399)    44332.9  Rx       509  8  66 3A F7 28 02 00 00 00 
   400)    44433.8  Rx       50A  8  A0 69 48 21 59 05 00 00 
   401)    44534.3  Rx       7D7  8  00 A4 A0 AF B2 C7 B8 62 
   402)    44635.2  Rx  10000211  8  17 09 D8 89 ED E1 32 09 
   403)    44736.1  Rx       157  8  A8 F2 01 FA 7F B9 D3 06 
   404)    44836.7  Rx       50E  8  C9 A1 26 4B 00 00 00 00 
   405)    44937.4  Rx       7B4  8  1A 00 00 00 00 00 00 00 
   406)    45039.3  Rx  10000201  8  84 6C 37 2A 30 00 9F 00 
   407)    45140.1  Rx       153  8  40 02 00 00 00 00 00 00 
   408)    45240.9  Rx  10000203  8  F8 5C 98 08 5C 03 C4 54 
   409)    45442.2  Rx  10000208  8  00 00 00 00 00 00 00 00 
   410)    45542.8  Rx       501  8  1B 1E FF 18 53 1E E7 E4 
   411)    45643.5  Rx         1  8  00 00 00 00 C4 00 00 00 
   412)    45744.6  Rx        81  8  2A 24 39 00 00 00 00 00 
   413)    45845.0  Rx       7D6  8  24 00 00 00 00 00 00 00 
   414)    45946.1  Rx       371  8  FC C3 01 00 00 00 00 00 
   415)    46046.9  Rx       645  8  00 E6 C3 27 56 1F 00 00 
   416)    46147.5  Rx       7CC  8  AF 00 00 00 00 00 00 00 
   417)    46248.1  Rx       64B  8  E9 06 00 00 61 09 00 00 
   418)    46349.1  Rx       50A  8  61 DD A1 88 10 03 00 00 
