;$FILEVERSION=1.1
;$STARTTIME=46001.7345314561
;
;   Start time: 10-12-2025 17:37:43.517
;   Generated by AtomX
;
;   Message Number
;   |         Time Offset (ms)
;   |         |        Type
;   |         |        |        ID (hex)
;   |         |        |        |     Data Length
;   |         |        |        |     |   Data Bytes (hex) ...
;   |         |        |        |     |   |
;---+--   ----+----  --+--  ----+---  +  -+ -- -- -- -- -- -- --
     1)        0.0  Rx       10B  8  05 0F 01 00 00 00 00 00 
     2)        4.0  Rx       10C  8  00 00 80 00 00 00 00 00 
     3)       16.4  Rx       12A  8  11 00 00 88 13 02 02 00 
     4)       19.9  Rx   8192A3B  1  00 
     5)       22.1  Rx       12C  8  8C 0A 88 90 00 00 00 00 
     6)       32.2  Rx       12D  8  30 75 00 00 E0 2E 01 00 
     7)      800.6  Rx         1  4  00 00 00 04 
     8)     1581.6  Rx       310  8  01 00 02 00 00 00 00 00 
     9)     1591.6  Rx       50E  8  00 02 00 00 00 00 00 00 
    10)     1601.5  Rx       19F  8  00 00 00 00 7A 20 00 00 
    11)     1611.7  Rx       50F  8  BE 20 1C 00 04 00 27 00 
    12)     1621.9  Rx       1A7  8  00 00 00 00 0A 00 00 00 
    13)     1631.4  Rx       644  8  13 0A 00 00 02 00 00 00 
    14)     1641.5  Rx       645  8  05 00 00 00 00 00 00 00 
    15)     1651.7  Rx  10000201  8  03 02 02 00 00 00 02 00 
    16)     1661.6  Rx  10000202  8  00 00 00 00 00 00 00 00 
    17)     1671.7  Rx  10000203  8  21 00 00 00 29 00 AE 02 
    18)     1681.7  Rx       310  8  01 00 02 00 00 00 00 00 
    19)     1691.7  Rx       50E  8  00 00 00 00 00 00 00 00 
    20)     1701.4  Rx       19F  8  00 00 00 00 CA 20 00 00 
    21)     1711.5  Rx       50F  8  C8 20 D8 00 09 00 68 00 
    22)     1721.4  Rx       1A7  8  00 00 00 00 0A 00 00 00 
    23)     1731.7  Rx  10000204  8  22 04 F5 FF 07 00 70 00 
    24)     1741.8  Rx  10000205  8  01 00 64 64 64 64 00 00 
    25)     1742.1  Rx  10000206  8  00 00 00 00 00 00 00 00 
    26)     1742.9  Rx  10000207  8  00 00 00 00 9A 15 00 00 
    27)     1743.1  Rx  10000208  8  00 00 00 00 00 00 00 00 
    28)     1761.5  Rx  10000201  8  03 02 02 00 00 00 02 00 
    29)     1771.6  Rx  10000202  8  00 00 00 00 00 00 00 00 
    30)     1781.5  Rx       310  8  01 00 02 00 00 00 00 00 
    31)     1791.8  Rx       50E  8  00 00 00 00 00 00 00 00 
    32)     1801.5  Rx       19F  8  00 00 00 00 B5 20 00 00 
    33)     1811.8  Rx       50F  8  BB 20 FC 01 08 00 8A 00 
    34)     1821.6  Rx       1A7  8  00 00 00 00 0A 00 8C 0A 
    35)     1831.8  Rx  10000203  8  45 00 00 00 0E 01 81 06 
    36)     1841.7  Rx  10000204  8  AD 06 CB FF 08 00 91 00 
    37)     1851.8  Rx  10000205  8  01 00 64 64 64 64 00 00 
    38)     1852.2  Rx  10000206  8  00 00 8C 0A 00 00 00 00 
    39)     1852.7  Rx  10000207  8  00 00 00 00 85 15 00 00 
    40)     1852.9  Rx  10000208  8  00 00 00 00 00 00 00 00 
    41)     1861.7  Rx  10000201  8  03 02 02 00 00 00 02 00 
    42)     1871.8  Rx  10000202  8  00 00 00 00 00 00 00 00 
    43)     1881.4  Rx       310  8  01 00 02 00 00 00 00 00 
    44)     1891.8  Rx       50E  8  00 00 00 00 00 00 00 00 
    45)     1901.6  Rx       19F  8  00 00 00 00 CC 20 00 00 
    46)     1911.8  Rx       50F  8  CF 20 5D 00 D0 00 9C 00 
    47)     1921.4  Rx       1A7  8  00 00 54 0B 0A 00 8C 0A 
    48)     1931.8  Rx  10000203  8  18 00 00 00 01 02 A6 08 
    49)     1941.7  Rx  10000204  8  CB 08 C7 FF 61 01 A0 00 
    50)     1951.6  Rx  10000205  8  01 00 64 64 64 64 00 00 
    51)     1951.9  Rx  10000206  8  00 00 8C 0A 54 0B 00 00 
    52)     1952.6  Rx  10000207  8  00 00 00 00 5E 15 00 00 
    53)     1952.8  Rx  10000208  8  00 00 00 00 00 00 00 00 
    54)     1961.8  Rx  10000201  8  03 02 02 00 00 00 03 00 
    55)     1971.7  Rx  10000202  8  00 00 00 00 00 00 00 00 
    56)     1981.4  Rx       310  8  01 00 02 00 00 00 00 00 
    57)     1991.6  Rx       50E  8  00 00 00 00 00 00 00 00 
    58)     2001.5  Rx       19F  8  00 00 00 00 D0 20 00 00 
    59)     2011.6  Rx       50F  8  CF 20 47 00 18 02 A6 00 
    60)     2022.0  Rx       1A7  8  00 00 54 0B 0A 00 8C 0A 
    61)     2031.9  Rx  10000203  8  3F 00 01 00 DE 02 9E 0A 
    62)     2041.6  Rx  10000204  8  BC 0A C6 FF 62 02 A8 00 
    63)     2053.9  Rx  10000205  8  01 00 64 64 64 64 00 00 
    64)     2054.2  Rx  10000206  8  00 00 8C 0A 54 0B 54 0B 
    65)     2054.3  Rx  10000207  8  00 00 00 00 85 15 00 00 
    66)     2054.4  Rx  10000208  8  00 00 00 00 00 00 00 00 
    67)     2072.0  Rx  10000201  8  03 02 02 00 00 00 03 00 
    68)     2081.5  Rx       310  8  01 00 02 00 00 00 00 00 
    69)     2091.9  Rx       50E  8  00 00 00 00 00 00 00 00 
    70)     2101.8  Rx       19F  8  00 00 00 00 D0 20 00 00 
    71)     2111.6  Rx       50F  8  D0 20 78 00 F6 02 AC 00 
    72)     2121.6  Rx       1A7  8  00 00 54 0B 0A 00 8C 0A 
    73)     2131.8  Rx  10000202  8  00 00 00 00 00 00 00 00 
    74)     2141.8  Rx  10000203  8  51 00 01 00 B5 03 99 0C 
    75)     2151.8  Rx  10000204  8  B1 0C C1 FF 3F 03 AD 00 
    76)     2161.5  Rx  10000205  8  01 00 64 64 64 64 00 00 
    77)     2161.8  Rx  10000206  8  00 00 8C 0A 54 0B 54 0B 
    78)     2162.8  Rx  10000207  8  00 00 00 00 70 15 00 00 
    79)     2163.1  Rx  10000208  8  00 00 00 00 00 00 00 00 
    80)     2171.8  Rx  10000201  8  03 02 02 00 00 00 03 00 
    81)     2181.7  Rx       310  8  01 00 02 00 00 00 00 00 
    82)     2191.6  Rx       50E  8  00 00 00 00 00 00 00 00 
    83)     2201.7  Rx       19F  8  00 00 00 00 CE 20 00 00 
    84)     2212.3  Rx       50F  8  CF 20 8C 00 9E 03 AF 00 
    85)     2221.9  Rx       1A7  8  00 00 54 0B 0A 00 8C 0A 
    86)     2231.9  Rx  10000202  8  00 00 00 00 00 00 00 00 
    87)     2241.8  Rx  10000203  8  1C 00 02 00 68 04 3E 0E 
    88)     2251.7  Rx  10000204  8  51 0E BB FF D1 03 AF 00 
    89)     2261.5  Rx  10000205  8  01 00 64 64 64 64 00 00 
    90)     2261.8  Rx  10000206  8  00 00 8C 0A 54 0B 54 0B 
    91)     2262.5  Rx  10000207  8  00 00 00 00 5B 15 00 00 
    92)     2262.9  Rx  10000208  8  00 00 00 00 00 00 00 00 
    93)     2281.5  Rx       310  8  01 00 02 00 00 00 00 00 
    94)     2291.4  Rx       50E  8  00 00 00 00 00 00 00 00 
    95)     2301.3  Rx       19F  8  00 00 00 00 D0 20 00 00 
    96)     2311.4  Rx       50F  8  CD 20 4A 00 17 04 B0 00 
    97)     2321.3  Rx       1A7  8  00 00 54 0B 0A 00 8C 0A 
    98)     2331.3  Rx  10000201  8  03 02 02 00 00 00 03 00 
    99)     2341.4  Rx  10000202  8  00 00 00 00 00 00 00 00 
   100)     2351.4  Rx  10000203  8  09 00 02 00 1C 05 E6 0F 
   101)     2361.5  Rx  10000204  8  F5 0F B8 FF 47 04 B1 00 
   102)     2371.5  Rx  10000205  8  01 00 64 64 64 64 00 00 
   103)     2371.8  Rx  10000206  8  00 00 8C 0A 54 0B 54 0B 
   104)     2371.9  Rx  10000207  8  00 00 00 00 68 15 00 00 
   105)     2372.0  Rx  10000208  8  00 00 00 00 00 00 00 00 
   106)     2381.7  Rx       310  8  01 00 02 00 00 00 00 00 
   107)     2391.6  Rx       50E  8  00 00 00 00 00 00 00 00 
   108)     2401.7  Rx       19F  8  00 00 00 00 CF 20 00 00 
   109)     2411.6  Rx       50F  8  CF 20 76 00 71 04 B1 00 
   110)     2421.5  Rx       1A7  8  00 00 54 0B 08 00 8C 0A 
   111)     2481.5  Rx       310  8  01 00 02 00 00 00 00 00 
   112)     2491.4  Rx       50E  8  00 00 00 00 00 00 00 00 
   113)     2501.5  Rx       19F  8  00 00 00 00 CD 20 00 00 
   114)     2511.5  Rx       50F  8  CF 20 91 00 B4 04 B2 00 
   115)     2521.3  Rx       1A7  8  00 00 54 0B 08 00 8C 0A 
   116)     2581.5  Rx       310  8  01 00 02 00 00 00 00 00 
   117)     2591.6  Rx       50E  8  00 00 00 00 00 00 00 00 
   118)     2601.4  Rx       19F  8  00 00 00 00 D0 20 00 00 
   119)     2611.5  Rx       50F  8  CF 20 8E 00 E7 04 B2 00 
   120)     2621.4  Rx       1A7  8  00 00 54 0B 08 00 48 0D 
   121)     2681.5  Rx       310  8  01 00 02 00 00 00 00 00 
   122)     2691.5  Rx       50E  8  00 00 00 00 00 00 00 00 
   123)     2701.5  Rx       19F  8  00 00 00 00 CD 20 00 00 
   124)     2711.6  Rx       50F  8  CD 20 92 00 0C 05 B2 00 
   125)     2721.5  Rx       1A7  8  00 00 10 0E 08 00 48 0D 
   126)     2781.6  Rx       310  8  01 00 02 00 00 00 00 00 
   127)     2791.6  Rx       50E  8  00 00 00 00 00 00 00 00 
   128)     2801.5  Rx       19F  8  00 00 00 00 CC 20 00 00 
   129)     2811.7  Rx       50F  8  CC 20 96 00 27 05 B2 00 
   130)     2821.5  Rx       1A7  8  00 00 10 0E 08 00 48 0D 
   131)     2881.5  Rx       310  8  01 00 02 00 00 00 00 00 
   132)     2891.5  Rx       50E  8  00 00 00 00 00 00 00 00 
   133)     2901.6  Rx       19F  8  00 00 00 00 CC 20 00 00 
   134)     2911.6  Rx       50F  8  CD 20 94 00 3C 05 B2 00 
   135)     2921.5  Rx       1A7  8  00 00 10 0E 08 00 48 0D 
   136)     2981.3  Rx       310  8  01 00 02 00 00 00 00 00 
   137)     2991.5  Rx       50E  8  00 00 00 00 00 00 00 00 
   138)     3001.3  Rx       19F  8  00 00 00 00 CC 20 00 00 
   139)     3011.5  Rx       50F  8  CD 20 92 00 4A 05 B2 00 
   140)     3021.3  Rx       1A7  8  00 00 10 0E 08 00 48 0D 
   141)     3031.4  Rx  10000201  8  03 02 02 00 00 00 03 00 
   142)     3041.5  Rx  10000202  8  00 00 00 00 00 00 00 00 
   143)     3051.6  Rx  10000203  8  0E 00 03 00 34 08 7B 17 
   144)     3061.5  Rx  10000204  8  71 17 98 FF 52 05 B2 00 
   145)     3071.7  Rx  10000205  8  01 00 64 64 64 64 00 00 
   146)     3071.9  Rx  10000206  8  00 00 48 0D 10 0E 10 0E 
   147)     3072.0  Rx  10000207  8  00 00 00 00 A5 15 00 00 
   148)     3072.2  Rx  10000208  8  00 00 00 00 00 00 00 00 
   149)     3081.5  Rx       310  8  01 00 02 00 00 00 00 00 
   150)     3091.4  Rx       50E  8  00 00 00 00 00 00 00 00 
   151)     3101.5  Rx       19F  8  00 00 00 00 CD 20 00 00 
   152)     3111.5  Rx       50F  8  CE 20 97 00 56 05 B2 00 
   153)     3121.3  Rx       1A7  8  00 00 10 0E 08 00 48 0D 
   154)     3181.4  Rx       310  8  01 00 02 00 00 00 00 00 
   155)     3191.4  Rx       50E  8  00 00 00 00 00 00 00 00 
   156)     3201.5  Rx       19F  8  00 00 00 00 CD 20 00 00 
   157)     3211.5  Rx       50F  8  CC 20 95 00 5D 05 B2 00 
   158)     3221.5  Rx       1A7  8  00 00 10 0E 08 00 48 0D 
   159)     3281.3  Rx       310  8  01 00 02 00 00 00 00 00 
   160)     3291.4  Rx       50E  8  00 00 00 00 00 00 00 00 
   161)     3301.4  Rx       19F  8  00 00 00 00 CD 20 00 00 
   162)     3311.5  Rx       50F  8  CD 20 94 00 63 05 B2 00 
   163)     3321.5  Rx       1A7  8  00 00 10 0E 08 00 48 0D 
   164)     3381.4  Rx       310  8  01 00 02 00 00 00 00 00 
   165)     3391.3  Rx       50E  8  00 00 00 00 00 00 00 00 
   166)     3401.5  Rx       19F  8  00 00 00 00 CD 20 00 00 
   167)     3411.5  Rx       50F  8  CD 20 95 00 68 05 B2 00 
   168)     3421.5  Rx       1A7  8  00 00 10 0E 08 00 D8 0E 
   169)     3481.5  Rx       310  8  01 00 02 00 00 00 00 00 
   170)     3491.6  Rx       50E  8  00 00 00 00 00 00 00 00 
   171)     3501.4  Rx       19F  8  00 00 00 00 CE 20 00 00 
   172)     3511.3  Rx       50F  8  CD 20 94 00 6C 05 B2 00 
   173)     3521.2  Rx       1A7  8  00 00 A0 0F 08 00 D8 0E 
   174)     3581.6  Rx       310  8  01 00 02 00 00 00 00 00 
   175)     3591.6  Rx       50E  8  00 00 00 00 00 00 00 00 
   176)     3601.4  Rx       19F  8  00 00 00 00 CD 20 00 00 
   177)     3611.4  Rx       50F  8  CE 20 96 00 6E 05 B2 00 
   178)     3621.4  Rx       1A7  8  00 00 A0 0F 08 00 D8 0E 
   179)     3681.8  Rx       310  8  01 00 02 00 00 00 00 00 
   180)     3691.3  Rx       50E  8  00 00 00 00 00 00 00 00 
   181)     3701.4  Rx       19F  8  00 00 00 00 CD 20 00 00 
   182)     3711.4  Rx       50F  8  CD 20 98 00 71 05 B2 00 
   183)     3721.3  Rx       1A7  8  00 00 A0 0F 08 00 D8 0E 
   184)     3781.6  Rx       310  8  01 00 02 00 00 00 00 00 
   185)     3791.5  Rx       50E  8  00 00 00 00 00 00 00 00 
   186)     3801.5  Rx       19F  8  00 00 00 00 CE 20 00 00 
   187)     3811.3  Rx       50F  8  CD 20 96 00 72 05 B2 00 
   188)     3821.4  Rx       1A7  8  00 00 A0 0F 08 00 D8 0E 
   189)     3881.5  Rx       310  8  01 00 02 00 00 00 00 00 
   190)     3891.5  Rx       50E  8  00 00 00 00 00 00 00 00 
   191)     3901.4  Rx       19F  8  00 00 00 00 CE 20 00 00 
   192)     3911.4  Rx       50F  8  CE 20 9C 00 72 05 B2 00 
   193)     3921.4  Rx       1A7  8  00 00 A0 0F 08 00 D8 0E 
   194)     3981.5  Rx       310  8  01 00 02 00 00 00 00 00 
   195)     3991.4  Rx       50E  8  00 00 00 00 00 00 00 00 
   196)     4001.5  Rx       19F  8  00 00 00 00 CD 20 00 00 
   197)     4011.4  Rx       50F  8  CD 20 9A 00 74 05 B2 00 
   198)     4021.3  Rx       1A7  8  00 00 A0 0F 08 00 D8 0E 
   199)     4031.2  Rx  10000201  8  03 02 02 00 00 00 03 00 
   200)     4041.3  Rx  10000202  8  00 00 00 00 00 00 00 00 
   201)     4051.4  Rx  10000203  8  04 00 04 00 72 0A D1 1C 
   202)     4061.6  Rx  10000204  8  B6 1C 7D FF 74 05 B2 00 
   203)     4071.4  Rx  10000205  8  01 00 64 64 64 64 00 00 
   204)     4071.6  Rx  10000206  8  00 00 D8 0E A0 0F A0 0F 
   205)     4071.8  Rx  10000207  8  00 00 00 00 F1 14 00 00 
   206)     4071.9  Rx  10000208  8  00 00 00 00 00 00 00 00 
   207)     4081.5  Rx       310  8  01 00 02 00 00 00 00 00 
   208)     4091.5  Rx       50E  8  00 00 00 00 00 00 00 00 
   209)     4101.4  Rx       19F  8  00 00 00 00 CD 20 00 00 
   210)     4111.4  Rx       50F  8  CE 20 9E 00 73 05 B2 00 
   211)     4121.4  Rx       1A7  8  00 00 A0 0F 08 00 A0 0F 
   212)     4181.5  Rx       310  8  01 00 02 00 00 00 00 00 
   213)     4191.5  Rx       50E  8  00 00 00 00 00 00 00 00 
   214)     4201.5  Rx       19F  8  00 00 00 00 CE 20 00 00 
   215)     4211.4  Rx       50F  8  CD 20 98 00 75 05 B2 00 
   216)     4221.5  Rx       1A7  8  00 00 68 10 08 00 A0 0F 
   217)     4281.5  Rx       310  8  01 00 02 00 00 00 00 00 
   218)     4291.4  Rx       50E  8  00 00 00 00 00 00 00 00 
   219)     4301.4  Rx       19F  8  00 00 00 00 CD 20 00 00 
   220)     4311.5  Rx       50F  8  CD 20 96 00 75 05 B2 00 
   221)     4321.6  Rx       1A7  8  00 00 68 10 08 00 A0 0F 
   222)     4381.5  Rx       310  8  01 00 02 00 00 00 00 00 
   223)     4391.6  Rx       50E  8  00 00 00 00 00 00 00 00 
   224)     4401.4  Rx       19F  8  00 00 00 00 CD 20 00 00 
   225)     4411.3  Rx       50F  8  CD 20 96 00 75 05 B2 00 
   226)     4421.4  Rx       1A7  8  00 00 68 10 08 00 A0 0F 
   227)     4481.3  Rx       310  8  01 00 02 00 00 00 00 00 
   228)     4491.2  Rx       50E  8  00 00 00 00 00 00 00 00 
   229)     4501.4  Rx       19F  8  00 00 00 00 CE 20 00 00 
   230)     4511.2  Rx       50F  8  CE 20 99 00 75 05 B2 00 
   231)     4521.3  Rx       1A7  8  00 00 68 10 08 00 A0 0F 
   232)     4581.4  Rx       310  8  01 00 02 00 00 00 00 00 
   233)     4591.3  Rx       50E  8  00 00 00 00 00 00 00 00 
   234)     4601.3  Rx       19F  8  00 00 00 00 CE 20 00 00 
   235)     4611.3  Rx       50F  8  CD 20 90 00 75 05 B2 00 
   236)     4621.3  Rx       1A7  8  00 00 68 10 08 00 A0 0F 
   237)     4681.3  Rx       310  8  01 00 02 00 00 00 00 00 
   238)     4691.4  Rx       50E  8  00 00 00 00 00 00 00 00 
   239)     4701.4  Rx       19F  8  00 00 00 00 CD 20 00 00 
   240)     4711.6  Rx       50F  8  CD 20 97 00 75 05 B2 00 
   241)     4721.4  Rx       1A7  8  00 00 68 10 08 00 A0 0F 
   242)     4781.6  Rx       310  8  01 00 02 00 00 00 00 00 
   243)     4791.6  Rx       50E  8  00 00 00 00 00 00 00 00 
   244)     4801.5  Rx       19F  8  00 00 00 00 CD 20 00 00 
   245)     4811.4  Rx       50F  8  CD 20 9C 00 76 05 B2 00 
   246)     4821.3  Rx       1A7  8  00 00 68 10 08 00 A0 0F 
   247)     4881.5  Rx       310  8  01 00 02 00 00 00 00 00 
   248)     4891.6  Rx       50E  8  00 00 00 00 00 00 00 00 
   249)     4901.4  Rx       19F  8  00 00 00 00 CD 20 00 00 
   250)     4911.2  Rx       50F  8  CD 20 94 00 76 05 B2 00 
   251)     4921.3  Rx       1A7  8  00 00 68 10 08 00 68 10 
   252)     4981.3  Rx       310  8  01 00 02 00 00 00 00 00 
   253)     4991.7  Rx       50E  8  00 00 00 00 00 00 00 00 
   254)     5001.4  Rx       19F  8  00 00 00 00 CD 20 00 00 
   255)     5011.4  Rx       50F  8  CE 20 9D 00 77 05 B2 00 
   256)     5021.4  Rx       1A7  8  00 00 30 11 08 00 68 10 
   257)     5031.4  Rx  10000201  8  03 02 02 00 00 00 03 00 
   258)     5041.4  Rx  10000202  8  00 00 00 00 00 00 00 00 
   259)     5051.5  Rx  10000203  8  01 00 05 00 69 0B 19 1F 
   260)     5061.5  Rx  10000204  8  F7 1E 72 FF 75 05 B2 00 
   261)     5071.5  Rx  10000205  8  01 00 64 64 64 64 00 00 
   262)     5071.8  Rx  10000206  8  00 00 68 10 30 11 68 10 
   263)     5072.1  Rx  10000207  8  00 00 00 00 44 15 00 00 
   264)     5072.2  Rx  10000208  8  00 00 00 00 00 00 00 00 
   265)     5081.5  Rx       310  8  01 00 02 00 00 00 00 00 
   266)     5091.3  Rx       50E  8  00 00 00 00 00 00 00 00 
   267)     5101.4  Rx       19F  8  00 00 00 00 CE 20 00 00 
   268)     5111.4  Rx       50F  8  CE 20 97 00 75 05 B2 00 
   269)     5121.3  Rx       1A7  8  00 00 30 11 08 00 68 10 
   270)     5181.4  Rx       310  8  01 00 02 00 00 00 00 00 
   271)     5191.3  Rx       50E  8  00 00 00 00 00 00 00 00 
   272)     5201.3  Rx       19F  8  00 00 00 00 CD 20 00 00 
   273)     5211.5  Rx       50F  8  CE 20 97 00 76 05 B2 00 
   274)     5221.3  Rx       1A7  8  00 00 30 11 08 00 68 10 
   275)     5281.4  Rx       310  8  01 00 02 00 00 00 00 00 
   276)     5291.1  Rx       50E  8  00 00 00 00 00 00 00 00 
   277)     5301.2  Rx       19F  8  00 00 00 00 CD 20 00 00 
   278)     5311.4  Rx       50F  8  CE 20 9C 00 76 05 B2 00 
   279)     5321.1  Rx       1A7  8  00 00 30 11 08 00 68 10 
   280)     5381.6  Rx       310  8  01 00 02 00 00 00 00 00 
   281)     5391.5  Rx       50E  8  00 00 00 00 00 00 00 00 
   282)     5401.4  Rx       19F  8  00 00 00 00 CD 20 00 00 
   283)     5411.5  Rx       50F  8  CD 20 95 00 76 05 B2 00 
   284)     5421.3  Rx       1A7  8  00 00 30 11 08 00 68 10 
   285)     5481.4  Rx       310  8  01 00 02 00 00 00 00 00 
   286)     5491.3  Rx       50E  8  00 00 00 00 00 00 00 00 
   287)     5501.2  Rx       19F  8  00 00 00 00 CE 20 00 00 
   288)     5511.2  Rx       50F  8  CD 20 9C 00 77 05 B2 00 
   289)     5521.4  Rx       1A7  8  00 00 30 11 08 00 68 10 
   290)     5581.2  Rx       310  8  01 00 02 00 00 00 00 00 
   291)     5591.3  Rx       50E  8  00 00 00 00 00 00 00 00 
   292)     5601.2  Rx       19F  8  00 00 00 00 CD 20 00 00 
   293)     5611.3  Rx       50F  8  CD 20 96 00 75 05 B2 00 
   294)     5621.4  Rx       1A7  8  00 00 30 11 08 00 68 10 
   295)     5681.2  Rx       310  8  01 00 02 00 00 00 00 00 
   296)     5691.2  Rx       50E  8  00 00 00 00 00 00 00 00 
   297)     5701.3  Rx       19F  8  00 00 00 00 CE 20 00 00 
   298)     5711.4  Rx       50F  8  CD 20 97 00 77 05 B2 00 
   299)     5721.5  Rx       1A7  8  00 00 30 11 08 00 68 10 
   300)     5781.3  Rx       310  8  01 00 02 00 00 00 00 00 
   301)     5791.2  Rx       50E  8  00 00 00 00 00 00 00 00 
   302)     5801.2  Rx       19F  8  00 00 00 00 CD 20 00 00 
   303)     5811.3  Rx       50F  8  CE 20 99 00 75 05 B2 00 
   304)     5821.4  Rx       1A7  8  00 00 30 11 08 00 68 10 
   305)     5881.3  Rx       310  8  01 00 02 00 00 00 00 00 
   306)     5891.5  Rx       50E  8  00 00 00 00 00 00 00 00 
   307)     5901.3  Rx       19F  8  00 00 00 00 CE 20 00 00 
   308)     5911.3  Rx       50F  8  CD 20 94 00 77 05 B2 00 
   309)     5921.3  Rx       1A7  8  00 00 30 11 08 00 68 10 
   310)     5981.3  Rx       310  8  01 00 02 00 00 00 00 00 
   311)     5991.3  Rx       50E  8  00 00 00 00 00 00 00 00 
   312)     6001.4  Rx       19F  8  00 00 00 00 CD 20 00 00 
   313)     6011.4  Rx       50F  8  CD 20 99 00 75 05 B2 00 
   314)     6021.4  Rx       1A7  8  00 00 30 11 08 00 68 10 
   315)     6031.4  Rx  10000201  8  03 02 02 00 00 00 03 00 
   316)     6041.4  Rx  10000202  8  00 00 00 00 00 00 00 00 
   317)     6051.4  Rx  10000203  8  00 00 05 00 D2 0B 13 20 
   318)     6061.6  Rx  10000204  8  ED 1F 6D FF 77 05 B2 00 
   319)     6071.5  Rx  10000205  8  01 00 64 64 64 64 00 00 
   320)     6071.7  Rx  10000206  8  00 00 68 10 30 11 68 10 
   321)     6071.8  Rx  10000207  8  00 00 00 00 2E 15 00 00 
   322)     6072.1  Rx  10000208  8  00 00 00 00 00 00 00 00 
   323)     6081.4  Rx       310  8  01 00 02 00 00 00 00 00 
   324)     6091.7  Rx       50E  8  00 00 00 00 00 00 00 00 
   325)     6101.3  Rx       19F  8  00 00 00 00 CD 20 00 00 
   326)     6111.1  Rx       50F  8  CD 20 9B 00 74 05 B2 00 
   327)     6121.2  Rx       1A7  8  00 00 30 11 08 00 68 10 
   328)     6181.3  Rx       310  8  01 00 02 00 00 00 00 00 
   329)     6191.6  Rx       50E  8  00 00 00 00 00 00 00 00 
   330)     6201.2  Rx       19F  8  00 00 00 00 CE 20 00 00 
   331)     6211.5  Rx       50F  8  CD 20 90 00 75 05 B2 00 
   332)     6221.4  Rx       1A7  8  00 00 30 11 08 00 68 10 
   333)     6281.3  Rx       310  8  01 00 02 00 00 00 00 00 
   334)     6291.4  Rx       50E  8  00 00 00 00 00 00 00 00 
   335)     6301.5  Rx       19F  8  00 00 00 00 CD 20 00 00 
   336)     6311.4  Rx       50F  8  CD 20 9B 00 75 05 B2 00 
   337)     6321.5  Rx       1A7  8  00 00 30 11 08 00 68 10 
   338)     6381.2  Rx       310  8  01 00 02 00 00 00 00 00 
   339)     6391.4  Rx       50E  8  00 00 00 00 00 00 00 00 
   340)     6401.1  Rx       19F  8  00 00 00 00 CE 20 00 00 
   341)     6411.3  Rx       50F  8  CD 20 9B 00 75 05 B2 00 
   342)     6421.4  Rx       1A7  8  00 00 30 11 08 00 30 11 
   343)     6481.4  Rx       310  8  01 00 02 00 00 00 00 00 
   344)     6491.4  Rx       50E  8  00 00 00 00 00 00 00 00 
   345)     6501.4  Rx       19F  8  00 00 00 00 CE 20 00 00 
   346)     6511.4  Rx       50F  8  CD 20 99 00 77 05 B2 00 
   347)     6521.4  Rx       1A7  8  00 00 30 11 08 00 30 11 
   348)     6581.2  Rx       310  8  01 00 02 00 00 00 00 00 
   349)     6591.3  Rx       50E  8  00 00 00 00 00 00 00 00 
   350)     6601.4  Rx       19F  8  00 00 00 00 CD 20 00 00 
   351)     6611.3  Rx       50F  8  CE 20 99 00 75 05 B2 00 
   352)     6621.2  Rx       1A7  8  00 00 30 11 08 00 30 11 
   353)     6631.2  Rx       644  8  13 0A 00 00 02 00 00 00 
   354)     6641.4  Rx       645  8  05 00 00 00 00 00 00 00 
   355)     6681.5  Rx       310  8  01 00 02 00 00 00 00 00 
   356)     6691.3  Rx       50E  8  00 00 00 00 00 00 00 00 
   357)     6701.3  Rx       19F  8  00 00 00 00 CD 20 00 00 
   358)     6711.1  Rx       50F  8  CE 20 9A 00 76 05 B2 00 
   359)     6721.3  Rx       1A7  8  00 00 30 11 08 00 30 11 
   360)     6781.3  Rx       310  8  01 00 02 00 00 00 00 00 
   361)     6791.1  Rx       50E  8  00 00 00 00 00 00 00 00 
   362)     6801.2  Rx       19F  8  00 00 00 00 CD 20 00 00 
   363)     6811.2  Rx       50F  8  CD 20 9A 00 75 05 B2 00 
   364)     6821.0  Rx       1A7  8  00 00 30 11 08 00 30 11 
   365)     6881.2  Rx       310  8  01 00 02 00 00 00 00 00 
   366)     6891.1  Rx       50E  8  00 00 00 00 00 00 00 00 
   367)     6901.1  Rx       19F  8  00 00 00 00 CD 20 00 00 
   368)     6911.5  Rx       50F  8  CE 20 95 00 75 05 B2 00 
   369)     6921.3  Rx       1A7  8  00 00 30 11 08 00 30 11 
   370)     6981.2  Rx       310  8  01 00 02 00 00 00 00 00 
   371)     6991.2  Rx       50E  8  00 00 00 00 00 00 00 00 
   372)     7001.3  Rx       19F  8  00 00 00 00 CD 20 00 00 
   373)     7011.5  Rx       50F  8  CD 20 99 00 76 05 B2 00 
   374)     7021.8  Rx       1A7  8  00 00 30 11 08 00 30 11 
   375)     7031.3  Rx  10000201  8  03 02 02 00 00 00 03 00 
   376)     7041.9  Rx  10000202  8  00 00 00 00 00 00 00 00 
   377)     7051.4  Rx  10000203  8  00 00 05 00 FF 0B 7E 20 
   378)     7061.5  Rx  10000204  8  56 20 6B FF 78 05 B2 00 
   379)     7071.5  Rx  10000205  8  01 00 64 64 64 64 00 00 
   380)     7071.7  Rx  10000206  8  00 00 30 11 30 11 68 10 
   381)     7071.8  Rx  10000207  8  00 00 00 00 AB 14 00 00 
   382)     7071.9  Rx  10000208  8  00 00 00 00 00 00 00 00 
   383)     7081.2  Rx       310  8  01 00 02 00 00 00 00 00 
   384)     7091.6  Rx       50E  8  00 00 00 00 00 00 00 00 
   385)     7101.4  Rx       19F  8  00 00 00 00 CD 20 00 00 
   386)     7111.3  Rx       50F  8  CF 20 99 00 74 05 B2 00 
   387)     7121.5  Rx       1A7  8  00 00 30 11 08 00 30 11 
   388)     7181.5  Rx       310  8  01 00 02 00 00 00 00 00 
   389)     7191.7  Rx       50E  8  00 00 00 00 00 00 00 00 
   390)     7201.6  Rx       19F  8  00 00 00 00 CE 20 00 00 
   391)     7211.5  Rx       50F  8  CE 20 93 00 75 05 B2 00 
   392)     7221.4  Rx       1A7  8  00 00 30 11 08 00 30 11 
   393)     7281.5  Rx       310  8  01 00 02 00 00 00 00 00 
   394)     7291.4  Rx       50E  8  00 00 00 00 00 00 00 00 
   395)     7301.4  Rx       19F  8  00 00 00 00 CE 20 00 00 
   396)     7311.3  Rx       50F  8  CD 20 9B 00 77 05 B2 00 
   397)     7321.3  Rx       1A7  8  00 00 30 11 08 00 30 11 
   398)     7381.5  Rx       310  8  01 00 02 00 00 00 00 00 
   399)     7391.4  Rx       50E  8  00 00 00 00 00 00 00 00 
   400)     7401.2  Rx       19F  8  00 00 00 00 CE 20 00 00 
   401)     7411.5  Rx       50F  8  CD 20 9A 00 76 05 B2 00 
   402)     7421.2  Rx       1A7  8  00 00 30 11 08 00 30 11 
   403)     7481.3  Rx       310  8  01 00 02 00 00 00 00 00 
   404)     7491.4  Rx       50E  8  00 00 00 00 00 00 00 00 
   405)     7501.1  Rx       19F  8  00 00 00 00 CD 20 00 00 
   406)     7511.3  Rx       50F  8  CD 20 92 00 75 05 B2 00 
   407)     7521.1  Rx       1A7  8  00 00 30 11 08 00 30 11 
   408)     7581.2  Rx       310  8  01 00 02 00 00 00 00 00 
   409)     7591.4  Rx       50E  8  00 00 00 00 00 00 00 00 
   410)     7601.3  Rx       19F  8  00 00 00 00 CD 20 00 00 
   411)     7611.5  Rx       50F  8  CE 20 98 00 76 05 B2 00 
   412)     7621.5  Rx       1A7  8  00 00 30 11 08 00 30 11 
   413)     7681.4  Rx       310  8  01 00 02 00 00 00 00 00 
   414)     7691.4  Rx       50E  8  00 00 00 00 00 00 00 00 
   415)     7701.2  Rx       19F  8  00 00 00 00 CE 20 00 00 
   416)     7711.2  Rx       50F  8  CD 20 9C 00 75 05 B2 00 
   417)     7721.3  Rx       1A7  8  00 00 30 11 08 00 30 11 
   418)     7781.3  Rx       310  8  01 00 02 00 00 00 00 00 
   419)     7791.4  Rx       50E  8  00 00 00 00 00 00 00 00 
   420)     7801.1  Rx       19F  8  00 00 00 00 CE 20 00 00 
   421)     7811.2  Rx       50F  8  CE 20 97 00 76 05 B2 00 
   422)     7821.2  Rx       1A7  8  00 00 30 11 08 00 30 11 
   423)     7881.2  Rx       310  8  01 00 02 00 00 00 00 00 
   424)     7891.4  Rx       50E  8  00 00 00 00 00 00 00 00 
   425)     7901.4  Rx       19F  8  00 00 00 00 CD 20 00 00 
   426)     7911.2  Rx       50F  8  CD 20 95 00 75 05 B2 00 
   427)     7921.2  Rx       1A7  8  00 00 30 11 08 00 30 11 
   428)     7981.3  Rx       310  8  01 00 02 00 00 00 00 00 
   429)     7991.3  Rx       50E  8  00 00 00 00 00 00 00 00 
   430)     8001.4  Rx       19F  8  00 00 00 00 CD 20 00 00 
   431)     8011.3  Rx       50F  8  CE 20 93 00 75 05 B2 00 
   432)     8021.2  Rx       1A7  8  00 00 30 11 08 00 30 11 
   433)     8031.2  Rx  10000201  8  03 02 02 00 00 00 03 00 
   434)     8041.1  Rx  10000202  8  00 00 00 00 00 00 00 00 
   435)     8051.6  Rx  10000203  8  19 00 05 00 13 0C AB 20 
   436)     8061.3  Rx  10000204  8  83 20 6A FF 75 05 B2 00 
   437)     8071.4  Rx  10000205  8  01 00 64 64 64 64 00 00 
   438)     8071.7  Rx  10000206  8  00 00 30 11 30 11 68 10 
   439)     8072.0  Rx  10000207  8  00 00 00 00 22 15 00 00 
   440)     8072.2  Rx  10000208  8  00 00 00 00 00 00 00 00 
   441)     8081.4  Rx       310  8  01 00 02 00 00 00 00 00 
   442)     8091.4  Rx       50E  8  00 00 00 00 00 00 00 00 
   443)     8101.3  Rx       19F  8  00 00 00 00 CD 20 00 00 
   444)     8111.2  Rx       50F  8  CD 20 9C 00 77 05 B2 00 
   445)     8121.2  Rx       1A7  8  00 00 30 11 08 00 30 11 
   446)     8181.3  Rx       310  8  01 00 02 00 00 00 00 00 
   447)     8191.2  Rx       50E  8  00 00 00 00 00 00 00 00 
   448)     8201.3  Rx       19F  8  00 00 00 00 CD 20 00 00 
   449)     8211.1  Rx       50F  8  CE 20 96 00 75 05 B2 00 
   450)     8221.1  Rx       1A7  8  00 00 30 11 08 00 30 11 
   451)     8281.4  Rx       310  8  01 00 02 00 00 00 00 00 
   452)     8291.4  Rx       50E  8  00 00 00 00 00 00 00 00 
   453)     8301.2  Rx       19F  8  00 00 00 00 CD 20 00 00 
   454)     8311.4  Rx       50F  8  CC 20 93 00 76 05 B2 00 
   455)     8321.1  Rx       1A7  8  00 00 30 11 08 00 30 11 
   456)     8381.2  Rx       310  8  01 00 02 00 00 00 00 00 
   457)     8391.2  Rx       50E  8  00 00 00 00 00 00 00 00 
   458)     8401.1  Rx       19F  8  00 00 00 00 CE 20 00 00 
   459)     8411.1  Rx       50F  8  CE 20 93 00 75 05 B2 00 
   460)     8421.0  Rx       1A7  8  00 00 30 11 08 00 30 11 
   461)     8481.4  Rx       310  8  01 00 02 00 00 00 00 00 
   462)     8491.2  Rx       50E  8  00 00 00 00 00 00 00 00 
   463)     8501.3  Rx       19F  8  00 00 00 00 CE 20 00 00 
   464)     8511.2  Rx       50F  8  CD 20 94 00 76 05 B2 00 
   465)     8521.0  Rx       1A7  8  00 00 30 11 08 00 30 11 
   466)     8581.2  Rx       310  8  01 00 02 00 00 00 00 00 
   467)     8591.3  Rx       50E  8  00 00 00 00 00 00 00 00 
   468)     8601.2  Rx       19F  8  00 00 00 00 CE 20 00 00 
   469)     8611.1  Rx       50F  8  CD 20 99 00 76 05 B2 00 
   470)     8621.2  Rx       1A7  8  00 00 30 11 08 00 30 11 
   471)     8681.1  Rx       310  8  01 00 02 00 00 00 00 00 
   472)     8690.9  Rx       50E  8  00 00 00 00 00 00 00 00 
   473)     8701.1  Rx       19F  8  00 00 00 00 CD 20 00 00 
   474)     8711.2  Rx       50F  8  CE 20 97 00 75 05 B2 00 
   475)     8721.3  Rx       1A7  8  00 00 30 11 08 00 30 11 
   476)     8781.2  Rx       310  8  01 00 02 00 00 00 00 00 
   477)     8791.2  Rx       50E  8  00 00 00 00 00 00 00 00 
   478)     8801.2  Rx       19F  8  00 00 00 00 CD 20 00 00 
   479)     8811.3  Rx       50F  8  CD 20 9E 00 76 05 B2 00 
   480)     8821.1  Rx       1A7  8  00 00 30 11 08 00 30 11 
   481)     8881.3  Rx       310  8  01 00 02 00 00 00 00 00 
   482)     8891.1  Rx       50E  8  00 00 00 00 00 00 00 00 
   483)     8901.2  Rx       19F  8  00 00 00 00 CE 20 00 00 
   484)     8911.1  Rx       50F  8  CD 20 95 00 77 05 B2 00 
   485)     8921.5  Rx       1A7  8  00 00 30 11 08 00 30 11 
   486)     8981.4  Rx       310  8  01 00 02 00 00 00 00 00 
   487)     8991.6  Rx       50E  8  00 00 00 00 00 00 00 00 
   488)     9001.4  Rx       19F  8  00 00 00 00 CD 20 00 00 
   489)     9011.4  Rx       50F  8  CD 20 8C 00 75 05 B2 00 
   490)     9021.1  Rx       1A7  8  00 00 30 11 08 00 30 11 
   491)     9031.4  Rx  10000201  8  03 02 02 00 00 00 03 00 
   492)     9041.3  Rx  10000202  8  00 00 00 00 00 00 00 00 
   493)     9051.4  Rx  10000203  8  43 00 05 00 1B 0C BE 20 
   494)     9061.5  Rx  10000204  8  96 20 6A FF 75 05 B2 00 
   495)     9071.5  Rx  10000205  8  01 00 64 64 64 64 00 00 
   496)     9071.7  Rx  10000206  8  00 00 30 11 30 11 CC 10 
   497)     9071.7  Rx  10000207  8  00 00 00 00 B0 14 00 00 
   498)     9071.9  Rx  10000208  8  00 00 00 00 00 00 00 00 
   499)     9081.3  Rx       310  8  01 00 02 00 00 00 00 00 
   500)     9091.1  Rx       50E  8  00 00 00 00 00 00 00 00 
   501)     9101.1  Rx       19F  8  00 00 00 00 CD 20 00 00 
   502)     9111.1  Rx       50F  8  CD 20 97 00 76 05 B2 00 
   503)     9121.2  Rx       1A7  8  00 00 30 11 08 00 30 11 
   504)     9181.3  Rx       310  8  01 00 02 00 00 00 00 00 
   505)     9191.5  Rx       50E  8  00 00 00 00 00 00 00 00 
   506)     9201.2  Rx       19F  8  00 00 00 00 CD 20 00 00 
   507)     9211.3  Rx       50F  8  CD 20 96 00 76 05 B2 00 
   508)     9221.2  Rx       1A7  8  00 00 30 11 08 00 30 11 
   509)     9281.1  Rx       310  8  01 00 02 00 00 00 00 00 
   510)     9291.0  Rx       50E  8  00 00 00 00 00 00 00 00 
   511)     9301.2  Rx       19F  8  00 00 00 00 CD 20 00 00 
   512)     9311.1  Rx       50F  8  CD 20 97 00 76 05 B2 00 
   513)     9321.3  Rx       1A7  8  00 00 30 11 08 00 30 11 
   514)     9381.2  Rx       310  8  01 00 02 00 00 00 00 00 
   515)     9391.2  Rx       50E  8  00 00 00 00 00 00 00 00 
   516)     9401.3  Rx       19F  8  00 00 00 00 CE 20 00 00 
   517)     9411.2  Rx       50F  8  CD 20 96 00 75 05 B2 00 
   518)     9421.1  Rx       1A7  8  00 00 30 11 08 00 30 11 
   519)     9481.3  Rx       310  8  01 00 02 00 00 00 00 00 
   520)     9491.2  Rx       50E  8  00 00 00 00 00 00 00 00 
   521)     9501.2  Rx       19F  8  00 00 00 00 CE 20 00 00 
   522)     9511.2  Rx       50F  8  CD 20 98 00 76 05 B2 00 
   523)     9521.2  Rx       1A7  8  00 00 30 11 08 00 30 11 
   524)     9581.2  Rx       310  8  01 00 02 00 00 00 00 00 
   525)     9591.2  Rx       50E  8  00 00 00 00 00 00 00 00 
   526)     9601.3  Rx       19F  8  00 00 00 00 CD 20 00 00 
   527)     9611.1  Rx       50F  8  CE 20 99 00 76 05 B2 00 
   528)     9621.2  Rx       1A7  8  00 00 30 11 08 00 30 11 
   529)     9681.3  Rx       310  8  01 00 02 00 00 00 00 00 
   530)     9691.2  Rx       50E  8  00 00 00 00 00 00 00 00 
   531)     9701.3  Rx       19F  8  00 00 00 00 CD 20 00 00 
   532)     9711.3  Rx       50F  8  CE 20 94 00 77 05 B2 00 
   533)     9721.0  Rx       1A7  8  00 00 30 11 08 00 30 11 
   534)     9781.1  Rx       310  8  01 00 02 00 00 00 00 00 
   535)     9791.1  Rx       50E  8  00 00 00 00 00 00 00 00 
   536)     9801.2  Rx       19F  8  00 00 00 00 CE 20 00 00 
   537)     9811.2  Rx       50F  8  CD 20 99 00 76 05 B2 00 
   538)     9821.1  Rx       1A7  8  00 00 30 11 08 00 30 11 
   539)     9881.4  Rx       310  8  01 00 02 00 00 00 00 00 
   540)     9891.5  Rx       50E  8  00 00 00 00 00 00 00 00 
   541)     9901.4  Rx       19F  8  00 00 00 00 CE 20 00 00 
   542)     9911.4  Rx       50F  8  CD 20 98 00 76 05 B2 00 
   543)     9921.4  Rx       1A7  8  00 00 30 11 08 00 30 11 
   544)     9981.4  Rx       310  8  01 00 02 00 00 00 00 00 
   545)     9991.3  Rx       50E  8  00 00 00 00 00 00 00 00 
   546)    10001.4  Rx       19F  8  00 00 00 00 CE 20 00 00 
   547)    10011.3  Rx       50F  8  CE 20 93 00 74 05 B2 00 
   548)    10021.3  Rx       1A7  8  00 00 30 11 08 00 30 11 
   549)    10031.3  Rx  10000201  8  03 02 02 00 00 00 03 00 
   550)    10041.6  Rx  10000202  8  00 00 00 00 00 00 00 00 
   551)    10051.6  Rx  10000203  8  55 00 05 00 1F 0C C7 20 
   552)    10061.5  Rx  10000204  8  9F 20 6A FF 77 05 B2 00 
   553)    10071.5  Rx  10000205  8  01 00 64 64 64 64 00 00 
   554)    10071.9  Rx  10000206  8  00 00 30 11 30 11 30 11 
   555)    10072.1  Rx  10000207  8  00 00 00 00 A6 14 00 00 
   556)    10072.2  Rx  10000208  8  00 00 00 00 00 00 00 00 
   557)    10081.5  Rx       310  8  01 00 02 00 00 00 00 00 
   558)    10091.6  Rx       50E  8  00 00 00 00 00 00 00 00 
   559)    10101.3  Rx       19F  8  00 00 00 00 CD 20 00 00 
   560)    10111.7  Rx       50F  8  CE 20 9B 00 75 05 B2 00 
   561)    10121.2  Rx       1A7  8  00 00 30 11 08 00 30 11 
   562)    10181.3  Rx       310  8  01 00 02 00 00 00 00 00 
   563)    10191.4  Rx       50E  8  00 00 00 00 00 00 00 00 
   564)    10201.4  Rx       19F  8  00 00 00 00 CE 20 00 00 
   565)    10211.2  Rx       50F  8  CD 20 99 00 76 05 B2 00 
   566)    10221.1  Rx       1A7  8  00 00 30 11 08 00 30 11 
   567)    10281.3  Rx       310  8  01 00 02 00 00 00 00 00 
   568)    10291.3  Rx       50E  8  00 00 00 00 00 00 00 00 
   569)    10301.1  Rx       19F  8  00 00 00 00 CD 20 00 00 
   570)    10311.2  Rx       50F  8  CD 20 93 00 75 05 B2 00 
   571)    10321.3  Rx       1A7  8  00 00 30 11 08 00 30 11 
   572)    10381.4  Rx       310  8  01 00 02 00 00 00 00 00 
   573)    10391.4  Rx       50E  8  00 00 00 00 00 00 00 00 
   574)    10401.2  Rx       19F  8  00 00 00 00 CD 20 00 00 
   575)    10411.1  Rx       50F  8  CD 20 9A 00 77 05 B2 00 
   576)    10421.1  Rx       1A7  8  00 00 30 11 08 00 30 11 
   577)    10481.3  Rx       310  8  01 00 02 00 00 00 00 00 
   578)    10491.1  Rx       50E  8  00 00 00 00 00 00 00 00 
   579)    10501.2  Rx       19F  8  00 00 00 00 CE 20 00 00 
   580)    10511.2  Rx       50F  8  CD 20 97 00 75 05 B2 00 
   581)    10521.1  Rx       1A7  8  00 00 30 11 08 00 30 11 
   582)    10581.2  Rx       310  8  01 00 02 00 00 00 00 00 
   583)    10591.3  Rx       50E  8  00 00 00 00 00 00 00 00 
   584)    10601.2  Rx       19F  8  00 00 00 00 CE 20 00 00 
   585)    10611.3  Rx       50F  8  CD 20 97 00 75 05 B2 00 
   586)    10621.3  Rx       1A7  8  00 00 30 11 08 00 30 11 
   587)    10681.2  Rx       310  8  01 00 02 00 00 00 00 00 
   588)    10691.2  Rx       50E  8  00 00 00 00 00 00 00 00 
   589)    10701.1  Rx       19F  8  00 00 00 00 CD 20 00 00 
   590)    10711.1  Rx       50F  8  CD 20 95 00 75 05 B2 00 
   591)    10721.3  Rx       1A7  8  00 00 30 11 08 00 30 11 
   592)    10781.1  Rx       310  8  01 00 02 00 00 00 00 00 
   593)    10791.1  Rx       50E  8  00 00 00 00 00 00 00 00 
   594)    10801.1  Rx       19F  8  00 00 00 00 CE 20 00 00 
   595)    10811.1  Rx       50F  8  CD 20 94 00 76 05 B2 00 
   596)    10821.2  Rx       1A7  8  00 00 30 11 08 00 30 11 
   597)    10881.3  Rx       310  8  01 00 02 00 00 00 00 00 
   598)    10891.1  Rx       50E  8  00 00 00 00 00 00 00 00 
   599)    10901.1  Rx       19F  8  00 00 00 00 CF 20 00 00 
   600)    10911.1  Rx       50F  8  CD 20 9B 00 77 05 B2 00 
   601)    10921.2  Rx       1A7  8  00 00 30 11 08 00 30 11 
   602)    10981.2  Rx       310  8  01 00 02 00 00 00 00 00 
   603)    10991.2  Rx       50E  8  00 00 00 00 00 00 00 00 
   604)    11001.1  Rx       19F  8  00 00 00 00 CD 20 00 00 
   605)    11011.1  Rx       50F  8  CD 20 9A 00 76 05 B2 00 
   606)    11021.1  Rx       1A7  8  00 00 30 11 08 00 30 11 
   607)    11031.2  Rx  10000201  8  03 02 02 00 00 00 03 00 
   608)    11041.3  Rx  10000202  8  00 00 00 00 00 00 00 00 
   609)    11051.2  Rx  10000203  8  1D 00 05 00 20 0C C9 20 
   610)    11061.2  Rx  10000204  8  A0 20 6A FF 75 05 B2 00 
   611)    11071.3  Rx  10000205  8  01 00 64 64 64 64 00 00 
   612)    11071.9  Rx  10000206  8  00 00 30 11 30 11 30 11 
   613)    11072.3  Rx  10000207  8  00 00 00 00 CE 14 00 00 
   614)    11072.6  Rx  10000208  8  00 00 00 00 00 00 00 00 
   615)    11081.3  Rx       310  8  01 00 02 00 00 00 00 00 
   616)    11091.3  Rx       50E  8  00 00 00 00 00 00 00 00 
   617)    11101.2  Rx       19F  8  00 00 00 00 CE 20 00 00 
   618)    11111.3  Rx       50F  8  CE 20 92 00 75 05 B2 00 
   619)    11121.2  Rx       1A7  8  00 00 30 11 08 00 30 11 
   620)    11181.1  Rx       310  8  01 00 02 00 00 00 00 00 
   621)    11191.2  Rx       50E  8  00 00 00 00 00 00 00 00 
   622)    11201.2  Rx       19F  8  00 00 00 00 CE 20 00 00 
   623)    11211.1  Rx       50F  8  CD 20 95 00 75 05 B2 00 
   624)    11221.2  Rx       1A7  8  00 00 30 11 08 00 30 11 
   625)    11281.1  Rx       310  8  01 00 02 00 00 00 00 00 
   626)    11291.1  Rx       50E  8  00 00 00 00 00 00 00 00 
   627)    11301.3  Rx       19F  8  00 00 00 00 CD 20 00 00 
   628)    11311.2  Rx       50F  8  CE 20 99 00 75 05 B2 00 
   629)    11321.2  Rx       1A7  8  00 00 30 11 08 00 30 11 
   630)    11381.1  Rx       310  8  01 00 02 00 00 00 00 00 
   631)    11391.1  Rx       50E  8  00 00 00 00 00 00 00 00 
   632)    11401.2  Rx       19F  8  00 00 00 00 CE 20 00 00 
   633)    11411.1  Rx       50F  8  CD 20 94 00 76 05 B2 00 
   634)    11421.0  Rx       1A7  8  00 00 30 11 08 00 30 11 
   635)    11481.2  Rx       310  8  01 00 02 00 00 00 00 00 
   636)    11491.1  Rx       50E  8  00 00 00 00 00 00 00 00 
   637)    11501.2  Rx       19F  8  00 00 00 00 CD 20 00 00 
   638)    11511.1  Rx       50F  8  CD 20 93 00 76 05 B2 00 
   639)    11521.1  Rx       1A7  8  00 00 30 11 08 00 30 11 
   640)    11581.0  Rx       310  8  01 00 02 00 00 00 00 00 
   641)    11591.1  Rx       50E  8  00 00 00 00 00 00 00 00 
   642)    11601.1  Rx       19F  8  00 00 00 00 CE 20 00 00 
   643)    11611.2  Rx       50F  8  CE 20 9B 00 76 05 B2 00 
   644)    11621.1  Rx       1A7  8  00 00 30 11 08 00 30 11 
   645)    11631.2  Rx       644  8  13 0A 00 00 02 00 00 00 
   646)    11641.4  Rx       645  8  05 00 00 00 00 00 00 00 
   647)    11681.4  Rx       310  8  01 00 02 00 00 00 00 00 
   648)    11691.3  Rx       50E  8  00 00 00 00 00 00 00 00 
   649)    11701.2  Rx       19F  8  00 00 00 00 CE 20 00 00 
   650)    11711.3  Rx       50F  8  CE 20 8E 00 77 05 B2 00 
   651)    11721.2  Rx       1A7  8  00 00 30 11 08 00 30 11 
   652)    11781.2  Rx       310  8  01 00 02 00 00 00 00 00 
   653)    11791.1  Rx       50E  8  00 00 00 00 00 00 00 00 
   654)    11801.3  Rx       19F  8  00 00 00 00 CE 20 00 00 
   655)    11811.0  Rx       50F  8  CD 20 97 00 75 05 B2 00 
   656)    11821.1  Rx       1A7  8  00 00 30 11 08 00 30 11 
   657)    11881.2  Rx       310  8  01 00 02 00 00 00 00 00 
   658)    11891.1  Rx       50E  8  00 00 00 00 00 00 00 00 
   659)    11901.3  Rx       19F  8  00 00 00 00 CE 20 00 00 
   660)    11911.3  Rx       50F  8  CD 20 98 00 75 05 B2 00 
   661)    11921.1  Rx       1A7  8  00 00 30 11 08 00 30 11 
   662)    11981.3  Rx       310  8  01 00 02 00 00 00 00 00 
   663)    11991.1  Rx       50E  8  00 00 00 00 00 00 00 00 
   664)    12001.2  Rx       19F  8  00 00 00 00 CF 20 00 00 
   665)    12011.0  Rx       50F  8  CD 20 9A 00 76 05 B2 00 
   666)    12021.0  Rx       1A7  8  00 00 30 11 08 00 30 11 
   667)    12031.3  Rx  10000201  8  03 02 02 00 00 00 03 00 
   668)    12041.3  Rx  10000202  8  00 00 00 00 00 00 00 00 
   669)    12051.4  Rx  10000203  8  33 00 05 00 20 0C C9 20 
   670)    12061.2  Rx  10000204  8  A1 20 6A FF 75 05 B2 00 
   671)    12071.4  Rx  10000205  8  01 00 64 64 64 64 00 00 
   672)    12071.7  Rx  10000206  8  00 00 30 11 30 11 30 11 
   673)    12071.8  Rx  10000207  8  00 00 00 00 3D 14 00 00 
   674)    12071.9  Rx  10000208  8  00 00 00 00 00 00 00 00 
   675)    12081.4  Rx       310  8  01 00 02 00 00 00 00 00 
   676)    12091.3  Rx       50E  8  00 00 00 00 00 00 00 00 
   677)    12101.2  Rx       19F  8  00 00 00 00 CE 20 00 00 
   678)    12111.1  Rx       50F  8  CD 20 9B 00 76 05 B2 00 
   679)    12121.2  Rx       1A7  8  00 00 30 11 08 00 30 11 
   680)    12181.2  Rx       310  8  01 00 02 00 00 00 00 00 
   681)    12191.1  Rx       50E  8  00 00 00 00 00 00 00 00 
   682)    12201.2  Rx       19F  8  00 00 00 00 CD 20 00 00 
   683)    12211.0  Rx       50F  8  CD 20 8D 00 75 05 B2 00 
   684)    12221.2  Rx       1A7  8  00 00 30 11 08 00 30 11 
   685)    12281.2  Rx       310  8  01 00 02 00 00 00 00 00 
   686)    12291.1  Rx       50E  8  00 00 00 00 00 00 00 00 
   687)    12301.1  Rx       19F  8  00 00 00 00 CE 20 00 00 
   688)    12311.1  Rx       50F  8  CD 20 9B 00 77 05 B2 00 
   689)    12321.0  Rx       1A7  8  00 00 30 11 08 00 30 11 
   690)    12381.2  Rx       310  8  01 00 02 00 00 00 00 00 
   691)    12391.3  Rx       50E  8  00 00 00 00 00 00 00 00 
   692)    12401.1  Rx       19F  8  00 00 00 00 CE 20 00 00 
   693)    12411.0  Rx       50F  8  CD 20 98 00 75 05 B2 00 
   694)    12421.1  Rx       1A7  8  00 00 30 11 08 00 30 11 
   695)    12481.2  Rx       310  8  01 00 02 00 00 00 00 00 
   696)    12491.3  Rx       50E  8  00 00 00 00 00 00 00 00 
   697)    12501.4  Rx       19F  8  00 00 00 00 CE 20 00 00 
   698)    12511.2  Rx       50F  8  CD 20 92 00 75 05 B2 00 
   699)    12521.2  Rx       1A7  8  00 00 30 11 08 00 30 11 
   700)    12581.3  Rx       310  8  01 00 02 00 00 00 00 00 
   701)    12591.2  Rx       50E  8  00 00 00 00 00 00 00 00 
   702)    12601.3  Rx       19F  8  00 00 00 00 CE 20 00 00 
   703)    12611.2  Rx       50F  8  CD 20 99 00 76 05 B2 00 
   704)    12621.4  Rx       1A7  8  00 00 30 11 08 00 30 11 
   705)    12681.4  Rx       310  8  01 00 02 00 00 00 00 00 
   706)    12691.3  Rx       50E  8  00 00 00 00 00 00 00 00 
   707)    12701.3  Rx       19F  8  00 00 00 00 CE 20 00 00 
   708)    12711.7  Rx       50F  8  CD 20 9A 00 75 05 B2 00 
   709)    12721.2  Rx       1A7  8  00 00 30 11 08 00 30 11 
   710)    12781.2  Rx       310  8  01 00 02 00 00 00 00 00 
   711)    12791.2  Rx       50E  8  00 00 00 00 00 00 00 00 
   712)    12801.1  Rx       19F  8  00 00 00 00 CD 20 00 00 
   713)    12811.0  Rx       50F  8  CD 20 9B 00 77 05 B2 00 
   714)    12822.0  Rx       1A7  8  00 00 30 11 08 00 30 11 
   715)    12881.3  Rx       310  8  01 00 02 00 00 00 00 00 
   716)    12891.3  Rx       50E  8  00 00 00 00 00 00 00 00 
   717)    12901.2  Rx       19F  8  00 00 00 00 CE 20 00 00 
   718)    12911.1  Rx       50F  8  CD 20 97 00 77 05 B2 00 
   719)    12921.3  Rx       1A7  8  00 00 30 11 08 00 30 11 
   720)    12981.9  Rx       310  8  01 00 02 00 00 00 00 00 
   721)    12991.1  Rx       50E  8  00 00 00 00 00 00 00 00 
   722)    13001.1  Rx       19F  8  00 00 00 00 CE 20 00 00 
   723)    13011.4  Rx       50F  8  CE 20 97 00 77 05 B2 00 
   724)    13021.1  Rx       1A7  8  00 00 30 11 08 00 30 11 
   725)    13031.4  Rx  10000201  8  03 02 02 00 00 00 03 00 
   726)    13041.6  Rx  10000202  8  00 00 00 00 00 00 00 00 
   727)    13051.4  Rx  10000203  8  11 00 05 00 20 0C CA 20 
   728)    13061.1  Rx  10000204  8  A1 20 6A FF 75 05 B2 00 
   729)    13071.3  Rx  10000205  8  01 00 64 64 64 64 00 00 
   730)    13071.4  Rx  10000206  8  00 00 30 11 30 11 30 11 
   731)    13071.5  Rx  10000207  8  00 00 00 00 03 14 00 00 
   732)    13071.6  Rx  10000208  8  00 00 00 00 00 00 00 00 
   733)    13081.3  Rx       310  8  01 00 02 00 00 00 00 00 
   734)    13091.1  Rx       50E  8  00 00 00 00 00 00 00 00 
   735)    13101.2  Rx       19F  8  00 00 00 00 CE 20 00 00 
   736)    13111.1  Rx       50F  8  CD 20 93 00 75 05 B2 00 
   737)    13121.0  Rx       1A7  8  00 00 30 11 08 00 30 11 
   738)    13181.2  Rx       310  8  01 00 02 00 00 00 00 00 
   739)    13191.2  Rx       50E  8  00 00 00 00 00 00 00 00 
   740)    13201.7  Rx       19F  8  00 00 00 00 CD 20 00 00 
   741)    13211.1  Rx       50F  8  CD 20 95 00 75 05 B2 00 
   742)    13221.1  Rx       1A7  8  00 00 30 11 08 00 30 11 
   743)    13281.0  Rx       310  8  01 00 02 00 00 00 00 00 
   744)    13291.1  Rx       50E  8  00 00 00 00 00 00 00 00 
   745)    13301.0  Rx       19F  8  00 00 00 00 CE 20 00 00 
   746)    13311.9  Rx       50F  8  CD 20 98 00 76 05 B2 00 
   747)    13320.9  Rx       1A7  8  00 00 30 11 08 00 30 11 
   748)    13381.2  Rx       310  8  01 00 02 00 00 00 00 00 
   749)    13391.2  Rx       50E  8  00 00 00 00 00 00 00 00 
   750)    13401.2  Rx       19F  8  00 00 00 00 CF 20 00 00 
   751)    13411.1  Rx       50F  8  CD 20 9A 00 75 05 B2 00 
   752)    13421.3  Rx       1A7  8  00 00 30 11 08 00 30 11 
   753)    13481.1  Rx       310  8  01 00 02 00 00 00 00 00 
   754)    13491.1  Rx       50E  8  00 00 00 00 00 00 00 00 
   755)    13501.2  Rx       19F  8  00 00 00 00 CD 20 00 00 
   756)    13511.2  Rx       50F  8  CD 20 9C 00 77 05 B2 00 
   757)    13521.2  Rx       1A7  8  00 00 94 11 08 00 30 11 
   758)    13581.3  Rx       310  8  01 00 02 00 00 00 00 00 
   759)    13591.2  Rx       50E  8  00 00 00 00 00 00 00 00 
   760)    13601.3  Rx       19F  8  00 00 00 00 CD 20 00 00 
   761)    13611.1  Rx       50F  8  CC 20 A2 00 77 05 B2 00 
   762)    13621.2  Rx       1A7  8  00 00 94 11 08 00 30 11 
   763)    13681.1  Rx       310  8  01 00 02 00 00 00 00 00 
   764)    13691.2  Rx       50E  8  00 00 00 00 00 00 00 00 
   765)    13701.2  Rx       19F  8  00 00 00 00 CD 20 00 00 
   766)    13711.1  Rx       50F  8  CD 20 92 00 76 05 B2 00 
   767)    13721.2  Rx       1A7  8  00 00 94 11 08 00 30 11 
   768)    13781.1  Rx       310  8  01 00 02 00 00 00 00 00 
   769)    13791.0  Rx       50E  8  00 00 00 00 00 00 00 00 
   770)    13801.0  Rx       19F  8  00 00 00 00 CD 20 00 00 
   771)    13811.1  Rx       50F  8  CD 20 9E 00 76 05 B2 00 
   772)    13821.2  Rx       1A7  8  00 00 94 11 08 00 30 11 
   773)    13881.3  Rx       310  8  01 00 02 00 00 00 00 00 
   774)    13891.1  Rx       50E  8  00 00 00 00 00 00 00 00 
   775)    13901.2  Rx       19F  8  00 00 00 00 CD 20 00 00 
   776)    13911.3  Rx       50F  8  CE 20 96 00 74 05 B2 00 
   777)    13921.2  Rx       1A7  8  00 00 94 11 08 00 30 11 
   778)    13981.1  Rx       310  8  01 00 02 00 00 00 00 00 
   779)    13991.1  Rx       50E  8  00 00 00 00 00 00 00 00 
   780)    14001.3  Rx       19F  8  00 00 00 00 CE 20 00 00 
   781)    14011.1  Rx       50F  8  CD 20 99 00 75 05 B2 00 
   782)    14021.2  Rx       1A7  8  00 00 94 11 08 00 30 11 
   783)    14031.2  Rx  10000201  8  03 02 02 00 00 00 03 00 
   784)    14041.3  Rx  10000202  8  00 00 00 00 00 00 00 00 
   785)    14051.2  Rx  10000203  8  2A 00 05 00 20 0C CA 20 
   786)    14061.4  Rx  10000204  8  A2 20 69 FF 75 05 B2 00 
   787)    14071.1  Rx  10000205  8  01 00 64 64 64 64 00 00 
   788)    14071.4  Rx  10000206  8  00 00 30 11 94 11 30 11 
   789)    14071.4  Rx  10000207  8  00 00 00 00 03 14 00 00 
   790)    14071.5  Rx  10000208  8  00 00 00 00 00 00 00 00 
   791)    14081.2  Rx       310  8  01 00 02 00 00 00 00 00 
   792)    14091.1  Rx       50E  8  00 00 00 00 00 00 00 00 
   793)    14101.1  Rx       19F  8  00 00 00 00 CD 20 00 00 
   794)    14111.1  Rx       50F  8  CE 20 9B 00 75 05 B2 00 
   795)    14121.1  Rx       1A7  8  00 00 94 11 08 00 30 11 
   796)    14181.4  Rx       310  8  01 00 02 00 00 00 00 00 
   797)    14191.0  Rx       50E  8  00 00 00 00 00 00 00 00 
   798)    14201.3  Rx       19F  8  00 00 00 00 CE 20 00 00 
   799)    14211.2  Rx       50F  8  CE 20 93 00 75 05 B2 00 
   800)    14221.2  Rx       1A7  8  00 00 F8 11 08 00 30 11 
   801)    14281.2  Rx       310  8  01 00 02 00 00 00 00 00 
   802)    14291.1  Rx       50E  8  00 00 00 00 00 00 00 00 
   803)    14301.0  Rx       19F  8  00 00 00 00 CD 20 00 00 
   804)    14311.2  Rx       50F  8  CD 20 97 00 75 05 B2 00 
   805)    14321.2  Rx       1A7  8  00 00 F8 11 08 00 30 11 
   806)    14381.7  Rx       310  8  01 00 02 00 00 00 00 00 
   807)    14391.1  Rx       50E  8  00 00 00 00 00 00 00 00 
   808)    14401.3  Rx       19F  8  00 00 00 00 CD 20 00 00 
   809)    14411.3  Rx       50F  8  CD 20 98 00 75 05 B2 00 
   810)    14421.3  Rx       1A7  8  00 00 F8 11 08 00 30 11 
   811)    14481.2  Rx       310  8  83 00 02 00 00 00 00 00 
   812)    14491.2  Rx       50E  8  00 00 00 00 00 00 00 00 
   813)    14501.0  Rx       19F  8  2F 28 03 00 CD 20 00 00 
   814)    14511.1  Rx       50F  8  CD 20 97 00 75 05 B2 00 
   815)    14521.1  Rx       1A7  8  00 00 F8 11 08 00 30 11 
   816)    14581.3  Rx       310  8  83 00 02 00 00 00 00 00 
   817)    14591.3  Rx       50E  8  00 00 00 00 00 00 00 00 
   818)    14601.2  Rx       19F  8  C9 27 04 00 CE 20 00 00 
   819)    14611.2  Rx       50F  8  CE 20 93 00 75 05 B2 00 
   820)    14621.0  Rx       1A7  8  00 00 F8 11 08 00 30 11 
   821)    14681.0  Rx       310  8  83 00 02 00 00 00 00 00 
   822)    14691.1  Rx       50E  8  00 00 00 00 00 00 00 00 
   823)    14701.1  Rx       19F  8  AD 27 04 00 CD 20 00 00 
   824)    14711.1  Rx       50F  8  CD 20 94 00 76 05 B2 00 
   825)    14721.2  Rx       1A7  8  00 00 F8 11 08 00 30 11 
   826)    14781.0  Rx       310  8  83 00 02 00 00 00 00 00 
   827)    14790.9  Rx       50E  8  00 00 00 00 00 00 00 00 
   828)    14801.0  Rx       19F  8  9A 27 04 00 CD 20 00 00 
   829)    14811.1  Rx       50F  8  CD 20 9C 00 78 05 B2 00 
   830)    14821.7  Rx       1A7  8  00 00 F8 11 08 00 30 11 
   831)    14881.3  Rx       310  8  83 00 02 00 00 00 00 00 
   832)    14885.7  Rx       12C  8  B8 0B 88 90 00 00 00 00 
   833)    14886.8  Rx       12C  8  B8 0B 88 90 00 00 00 00 
   834)    14891.0  Rx       50E  8  00 00 00 00 00 00 00 00 
   835)    14901.1  Rx       19F  8  A8 27 04 00 CD 20 00 00 
   836)    14911.3  Rx       50F  8  CD 20 96 00 75 05 B2 00 
   837)    14921.0  Rx       1A7  8  00 00 F8 11 08 00 30 11 
   838)    14981.2  Rx       310  8  83 00 02 00 00 00 00 00 
   839)    14991.1  Rx       50E  8  00 00 00 00 00 00 00 00 
   840)    15001.2  Rx       19F  8  A2 27 05 00 CD 20 00 00 
   841)    15011.1  Rx       50F  8  CD 20 9C 00 75 05 B3 00 
   842)    15021.1  Rx       1A7  8  00 00 F8 11 08 00 30 11 
   843)    15031.2  Rx  10000201  8  03 02 02 00 00 00 03 00 
   844)    15041.3  Rx  10000202  8  00 00 00 00 00 00 00 00 
   845)    15051.0  Rx  10000203  8  42 1A 05 00 20 0C CA 20 
   846)    15061.2  Rx  10000204  8  A2 20 69 FF 75 05 B3 00 
   847)    15071.3  Rx  10000205  8  01 27 64 64 64 64 00 27 
   848)    15071.6  Rx  10000206  8  00 00 30 11 F8 11 30 11 
   849)    15071.7  Rx  10000207  8  00 00 00 00 69 13 00 00 
   850)    15071.8  Rx  10000208  8  00 00 00 00 00 00 00 00 
   851)    15081.4  Rx       310  8  83 00 02 00 00 00 00 00 
   852)    15091.2  Rx       50E  8  00 00 00 00 00 00 00 00 
   853)    15101.1  Rx       19F  8  9E 27 05 00 CD 20 00 00 
   854)    15111.1  Rx       50F  8  CC 20 9A 00 75 05 B3 00 
   855)    15120.9  Rx       1A7  8  00 00 F8 11 08 00 30 11 
   856)    15181.1  Rx       310  8  83 00 02 00 00 00 00 00 
   857)    15191.2  Rx       50E  8  00 00 00 00 00 00 00 00 
   858)    15201.3  Rx       19F  8  A2 27 04 00 CE 20 00 00 
   859)    15211.3  Rx       50F  8  CD 20 95 00 77 05 B3 00 
   860)    15221.1  Rx       1A7  8  00 00 F8 11 08 00 30 11 
   861)    15281.1  Rx       310  8  83 00 02 00 00 00 00 00 
   862)    15291.2  Rx       50E  8  00 00 00 00 00 00 00 00 
   863)    15301.0  Rx       19F  8  A2 27 05 00 CD 20 00 00 
   864)    15311.1  Rx       50F  8  CD 20 9D 00 77 05 B3 00 
   865)    15321.1  Rx       1A7  8  00 00 F8 11 08 00 30 11 
   866)    15381.1  Rx       310  8  83 00 02 00 00 00 00 00 
   867)    15391.0  Rx       50E  8  00 00 00 00 00 00 00 00 
   868)    15401.2  Rx       19F  8  A3 27 05 00 CE 20 00 00 
   869)    15411.4  Rx       50F  8  CD 20 95 00 75 05 B3 00 
   870)    15421.1  Rx       1A7  8  00 00 F8 11 08 00 30 11 
   871)    15481.3  Rx       310  8  87 00 06 00 00 00 00 00 
   872)    15490.9  Rx       50E  8  00 00 00 00 00 00 00 00 
   873)    15501.0  Rx       19F  8  A9 27 04 00 CE 20 00 00 
   874)    15510.9  Rx       50F  8  CD 20 97 00 75 05 B3 00 
   875)    15520.8  Rx       1A7  8  00 00 F8 11 09 00 30 11 
   876)    15581.3  Rx       310  8  87 00 06 01 00 00 00 00 
   877)    15591.3  Rx       50E  8  00 00 00 00 00 00 00 00 
   878)    15601.2  Rx       19F  8  82 27 B3 00 D2 20 00 00 
   879)    15611.2  Rx       50F  8  D2 20 19 00 74 05 B3 00 
   880)    15621.3  Rx       1A7  8  00 00 F8 11 09 00 30 11 
   881)    15681.2  Rx       310  8  87 00 06 01 00 00 00 00 
   882)    15691.1  Rx       50E  8  00 00 00 00 00 00 00 00 
   883)    15701.0  Rx       19F  8  74 27 95 00 DA 20 7B 00 
   884)    15711.1  Rx       50F  8  DA 20 00 00 3B 05 B2 00 
   885)    15721.1  Rx       1A7  8  00 00 F8 11 09 00 30 11 
   886)    15781.1  Rx       310  8  87 00 06 01 00 00 00 00 
   887)    15791.0  Rx       50E  8  00 00 00 00 00 00 00 00 
   888)    15801.0  Rx       19F  8  5F 27 40 01 E4 20 57 01 
   889)    15811.1  Rx       50F  8  E5 20 00 00 54 05 B2 00 
   890)    15821.1  Rx       1A7  8  00 00 F8 11 09 00 30 11 
   891)    15881.2  Rx       310  8  87 00 06 01 00 00 00 00 
   892)    15891.1  Rx       50E  8  00 00 00 00 00 00 00 00 
   893)    15901.0  Rx       19F  8  41 27 09 02 EC 20 DE 01 
   894)    15911.2  Rx       50F  8  EC 20 00 00 60 05 B2 00 
   895)    15921.1  Rx       1A7  8  00 00 F8 11 09 00 30 11 
   896)    15981.1  Rx       310  8  87 00 06 01 00 00 00 00 
   897)    15991.1  Rx       50E  8  00 00 00 00 00 00 00 00 
   898)    16001.3  Rx       19F  8  32 27 4F 02 EF 20 2B 02 
   899)    16011.2  Rx       50F  8  F0 20 00 00 6C 05 B2 00 
   900)    16021.1  Rx       1A7  8  00 00 F8 11 09 00 30 11 
   901)    16031.0  Rx  10000201  8  03 01 06 01 00 00 03 00 
   902)    16041.3  Rx  10000202  8  00 00 00 00 00 00 00 00 
   903)    16051.3  Rx  10000203  8  26 23 8A 00 78 0C D4 20 
   904)    16061.4  Rx  10000204  8  AE 20 0E 00 6F 05 B2 00 
   905)    16071.4  Rx  10000205  8  01 26 64 64 64 64 00 26 
   906)    16071.7  Rx  10000206  8  00 00 30 11 F8 11 30 11 
   907)    16071.8  Rx  10000207  8  00 00 00 00 69 13 00 00 
   908)    16071.9  Rx  10000208  8  00 00 00 00 00 00 00 00 
   909)    16081.4  Rx       310  8  87 00 06 01 00 00 00 00 
   910)    16091.1  Rx       50E  8  00 00 00 00 00 00 00 00 
   911)    16101.2  Rx       19F  8  37 27 83 02 F3 20 5B 02 
   912)    16111.1  Rx       50F  8  F2 20 00 00 75 05 B3 00 
   913)    16121.1  Rx       1A7  8  00 00 F8 11 09 00 30 11 
   914)    16181.1  Rx       310  8  87 00 06 01 00 00 00 00 
   915)    16191.2  Rx       50E  8  00 00 00 00 00 00 00 00 
   916)    16201.1  Rx       19F  8  31 27 B2 02 F4 20 87 02 
   917)    16211.1  Rx       50F  8  F5 20 00 00 6E 05 B3 00 
   918)    16221.0  Rx       1A7  8  00 00 F8 11 0B 00 30 11 
   919)    16281.3  Rx       310  8  87 00 06 01 00 00 00 00 
   920)    16291.3  Rx       50E  8  00 00 00 00 00 00 00 00 
   921)    16301.1  Rx       19F  8  22 27 D9 02 F6 20 B2 02 
   922)    16311.3  Rx       50F  8  F5 20 00 00 79 05 B3 00 
   923)    16321.2  Rx       1A7  8  00 00 F8 11 0B 00 30 11 
   924)    16381.1  Rx       310  8  87 00 06 01 00 00 00 00 
   925)    16391.2  Rx       50E  8  00 00 00 00 00 00 00 00 
   926)    16401.1  Rx       19F  8  1E 27 FA 02 F8 20 C7 02 
   927)    16411.0  Rx       50F  8  F8 20 00 00 72 05 B3 00 
   928)    16421.1  Rx       1A7  8  00 00 F8 11 0B 00 30 11 
   929)    16481.3  Rx       310  8  87 00 06 01 00 00 00 00 
   930)    16491.2  Rx       50E  8  00 00 00 00 00 00 00 00 
   931)    16501.1  Rx       19F  8  1D 27 15 03 F9 20 EE 02 
   932)    16511.4  Rx       50F  8  FA 20 00 00 70 05 B3 00 
   933)    16521.3  Rx       1A7  8  00 00 F8 11 0B 00 30 11 
   934)    16581.0  Rx       310  8  87 00 06 01 00 00 00 00 
   935)    16591.2  Rx       50E  8  00 00 00 00 00 00 00 00 
   936)    16601.0  Rx       19F  8  18 27 2B 03 FA 20 02 03 
   937)    16611.2  Rx       50F  8  F9 20 00 00 70 05 B3 00 
   938)    16621.0  Rx       1A7  8  00 00 F8 11 0B 00 30 11 
   939)    16631.2  Rx       644  8  13 0A 00 00 02 00 00 00 
   940)    16641.1  Rx       645  8  05 00 00 00 00 00 00 00 
   941)    16681.3  Rx       310  8  87 00 06 01 00 00 00 00 
   942)    16691.3  Rx       50E  8  00 00 00 00 00 00 00 00 
   943)    16701.3  Rx       19F  8  16 27 3F 03 FA 20 0F 03 
   944)    16711.4  Rx       50F  8  FB 20 00 00 70 05 B3 00 
   945)    16721.2  Rx       1A7  8  00 00 F8 11 0B 00 30 11 
   946)    16781.1  Rx       310  8  87 00 06 01 00 00 00 00 
   947)    16791.0  Rx       50E  8  00 00 00 00 00 00 00 00 
   948)    16801.1  Rx       19F  8  16 27 50 03 FC 20 21 03 
   949)    16811.1  Rx       50F  8  FC 20 00 00 71 05 B3 00 
   950)    16821.0  Rx       1A7  8  00 00 F8 11 0B 00 30 11 
   951)    16881.1  Rx       310  8  87 00 06 01 00 00 00 00 
   952)    16891.0  Rx       50E  8  00 00 00 00 00 00 00 00 
   953)    16901.1  Rx       19F  8  0F 27 5C 03 FD 20 2D 03 
   954)    16911.1  Rx       50F  8  FC 20 00 00 70 05 B3 00 
   955)    16921.1  Rx       1A7  8  00 00 F8 11 0B 00 30 11 
   956)    16981.0  Rx       310  8  87 00 06 01 00 00 00 00 
   957)    16991.0  Rx       50E  8  00 00 00 00 00 00 00 00 
   958)    17001.0  Rx       19F  8  12 27 69 03 FE 20 40 03 
   959)    17011.1  Rx       50F  8  FD 20 00 00 73 05 B3 00 
   960)    17021.0  Rx       1A7  8  00 00 F8 11 0B 00 30 11 
   961)    17031.2  Rx  10000201  8  03 01 06 01 00 00 03 00 
   962)    17041.2  Rx  10000202  8  00 00 00 00 00 00 00 00 
   963)    17051.1  Rx  10000203  8  30 26 09 02 EB 0C E9 20 
   964)    17061.1  Rx  10000204  8  C5 20 B3 01 74 05 B3 00 
   965)    17071.1  Rx  10000205  8  01 26 64 64 64 64 00 26 
   966)    17071.3  Rx  10000206  8  00 00 30 11 F8 11 30 11 
   967)    17071.3  Rx  10000207  8  00 00 00 00 69 13 00 00 
   968)    17071.4  Rx  10000208  8  00 00 00 00 00 00 00 00 
   969)    17081.2  Rx       310  8  87 00 06 01 00 00 00 00 
   970)    17091.1  Rx       50E  8  00 00 00 00 00 00 00 00 
   971)    17101.0  Rx       19F  8  0E 27 74 03 FE 20 4E 03 
   972)    17111.1  Rx       50F  8  FE 20 00 00 75 05 B3 00 
   973)    17121.6  Rx       1A7  8  00 00 F8 11 0B 00 30 11 
   974)    17181.1  Rx       310  8  87 00 06 01 00 00 00 00 
   975)    17191.1  Rx       50E  8  00 00 00 00 00 00 00 00 
   976)    17201.1  Rx       19F  8  16 27 80 03 FF 20 5D 03 
   977)    17211.0  Rx       50F  8  FE 20 00 00 79 05 B3 00 
   978)    17221.2  Rx       1A7  8  00 00 F8 11 0B 00 30 11 
   979)    17281.1  Rx       310  8  87 00 06 01 00 00 00 00 
   980)    17291.0  Rx       50E  8  00 00 00 00 00 00 00 00 
   981)    17301.0  Rx       19F  8  09 27 85 03 00 21 5A 03 
   982)    17311.0  Rx       50F  8  00 21 00 00 7B 05 B3 00 
   983)    17321.0  Rx       1A7  8  00 00 F8 11 0B 00 30 11 
   984)    17381.0  Rx       310  8  87 00 06 01 00 00 00 00 
   985)    17391.0  Rx       50E  8  00 00 00 00 00 00 00 00 
   986)    17400.9  Rx       19F  8  06 27 8B 03 00 21 67 03 
   987)    17411.0  Rx       50F  8  00 21 00 00 7B 05 B3 00 
   988)    17420.9  Rx       1A7  8  00 00 F8 11 0B 00 30 11 
   989)    17481.1  Rx       310  8  87 00 06 01 00 00 00 00 
   990)    17491.0  Rx       50E  8  00 00 00 00 00 00 00 00 
   991)    17501.0  Rx       19F  8  05 27 96 03 01 21 72 03 
   992)    17510.9  Rx       50F  8  01 21 00 00 7B 05 B2 00 
   993)    17521.1  Rx       1A7  8  00 00 F8 11 0B 00 30 11 
   994)    17581.2  Rx       310  8  87 00 06 01 00 00 00 00 
   995)    17591.2  Rx       50E  8  00 00 00 00 00 00 00 00 
   996)    17601.0  Rx       19F  8  08 27 98 03 01 21 7B 03 
   997)    17611.1  Rx       50F  8  01 21 00 00 7B 05 B2 00 
   998)    17621.2  Rx       1A7  8  00 00 F8 11 0B 00 30 11 
   999)    17681.1  Rx       310  8  87 00 06 01 00 00 00 00 
  1000)    17691.8  Rx       50E  8  00 00 00 00 00 00 00 00 
  1001)    17701.2  Rx       19F  8  06 27 A0 03 01 21 81 03 
  1002)    17711.2  Rx       50F  8  00 21 00 00 7B 05 B2 00 
  1003)    17721.2  Rx       1A7  8  00 00 F8 11 0B 00 30 11 
  1004)    17781.2  Rx       310  8  87 00 06 01 00 00 00 00 
  1005)    17791.6  Rx       50E  8  00 00 00 00 00 00 00 00 
  1006)    17801.0  Rx       19F  8  06 27 A6 03 01 21 8C 03 
  1007)    17811.2  Rx       50F  8  00 21 00 00 7A 05 B2 00 
  1008)    17821.0  Rx       1A7  8  00 00 F8 11 0B 00 30 11 
  1009)    17881.1  Rx       310  8  87 00 06 01 00 00 00 00 
  1010)    17891.3  Rx       50E  8  00 00 00 00 00 00 00 00 
  1011)    17901.2  Rx       19F  8  02 27 A8 03 01 21 86 03 
  1012)    17911.2  Rx       50F  8  00 21 00 00 78 05 B2 00 
  1013)    17921.0  Rx       1A7  8  00 00 F8 11 0B 00 30 11 
  1014)    17981.0  Rx       310  8  87 00 06 01 00 00 00 00 
  1015)    17991.1  Rx       50E  8  00 00 00 00 00 00 00 00 
  1016)    18001.1  Rx       19F  8  09 27 AB 03 01 21 94 03 
  1017)    18011.2  Rx       50F  8  01 21 00 00 79 05 B2 00 
  1018)    18021.2  Rx       1A7  8  00 00 F8 11 0B 00 30 11 
  1019)    18031.1  Rx  10000201  8  03 01 06 01 00 00 03 00 
  1020)    18041.3  Rx  10000202  8  00 00 00 00 00 00 00 00 
  1021)    18051.2  Rx  10000203  8  3A 27 F1 02 1F 0D F6 20 
  1022)    18061.1  Rx  10000204  8  D3 20 AB 02 7B 05 B2 00 
  1023)    18071.0  Rx  10000205  8  01 26 64 64 64 64 00 26 
  1024)    18071.3  Rx  10000206  8  00 00 30 11 F8 11 30 11 
  1025)    18071.5  Rx  10000207  8  00 00 00 00 6C 13 00 00 
  1026)    18072.3  Rx  10000208  8  00 00 00 00 00 00 00 00 
  1027)    18081.0  Rx       310  8  87 00 06 01 00 00 00 00 
  1028)    18091.1  Rx       50E  8  00 00 00 00 00 00 00 00 
  1029)    18101.1  Rx       19F  8  00 27 AF 03 02 21 98 03 
  1030)    18111.1  Rx       50F  8  01 21 00 00 79 05 B2 00 
  1031)    18121.0  Rx       1A7  8  00 00 F8 11 0B 00 30 11 
  1032)    18181.1  Rx       310  8  87 00 06 01 00 00 00 00 
  1033)    18191.3  Rx       50E  8  00 00 00 00 00 00 00 00 
  1034)    18201.4  Rx       19F  8  03 27 B5 03 01 21 8A 03 
  1035)    18211.0  Rx       50F  8  01 21 00 00 7A 05 B3 00 
  1036)    18221.1  Rx       1A7  8  00 00 F8 11 0B 00 30 11 
  1037)    18281.2  Rx       310  8  87 00 06 01 00 00 00 00 
  1038)    18291.1  Rx       50E  8  00 00 00 00 00 00 00 00 
  1039)    18301.0  Rx       19F  8  04 27 B6 03 01 21 A3 03 
  1040)    18311.3  Rx       50F  8  01 21 00 00 7B 05 B3 00 
  1041)    18321.2  Rx       1A7  8  00 00 F8 11 0B 00 30 11 
  1042)    18381.1  Rx       310  8  87 00 06 01 00 00 00 00 
  1043)    18391.1  Rx       50E  8  00 00 00 00 00 00 00 00 
  1044)    18401.1  Rx       19F  8  02 27 B8 03 01 21 A5 03 
  1045)    18411.2  Rx       50F  8  01 21 00 00 7C 05 B3 00 
  1046)    18421.1  Rx       1A7  8  00 00 F8 11 0B 00 30 11 
  1047)    18481.1  Rx       310  8  87 00 06 01 00 00 00 00 
  1048)    18491.1  Rx       50E  8  00 00 00 00 00 00 00 00 
  1049)    18501.0  Rx       19F  8  FF 26 BB 03 02 21 9C 03 
  1050)    18511.3  Rx       50F  8  02 21 00 00 79 05 B3 00 
  1051)    18521.6  Rx       1A7  8  00 00 F8 11 0B 00 30 11 
  1052)    18581.0  Rx       310  8  87 00 06 01 00 00 00 00 
  1053)    18591.0  Rx       50E  8  00 00 00 00 00 00 00 00 
  1054)    18601.0  Rx       19F  8  FE 26 BC 03 03 21 A2 03 
  1055)    18610.9  Rx       50F  8  03 21 00 00 77 05 B3 00 
  1056)    18620.9  Rx       1A7  8  00 00 F8 11 0B 00 30 11 
  1057)    18681.0  Rx       310  8  87 00 06 01 00 00 00 00 
  1058)    18691.0  Rx       50E  8  00 00 00 00 00 00 00 00 
  1059)    18700.9  Rx       19F  8  00 27 BE 03 03 21 AC 03 
  1060)    18711.1  Rx       50F  8  03 21 00 00 77 05 B3 00 
  1061)    18721.1  Rx       1A7  8  00 00 F8 11 0B 00 30 11 
  1062)    18781.0  Rx       310  8  87 00 06 01 00 00 00 00 
  1063)    18791.2  Rx       50E  8  00 00 00 00 00 00 00 00 
  1064)    18801.0  Rx       19F  8  06 27 C1 03 02 21 A6 03 
  1065)    18810.9  Rx       50F  8  02 21 00 00 77 05 B3 00 
  1066)    18821.0  Rx       1A7  8  00 00 F8 11 0B 00 30 11 
  1067)    18881.0  Rx       310  8  87 00 06 01 00 00 00 00 
  1068)    18891.1  Rx       50E  8  00 00 00 00 00 00 00 00 
  1069)    18901.0  Rx       19F  8  03 27 C1 03 02 21 A9 03 
  1070)    18910.9  Rx       50F  8  01 21 00 00 78 05 B3 00 
  1071)    18920.9  Rx       1A7  8  00 00 F8 11 0B 00 30 11 
  1072)    18981.1  Rx       310  8  87 00 06 01 00 00 00 00 
  1073)    18990.8  Rx       50E  8  00 00 00 00 00 00 00 00 
  1074)    19001.0  Rx       19F  8  FC 26 C1 03 04 21 B3 03 
  1075)    19011.1  Rx       50F  8  03 21 00 00 79 05 B3 00 
  1076)    19021.0  Rx       1A7  8  00 00 F8 11 0B 00 30 11 
  1077)    19031.2  Rx  10000201  8  03 01 06 01 00 00 03 00 
  1078)    19041.1  Rx  10000202  8  00 00 00 00 00 00 00 00 
  1079)    19051.1  Rx  10000203  8  92 27 67 03 36 0D FC 20 
  1080)    19062.6  Rx  10000204  8  D9 20 29 03 7A 05 B3 00 
  1081)    19071.2  Rx  10000205  8  01 26 64 64 64 64 00 26 
  1082)    19071.6  Rx  10000206  8  00 00 30 11 F8 11 30 11 
  1083)    19071.8  Rx  10000207  8  00 00 00 00 6B 13 00 00 
  1084)    19072.0  Rx  10000208  8  00 00 00 00 00 00 00 00 
  1085)    19081.0  Rx       310  8  87 00 06 01 00 00 00 00 
  1086)    19091.1  Rx       50E  8  00 00 00 00 00 00 00 00 
  1087)    19101.1  Rx       19F  8  03 27 C4 03 03 21 AB 03 
  1088)    19111.1  Rx       50F  8  03 21 00 00 79 05 B3 00 
  1089)    19120.8  Rx       1A7  8  00 00 F8 11 0B 00 30 11 
  1090)    19180.9  Rx       310  8  87 00 06 01 00 00 00 00 
  1091)    19191.0  Rx       50E  8  00 00 00 00 00 00 00 00 
  1092)    19201.1  Rx       19F  8  FD 26 C3 03 02 21 B0 03 
  1093)    19211.0  Rx       50F  8  03 21 00 00 7A 05 B3 00 
  1094)    19221.2  Rx       1A7  8  00 00 F8 11 0B 00 30 11 
  1095)    19281.2  Rx       310  8  87 00 06 01 00 00 00 00 
  1096)    19291.1  Rx       50E  8  00 00 00 00 00 00 00 00 
  1097)    19301.0  Rx       19F  8  02 27 C7 03 03 21 B8 03 
  1098)    19311.1  Rx       50F  8  03 21 00 00 7A 05 B3 00 
  1099)    19321.2  Rx       1A7  8  00 00 F8 11 0B 00 30 11 
  1100)    19381.6  Rx       310  8  87 00 06 01 00 00 00 00 
  1101)    19391.1  Rx       50E  8  00 00 00 00 00 00 00 00 
  1102)    19401.1  Rx       19F  8  02 27 C4 03 04 21 B6 03 
  1103)    19411.0  Rx       50F  8  03 21 00 00 7A 05 B3 00 
  1104)    19420.8  Rx       1A7  8  00 00 F8 11 0B 00 30 11 
  1105)    19480.9  Rx       310  8  87 00 06 01 00 00 00 00 
  1106)    19491.4  Rx       50E  8  00 00 00 00 00 00 00 00 
  1107)    19500.8  Rx       19F  8  FF 26 C9 03 03 21 AE 03 
  1108)    19511.0  Rx       50F  8  03 21 00 00 7A 05 B3 00 
  1109)    19520.8  Rx       1A7  8  00 00 F8 11 0B 00 30 11 
  1110)    19580.9  Rx       310  8  87 00 06 01 00 00 00 00 
  1111)    19590.9  Rx       50E  8  00 00 00 00 00 00 00 00 
  1112)    19601.1  Rx       19F  8  04 27 C7 03 04 21 B2 03 
  1113)    19610.9  Rx       50F  8  03 21 00 00 7A 05 B3 00 
  1114)    19620.9  Rx       1A7  8  00 00 F8 11 0B 00 30 11 
  1115)    19681.0  Rx       310  8  87 00 06 01 00 00 00 00 
  1116)    19690.9  Rx       50E  8  00 00 00 00 00 00 00 00 
  1117)    19701.0  Rx       19F  8  01 27 C8 03 03 21 B3 03 
  1118)    19710.9  Rx       50F  8  03 21 00 00 7B 05 B3 00 
  1119)    19721.2  Rx       1A7  8  00 00 F8 11 0B 00 30 11 
  1120)    19780.9  Rx       310  8  87 00 06 01 00 00 00 00 
  1121)    19791.2  Rx       50E  8  00 00 00 00 00 00 00 00 
  1122)    19800.9  Rx       19F  8  FE 26 C9 03 03 21 BD 03 
  1123)    19810.9  Rx       50F  8  02 21 00 00 77 05 B3 00 
  1124)    19821.0  Rx       1A7  8  00 00 F8 11 0B 00 30 11 
  1125)    19881.2  Rx       310  8  87 00 06 01 00 00 00 00 
  1126)    19891.1  Rx       50E  8  00 00 00 00 00 00 00 00 
  1127)    19901.1  Rx       19F  8  F9 26 CB 03 03 21 B2 03 
  1128)    19911.0  Rx       50F  8  02 21 00 00 75 05 B3 00 
  1129)    19921.1  Rx       1A7  8  00 00 F8 11 0B 00 30 11 
  1130)    19981.0  Rx       310  8  87 00 06 01 00 00 00 00 
  1131)    19991.0  Rx       50E  8  00 00 00 00 00 00 00 00 
  1132)    20000.9  Rx       19F  8  00 27 CB 03 02 21 B4 03 
  1133)    20011.6  Rx       50F  8  02 21 00 00 73 05 B3 00 
  1134)    20021.1  Rx       1A7  8  00 00 F8 11 0B 00 30 11 
  1135)    20031.3  Rx  10000201  8  03 01 06 01 00 00 03 00 
  1136)    20041.2  Rx  10000202  8  00 00 00 00 00 00 00 00 
  1137)    20051.1  Rx  10000203  8  AF 27 A1 03 40 0D FF 20 
  1138)    20061.3  Rx  10000204  8  DC 20 66 03 73 05 B3 00 
  1139)    20071.3  Rx  10000205  8  01 26 64 64 64 64 00 26 
  1140)    20071.6  Rx  10000206  8  00 00 30 11 F8 11 30 11 
  1141)    20071.7  Rx  10000207  8  00 00 00 00 6B 13 00 00 
  1142)    20071.7  Rx  10000208  8  00 00 00 00 00 00 00 00 
  1143)    20081.3  Rx       310  8  87 00 06 01 00 00 00 00 
  1144)    20091.1  Rx       50E  8  00 00 00 00 00 00 00 00 
  1145)    20101.1  Rx       19F  8  02 27 CB 03 02 21 B5 03 
  1146)    20110.9  Rx       50F  8  02 21 00 00 73 05 B3 00 
  1147)    20120.9  Rx       1A7  8  00 00 F8 11 0B 00 30 11 
  1148)    20181.0  Rx       310  8  87 00 06 01 00 00 00 00 
  1149)    20191.0  Rx       50E  8  00 00 00 00 00 00 00 00 
  1150)    20201.0  Rx       19F  8  FA 26 CC 03 03 21 B8 03 
  1151)    20211.2  Rx       50F  8  03 21 00 00 73 05 B3 00 
  1152)    20221.0  Rx       1A7  8  00 00 F8 11 0B 00 30 11 
  1153)    20281.1  Rx       310  8  87 00 06 01 00 00 00 00 
  1154)    20291.0  Rx       50E  8  00 00 00 00 00 00 00 00 
  1155)    20301.0  Rx       19F  8  FA 26 CC 03 03 21 BC 03 
  1156)    20311.0  Rx       50F  8  02 21 00 00 73 05 B3 00 
  1157)    20320.9  Rx       1A7  8  00 00 F8 11 0B 00 30 11 
  1158)    20381.0  Rx       310  8  87 00 06 01 00 00 00 00 
  1159)    20391.0  Rx       50E  8  00 00 00 00 00 00 00 00 
  1160)    20401.0  Rx       19F  8  02 27 CC 03 03 21 BD 03 
  1161)    20411.2  Rx       50F  8  02 21 00 00 73 05 B3 00 
  1162)    20421.0  Rx       1A7  8  00 00 F8 11 0B 00 30 11 
  1163)    20481.2  Rx       310  8  87 00 06 01 00 00 00 00 
  1164)    20491.1  Rx       50E  8  00 00 00 00 00 00 00 00 
  1165)    20501.0  Rx       19F  8  FE 26 C9 03 03 21 BC 03 
  1166)    20511.2  Rx       50F  8  02 21 00 00 73 05 B3 00 
  1167)    20520.9  Rx       1A7  8  00 00 F8 11 0B 00 30 11 
  1168)    20581.2  Rx       310  8  87 00 06 01 00 00 00 00 
  1169)    20591.0  Rx       50E  8  00 00 00 00 00 00 00 00 
  1170)    20600.8  Rx       19F  8  0B 27 CC 03 03 21 B6 03 
  1171)    20611.2  Rx       50F  8  03 21 00 00 73 05 B3 00 
  1172)    20620.9  Rx       1A7  8  00 00 F8 11 0B 00 30 11 
  1173)    20681.0  Rx       310  8  87 00 06 01 00 00 00 00 
  1174)    20690.8  Rx       50E  8  00 00 00 00 00 00 00 00 
  1175)    20701.0  Rx       19F  8  04 27 CD 03 02 21 B2 03 
  1176)    20711.0  Rx       50F  8  02 21 00 00 76 05 B3 00 
  1177)    20720.9  Rx       1A7  8  00 00 F8 11 0B 00 30 11 
  1178)    20781.0  Rx       310  8  87 00 06 01 00 00 00 00 
  1179)    20790.8  Rx       50E  8  00 00 00 00 00 00 00 00 
  1180)    20800.9  Rx       19F  8  F8 26 CB 03 03 21 B3 03 
  1181)    20811.0  Rx       50F  8  03 21 00 00 77 05 B3 00 
  1182)    20821.0  Rx       1A7  8  00 00 F8 11 0B 00 30 11 
  1183)    20880.8  Rx       310  8  87 00 06 01 00 00 00 00 
  1184)    20890.9  Rx       50E  8  00 00 00 00 00 00 00 00 
  1185)    20900.8  Rx       19F  8  08 27 CD 03 02 21 B8 03 
  1186)    20911.0  Rx       50F  8  00 21 00 00 7A 05 B3 00 
  1187)    20920.9  Rx       1A7  8  00 00 F8 11 0B 00 30 11 
  1188)    20981.1  Rx       310  8  87 00 06 01 00 00 00 00 
  1189)    20991.1  Rx       50E  8  00 00 00 00 00 00 00 00 
  1190)    21001.0  Rx       19F  8  03 27 CC 03 03 21 AC 03 
  1191)    21011.1  Rx       50F  8  03 21 00 00 78 05 B3 00 
  1192)    21020.9  Rx       1A7  8  00 00 F8 11 0B 00 30 11 
  1193)    21031.1  Rx  10000201  8  03 01 06 01 00 00 03 00 
  1194)    21041.1  Rx  10000202  8  00 00 00 00 00 00 00 00 
  1195)    21051.1  Rx  10000203  8  B7 27 BB 03 44 0D 00 21 
  1196)    21061.2  Rx  10000204  8  DD 20 83 03 77 05 B3 00 
  1197)    21071.0  Rx  10000205  8  01 26 64 64 64 64 00 26 
  1198)    21071.3  Rx  10000206  8  00 00 30 11 F8 11 30 11 
  1199)    21071.4  Rx  10000207  8  00 00 00 00 71 13 00 00 
  1200)    21071.6  Rx  10000208  8  00 00 00 00 00 00 00 00 
  1201)    21081.2  Rx       310  8  87 00 06 01 00 00 00 00 
  1202)    21091.1  Rx       50E  8  00 00 00 00 00 00 00 00 
  1203)    21100.8  Rx       19F  8  FA 26 CB 03 03 21 B8 03 
  1204)    21111.1  Rx       50F  8  01 21 00 00 7A 05 B3 00 
  1205)    21120.9  Rx       1A7  8  00 00 F8 11 0B 00 30 11 
  1206)    21181.0  Rx       310  8  87 00 06 01 00 00 00 00 
  1207)    21191.1  Rx       50E  8  00 00 00 00 00 00 00 00 
  1208)    21201.0  Rx       19F  8  FE 26 C9 03 04 21 C5 03 
  1209)    21211.1  Rx       50F  8  02 21 00 00 7A 05 B3 00 
  1210)    21221.0  Rx       1A7  8  00 00 F8 11 0B 00 30 11 
  1211)    21281.1  Rx       310  8  87 00 06 01 00 00 00 00 
  1212)    21291.0  Rx       50E  8  00 00 00 00 00 00 00 00 
  1213)    21301.0  Rx       19F  8  FF 26 CC 03 03 21 BC 03 
  1214)    21311.1  Rx       50F  8  02 21 00 00 7A 05 B3 00 
  1215)    21320.9  Rx       1A7  8  00 00 F8 11 0B 00 30 11 
  1216)    21380.8  Rx       310  8  87 00 06 01 00 00 00 00 
  1217)    21390.9  Rx       50E  8  00 00 00 00 00 00 00 00 
  1218)    21400.9  Rx       19F  8  FB 26 CB 03 03 21 B8 03 
  1219)    21410.8  Rx       50F  8  02 21 00 00 7A 05 B3 00 
  1220)    21420.9  Rx       1A7  8  00 00 F8 11 0B 00 30 11 
  1221)    21481.0  Rx       310  8  87 00 06 01 00 00 00 00 
  1222)    21490.9  Rx       50E  8  00 00 00 00 00 00 00 00 
  1223)    21500.9  Rx       19F  8  03 27 C6 03 03 21 BB 03 
  1224)    21511.0  Rx       50F  8  03 21 00 00 79 05 B3 00 
  1225)    21520.9  Rx       1A7  8  00 00 F8 11 0B 00 30 11 
  1226)    21580.8  Rx       310  8  87 00 06 01 00 00 00 00 
  1227)    21591.0  Rx       50E  8  00 00 00 00 00 00 00 00 
  1228)    21600.8  Rx       19F  8  FF 26 C8 03 02 21 A8 03 
  1229)    21610.9  Rx       50F  8  03 21 00 00 7A 05 B3 00 
  1230)    21621.0  Rx       1A7  8  00 00 F8 11 0B 00 30 11 
  1231)    21631.0  Rx       644  8  13 0A 00 00 02 00 00 00 
  1232)    21640.9  Rx       645  8  05 00 00 00 00 00 00 00 
  1233)    21680.9  Rx       310  8  87 00 06 01 00 00 00 00 
  1234)    21690.8  Rx       50E  8  00 00 00 00 00 00 00 00 
  1235)    21700.9  Rx       19F  8  03 27 CC 03 02 21 B6 03 
  1236)    21710.9  Rx       50F  8  02 21 00 00 78 05 B3 00 
  1237)    21720.8  Rx       1A7  8  00 00 F8 11 0B 00 30 11 
  1238)    21781.1  Rx       310  8  87 00 06 01 00 00 00 00 
  1239)    21791.1  Rx       50E  8  00 00 00 00 00 00 00 00 
  1240)    21801.0  Rx       19F  8  07 27 C9 03 03 21 A7 03 
  1241)    21811.1  Rx       50F  8  03 21 00 00 78 05 B3 00 
  1242)    21821.0  Rx       1A7  8  00 00 F8 11 0B 00 30 11 
  1243)    21880.9  Rx       310  8  87 00 06 01 00 00 00 00 
  1244)    21891.1  Rx       50E  8  00 00 00 00 00 00 00 00 
  1245)    21901.1  Rx       19F  8  FD 26 CA 03 02 21 A3 03 
  1246)    21911.0  Rx       50F  8  02 21 00 00 78 05 B3 00 
  1247)    21920.7  Rx       1A7  8  00 00 F8 11 0B 00 30 11 
  1248)    21981.0  Rx       310  8  87 00 06 01 00 00 00 00 
  1249)    21990.9  Rx       50E  8  00 00 00 00 00 00 00 00 
  1250)    22001.1  Rx       19F  8  00 27 CC 03 02 21 A7 03 
  1251)    22011.2  Rx       50F  8  02 21 00 00 78 05 B3 00 
  1252)    22020.9  Rx       1A7  8  00 00 F8 11 0B 00 30 11 
  1253)    22031.2  Rx  10000201  8  03 01 06 01 00 00 03 00 
  1254)    22040.9  Rx  10000202  8  00 00 00 00 00 00 00 00 
  1255)    22051.2  Rx  10000203  8  BE 27 C5 03 46 0D 01 21 
  1256)    22061.1  Rx  10000204  8  DE 20 8F 03 77 05 B3 00 
  1257)    22071.4  Rx  10000205  8  01 26 64 64 64 64 00 26 
  1258)    22071.6  Rx  10000206  8  00 00 30 11 F8 11 30 11 
  1259)    22071.7  Rx  10000207  8  00 00 00 00 6E 13 00 00 
  1260)    22071.8  Rx  10000208  8  00 00 00 00 00 00 00 00 
  1261)    22081.2  Rx       310  8  87 00 06 01 00 00 00 00 
  1262)    22090.9  Rx       50E  8  00 00 00 00 00 00 00 00 
  1263)    22101.2  Rx       19F  8  FF 26 CC 03 01 21 96 03 
  1264)    22111.0  Rx       50F  8  02 21 00 00 78 05 B3 00 
  1265)    22120.9  Rx       1A7  8  00 00 F8 11 0B 00 30 11 
  1266)    22181.0  Rx       310  8  87 00 06 01 00 00 00 00 
  1267)    22190.9  Rx       50E  8  00 00 00 00 00 00 00 00 
  1268)    22200.9  Rx       19F  8  FA 26 CC 03 02 21 9C 03 
  1269)    22211.2  Rx       50F  8  02 21 00 00 79 05 B3 00 
  1270)    22221.0  Rx       1A7  8  00 00 F8 11 0B 00 30 11 
  1271)    22281.1  Rx       310  8  87 00 06 01 00 00 00 00 
  1272)    22291.1  Rx       50E  8  00 00 00 00 00 00 00 00 
  1273)    22300.8  Rx       19F  8  FD 26 CA 03 02 21 9E 03 
  1274)    22310.9  Rx       50F  8  02 21 00 00 7A 05 B3 00 
  1275)    22320.9  Rx       1A7  8  00 00 F8 11 0B 00 30 11 
  1276)    22381.0  Rx       310  8  87 00 06 01 00 00 00 00 
  1277)    22391.1  Rx       50E  8  00 00 00 00 00 00 00 00 
  1278)    22400.9  Rx       19F  8  FE 26 CB 03 02 21 A6 03 
  1279)    22411.0  Rx       50F  8  02 21 00 00 7A 05 B3 00 
  1280)    22421.1  Rx       1A7  8  00 00 F8 11 0B 00 30 11 
  1281)    22481.0  Rx       310  8  87 00 06 01 00 00 00 00 
  1282)    22490.8  Rx       50E  8  00 00 00 00 00 00 00 00 
  1283)    22500.9  Rx       19F  8  03 27 C9 03 02 21 A9 03 
  1284)    22510.9  Rx       50F  8  02 21 00 00 7A 05 B3 00 
  1285)    22520.7  Rx       1A7  8  00 00 F8 11 0B 00 30 11 
  1286)    22581.2  Rx       310  8  87 00 06 01 00 00 00 00 
  1287)    22590.9  Rx       50E  8  00 00 00 00 00 00 00 00 
  1288)    22601.0  Rx       19F  8  FD 26 CA 03 02 21 9A 03 
  1289)    22611.0  Rx       50F  8  01 21 00 00 79 05 B3 00 
  1290)    22620.9  Rx       1A7  8  00 00 F8 11 0B 00 30 11 
  1291)    22681.1  Rx       310  8  87 00 06 01 00 00 00 00 
  1292)    22690.9  Rx       50E  8  00 00 00 00 00 00 00 00 
  1293)    22700.8  Rx       19F  8  00 27 CC 03 03 21 A2 03 
  1294)    22711.0  Rx       50F  8  02 21 00 00 79 05 B3 00 
  1295)    22721.1  Rx       1A7  8  00 00 F8 11 0B 00 30 11 
  1296)    22781.0  Rx       310  8  87 00 06 01 00 00 00 00 
  1297)    22791.2  Rx       50E  8  00 00 00 00 00 00 00 00 
  1298)    22801.1  Rx       19F  8  0A 27 CF 03 02 21 9B 03 
  1299)    22811.0  Rx       50F  8  01 21 00 00 78 05 B3 00 
  1300)    22820.8  Rx       1A7  8  00 00 F8 11 0B 00 30 11 
  1301)    22880.9  Rx       310  8  87 00 06 01 00 00 00 00 
  1302)    22891.1  Rx       50E  8  00 00 00 00 00 00 00 00 
  1303)    22902.3  Rx       19F  8  05 27 CE 03 03 21 9F 03 
  1304)    22911.5  Rx       50F  8  03 21 00 00 78 05 B3 00 
  1305)    22921.0  Rx       1A7  8  00 00 F8 11 0B 00 30 11 
  1306)    22981.1  Rx       310  8  87 00 06 01 00 00 00 00 
  1307)    22991.2  Rx       50E  8  00 00 00 00 00 00 00 00 
  1308)    23001.1  Rx       19F  8  F8 26 CD 03 02 21 A2 03 
  1309)    23011.1  Rx       50F  8  02 21 00 00 78 05 B3 00 
  1310)    23021.0  Rx       1A7  8  00 00 F8 11 0B 00 30 11 
  1311)    23031.3  Rx  10000201  8  03 01 06 01 00 00 03 00 
  1312)    23041.2  Rx  10000202  8  00 00 00 00 00 00 00 00 
  1313)    23051.1  Rx  10000203  8  C1 27 CB 03 47 0D 01 21 
  1314)    23061.2  Rx  10000204  8  DE 20 95 03 79 05 B3 00 
  1315)    23071.1  Rx  10000205  8  01 26 64 64 64 64 00 26 
  1316)    23071.5  Rx  10000206  8  00 00 30 11 F8 11 30 11 
  1317)    23071.6  Rx  10000207  8  00 00 00 00 70 13 00 00 
  1318)    23071.6  Rx  10000208  8  00 00 00 00 00 00 00 00 
  1319)    23081.1  Rx       310  8  87 00 06 01 00 00 00 00 
  1320)    23091.1  Rx       50E  8  00 00 00 00 00 00 00 00 
  1321)    23101.0  Rx       19F  8  FF 26 CD 03 03 21 9E 03 
  1322)    23111.1  Rx       50F  8  02 21 00 00 78 05 B3 00 
  1323)    23121.0  Rx       1A7  8  00 00 F8 11 0B 00 30 11 
  1324)    23181.0  Rx       310  8  87 00 06 01 00 00 00 00 
  1325)    23191.1  Rx       50E  8  00 00 00 00 00 00 00 00 
  1326)    23201.1  Rx       19F  8  F9 26 CD 03 02 21 B0 03 
  1327)    23211.1  Rx       50F  8  01 21 00 00 78 05 B3 00 
  1328)    23221.1  Rx       1A7  8  00 00 F8 11 0B 00 30 11 
  1329)    23281.3  Rx       310  8  87 00 06 01 00 00 00 00 
  1330)    23291.2  Rx       50E  8  00 00 00 00 00 00 00 00 
  1331)    23301.0  Rx       19F  8  FC 26 CD 03 02 21 9C 03 
  1332)    23310.8  Rx       50F  8  01 21 00 00 78 05 B3 00 
  1333)    23321.7  Rx       1A7  8  00 00 F8 11 0B 00 30 11 
  1334)    23381.2  Rx       310  8  87 00 06 01 00 00 00 00 
  1335)    23391.2  Rx       50E  8  00 00 00 00 00 00 00 00 
  1336)    23400.9  Rx       19F  8  05 27 CD 03 03 21 A2 03 
  1337)    23411.1  Rx       50F  8  02 21 00 00 78 05 B3 00 
  1338)    23420.9  Rx       1A7  8  00 00 F8 11 0B 00 30 11 
  1339)    23480.9  Rx       310  8  87 00 06 01 00 00 00 00 
  1340)    23490.9  Rx       50E  8  00 00 00 00 00 00 00 00 
  1341)    23500.7  Rx       19F  8  FF 26 CE 03 02 21 9B 03 
  1342)    23510.9  Rx       50F  8  02 21 00 00 78 05 B3 00 
  1343)    23520.9  Rx       1A7  8  00 00 F8 11 0B 00 30 11 
  1344)    23581.1  Rx       310  8  87 00 06 01 00 00 00 00 
  1345)    23591.2  Rx       50E  8  00 00 00 00 00 00 00 00 
  1346)    23601.1  Rx       19F  8  FF 26 CE 03 02 21 9E 03 
  1347)    23611.0  Rx       50F  8  03 21 00 00 79 05 B3 00 
  1348)    23620.8  Rx       1A7  8  00 00 F8 11 0B 00 30 11 
  1349)    23680.8  Rx       310  8  87 00 06 01 00 00 00 00 
  1350)    23690.8  Rx       50E  8  00 00 00 00 00 00 00 00 
  1351)    23700.8  Rx       19F  8  FA 26 CC 03 03 21 9F 03 
  1352)    23711.0  Rx       50F  8  03 21 00 00 77 05 B3 00 
  1353)    23720.7  Rx       1A7  8  00 00 F8 11 0B 00 30 11 
  1354)    23780.9  Rx       310  8  87 00 06 01 00 00 00 00 
  1355)    23790.9  Rx       50E  8  00 00 00 00 00 00 00 00 
  1356)    23800.9  Rx       19F  8  FF 26 CB 03 02 21 A5 03 
  1357)    23810.8  Rx       50F  8  02 21 00 00 78 05 B3 00 
  1358)    23821.0  Rx       1A7  8  00 00 F8 11 0B 00 30 11 
  1359)    23880.9  Rx       310  8  87 00 06 01 00 00 00 00 
  1360)    23891.2  Rx       50E  8  00 00 00 00 00 00 00 00 
  1361)    23901.0  Rx       19F  8  FE 26 CF 03 03 21 9F 03 
  1362)    23911.0  Rx       50F  8  02 21 00 00 78 05 B3 00 
  1363)    23920.7  Rx       1A7  8  00 00 F8 11 0B 00 30 11 
  1364)    23981.0  Rx       310  8  87 00 06 01 00 00 00 00 
  1365)    23990.9  Rx       50E  8  00 00 00 00 00 00 00 00 
  1366)    24001.0  Rx       19F  8  05 27 CC 03 03 21 9F 03 
  1367)    24011.0  Rx       50F  8  02 21 00 00 78 05 B3 00 
  1368)    24020.9  Rx       1A7  8  00 00 F8 11 0B 00 30 11 
  1369)    24031.1  Rx  10000201  8  03 01 06 01 00 00 03 00 
  1370)    24041.0  Rx  10000202  8  00 00 00 00 00 00 00 00 
  1371)    24051.1  Rx  10000203  8  BF 27 CE 03 47 0D 01 21 
  1372)    24061.0  Rx  10000204  8  DF 20 98 03 78 05 B3 00 
  1373)    24071.1  Rx  10000205  8  01 26 64 64 64 64 00 26 
  1374)    24071.3  Rx  10000206  8  00 00 30 11 F8 11 30 11 
  1375)    24071.4  Rx  10000207  8  00 00 00 00 72 13 00 00 
  1376)    24071.5  Rx  10000208  8  00 00 00 00 00 00 00 00 
  1377)    24081.0  Rx       310  8  87 00 06 01 00 00 00 00 
  1378)    24091.2  Rx       50E  8  00 00 00 00 00 00 00 00 
  1379)    24101.0  Rx       19F  8  FE 26 CC 03 03 21 9C 03 
  1380)    24110.9  Rx       50F  8  03 21 00 00 78 05 B3 00 
  1381)    24120.9  Rx       1A7  8  00 00 F8 11 0B 00 30 11 
  1382)    24181.0  Rx       310  8  87 00 06 01 00 00 00 00 
  1383)    24190.9  Rx       50E  8  00 00 00 00 00 00 00 00 
  1384)    24200.7  Rx       19F  8  FC 26 CE 03 02 21 9C 03 
  1385)    24210.8  Rx       50F  8  02 21 00 00 79 05 B3 00 
  1386)    24220.8  Rx       1A7  8  00 00 F8 11 0B 00 30 11 
  1387)    24280.9  Rx       310  8  87 00 06 01 00 00 00 00 
  1388)    24290.8  Rx       50E  8  00 00 00 00 00 00 00 00 
  1389)    24300.9  Rx       19F  8  F7 26 CE 03 02 21 A3 03 
  1390)    24310.8  Rx       50F  8  01 21 00 00 78 05 B3 00 
  1391)    24320.8  Rx       1A7  8  00 00 F8 11 0B 00 30 11 
  1392)    24380.9  Rx       310  8  87 00 06 01 00 00 00 00 
  1393)    24390.9  Rx       50E  8  00 00 00 00 00 00 00 00 
  1394)    24401.1  Rx       19F  8  FD 26 CB 03 03 21 98 03 
  1395)    24411.1  Rx       50F  8  02 21 00 00 7A 05 B3 00 
  1396)    24421.0  Rx       1A7  8  00 00 F8 11 0B 00 30 11 
  1397)    24481.0  Rx       310  8  87 00 06 01 00 00 00 00 
  1398)    24491.0  Rx       50E  8  00 00 00 00 00 00 00 00 
  1399)    24500.9  Rx       19F  8  F8 26 CD 03 02 21 AA 03 
  1400)    24510.8  Rx       50F  8  04 21 00 00 79 05 B3 00 
  1401)    24520.7  Rx       1A7  8  00 00 F8 11 0B 00 30 11 
  1402)    24580.9  Rx       310  8  87 00 06 01 00 00 00 00 
  1403)    24591.0  Rx       50E  8  00 00 00 00 00 00 00 00 
  1404)    24600.8  Rx       19F  8  FA 26 CE 03 03 21 A4 03 
  1405)    24610.9  Rx       50F  8  03 21 00 00 78 05 B3 00 
  1406)    24620.7  Rx       1A7  8  00 00 F8 11 0B 00 30 11 
  1407)    24680.9  Rx       310  8  87 00 06 01 00 00 00 00 
  1408)    24691.0  Rx       50E  8  00 00 00 00 00 00 00 00 
  1409)    24700.9  Rx       19F  8  FF 26 CE 03 02 21 A3 03 
  1410)    24710.8  Rx       50F  8  02 21 00 00 78 05 B3 00 
  1411)    24720.8  Rx       1A7  8  00 00 F8 11 0B 00 30 11 
  1412)    24780.9  Rx       310  8  87 00 06 01 00 00 00 00 
  1413)    24790.8  Rx       50E  8  00 00 00 00 00 00 00 00 
  1414)    24800.7  Rx       19F  8  FA 26 CB 03 02 21 9A 03 
  1415)    24810.8  Rx       50F  8  03 21 00 00 78 05 B3 00 
  1416)    24820.8  Rx       1A7  8  00 00 F8 11 0B 00 30 11 
  1417)    24880.7  Rx       310  8  87 00 06 01 00 00 00 00 
  1418)    24890.9  Rx       50E  8  00 00 00 00 00 00 00 00 
  1419)    24900.8  Rx       19F  8  03 27 CD 03 02 21 9E 03 
  1420)    24910.9  Rx       50F  8  02 21 00 00 79 05 B3 00 
  1421)    24920.9  Rx       1A7  8  00 00 F8 11 0B 00 30 11 
  1422)    24981.2  Rx       310  8  87 00 06 01 00 00 00 00 
  1423)    24991.0  Rx       50E  8  00 00 00 00 00 00 00 00 
  1424)    25001.0  Rx       19F  8  08 27 CB 03 03 21 9D 03 
  1425)    25010.8  Rx       50F  8  02 21 00 00 78 05 B3 00 
  1426)    25021.0  Rx       1A7  8  00 00 F8 11 0B 00 30 11 
  1427)    25031.2  Rx  10000201  8  03 01 06 01 00 00 03 00 
  1428)    25041.0  Rx  10000202  8  00 00 00 00 00 00 00 00 
  1429)    25051.1  Rx  10000203  8  BD 27 CF 03 47 0D 01 21 
  1430)    25061.7  Rx  10000204  8  DF 20 9A 03 78 05 B3 00 
  1431)    25071.1  Rx  10000205  8  01 26 64 64 64 64 00 26 
  1432)    25071.5  Rx  10000206  8  00 00 30 11 F8 11 30 11 
  1433)    25071.6  Rx  10000207  8  00 00 00 00 75 13 00 00 
  1434)    25071.7  Rx  10000208  8  00 00 00 00 00 00 00 00 
  1435)    25081.2  Rx       310  8  87 00 06 01 00 00 00 00 
  1436)    25091.4  Rx       50E  8  00 00 00 00 00 00 00 00 
  1437)    25101.0  Rx       19F  8  FF 26 CC 03 02 21 A4 03 
  1438)    25110.9  Rx       50F  8  03 21 00 00 78 05 B3 00 
  1439)    25120.9  Rx       1A7  8  00 00 F8 11 0B 00 30 11 
  1440)    25180.8  Rx       310  8  87 00 06 01 00 00 00 00 
  1441)    25191.0  Rx       50E  8  00 00 00 00 00 00 00 00 
  1442)    25200.8  Rx       19F  8  FA 26 CE 03 02 21 9D 03 
  1443)    25210.9  Rx       50F  8  02 21 00 00 78 05 B3 00 
  1444)    25220.9  Rx       1A7  8  00 00 F8 11 0B 00 30 11 
  1445)    25280.9  Rx       310  8  87 00 06 01 00 00 00 00 
  1446)    25290.9  Rx       50E  8  00 00 00 00 00 00 00 00 
  1447)    25300.8  Rx       19F  8  FA 26 CE 03 03 21 A1 03 
  1448)    25311.1  Rx       50F  8  01 21 00 00 78 05 B3 00 
  1449)    25321.0  Rx       1A7  8  00 00 F8 11 0B 00 30 11 
  1450)    25380.9  Rx       310  8  87 00 06 01 00 00 00 00 
  1451)    25390.8  Rx       50E  8  00 00 00 00 00 00 00 00 
  1452)    25400.9  Rx       19F  8  02 27 CB 03 03 21 9D 03 
  1453)    25410.8  Rx       50F  8  03 21 00 00 78 05 B3 00 
  1454)    25420.8  Rx       1A7  8  00 00 F8 11 0B 00 30 11 
  1455)    25480.9  Rx       310  8  87 00 06 01 00 00 00 00 
  1456)    25490.7  Rx       50E  8  00 00 00 00 00 00 00 00 
  1457)    25500.9  Rx       19F  8  00 27 CB 03 02 21 A3 03 
  1458)    25510.8  Rx       50F  8  03 21 00 00 79 05 B3 00 
  1459)    25520.6  Rx       1A7  8  00 00 F8 11 0B 00 30 11 
  1460)    25581.0  Rx       310  8  87 00 06 01 00 00 00 00 
  1461)    25591.0  Rx       50E  8  00 00 00 00 00 00 00 00 
  1462)    25600.9  Rx       19F  8  06 27 D0 03 02 21 94 03 
  1463)    25611.0  Rx       50F  8  02 21 00 00 78 05 B3 00 
  1464)    25621.5  Rx       1A7  8  00 00 F8 11 0B 00 30 11 
  1465)    25680.7  Rx       310  8  87 00 06 01 00 00 00 00 
  1466)    25690.8  Rx       50E  8  00 00 00 00 00 00 00 00 
  1467)    25700.8  Rx       19F  8  08 27 CD 03 03 21 A3 03 
  1468)    25710.7  Rx       50F  8  03 21 00 00 78 05 B3 00 
  1469)    25720.9  Rx       1A7  8  00 00 F8 11 0B 00 94 11 
  1470)    25780.8  Rx       310  8  87 00 06 01 00 00 00 00 
  1471)    25790.8  Rx       50E  8  00 00 00 00 00 00 00 00 
  1472)    25801.0  Rx       19F  8  F7 26 CD 03 03 21 9D 03 
  1473)    25810.8  Rx       50F  8  03 21 00 00 78 05 B3 00 
  1474)    25820.9  Rx       1A7  8  00 00 F8 11 0B 00 94 11 
  1475)    25881.4  Rx       310  8  87 00 06 01 00 00 00 00 
  1476)    25891.0  Rx       50E  8  00 00 00 00 00 00 00 00 
  1477)    25901.0  Rx       19F  8  03 27 CF 03 03 21 9F 03 
  1478)    25911.0  Rx       50F  8  01 21 00 00 78 05 B3 00 
  1479)    25920.8  Rx       1A7  8  00 00 F8 11 0B 00 94 11 
  1480)    25981.1  Rx       310  8  87 00 06 01 00 00 00 00 
  1481)    25990.9  Rx       50E  8  00 00 00 00 00 00 00 00 
  1482)    26001.1  Rx       19F  8  FA 26 CE 03 02 21 A0 03 
  1483)    26011.1  Rx       50F  8  03 21 00 00 78 05 B3 00 
  1484)    26020.9  Rx       1A7  8  00 00 F8 11 0B 00 94 11 
  1485)    26031.1  Rx  10000201  8  03 01 06 01 00 00 03 00 
  1486)    26041.0  Rx  10000202  8  00 00 00 00 00 00 00 00 
  1487)    26051.0  Rx  10000203  8  BD 27 CF 03 48 0D 01 21 
  1488)    26061.0  Rx  10000204  8  E0 20 9A 03 77 05 B3 00 
  1489)    26071.1  Rx  10000205  8  01 26 64 64 64 64 00 26 
  1490)    26071.4  Rx  10000206  8  00 00 94 11 F8 11 30 11 
  1491)    26071.5  Rx  10000207  8  00 00 00 00 73 13 00 00 
  1492)    26071.6  Rx  10000208  8  00 00 00 00 00 00 00 00 
  1493)    26081.0  Rx       310  8  87 00 06 01 00 00 00 00 
  1494)    26091.2  Rx       50E  8  00 00 00 00 00 00 00 00 
  1495)    26101.1  Rx       19F  8  F7 26 CC 03 02 21 A7 03 
  1496)    26111.0  Rx       50F  8  02 21 00 00 79 05 B3 00 
  1497)    26120.7  Rx       1A7  8  00 00 F8 11 0B 00 94 11 
  1498)    26181.0  Rx       310  8  87 00 06 01 00 00 00 00 
  1499)    26190.9  Rx       50E  8  00 00 00 00 00 00 00 00 
  1500)    26200.9  Rx       19F  8  02 27 CF 03 02 21 9A 03 
  1501)    26211.0  Rx       50F  8  02 21 00 00 78 05 B3 00 
  1502)    26221.1  Rx       1A7  8  00 00 F8 11 0B 00 94 11 
  1503)    26281.0  Rx       310  8  87 00 06 01 00 00 00 00 
  1504)    26291.0  Rx       50E  8  00 00 00 00 00 00 00 00 
  1505)    26300.9  Rx       19F  8  04 27 CD 03 02 21 9D 03 
  1506)    26310.9  Rx       50F  8  05 21 00 00 79 05 B3 00 
  1507)    26320.8  Rx       1A7  8  00 00 F8 11 0B 00 94 11 
  1508)    26381.4  Rx       310  8  87 00 06 01 00 00 00 00 
  1509)    26390.8  Rx       50E  8  00 00 00 00 00 00 00 00 
  1510)    26400.8  Rx       19F  8  00 27 CD 03 02 21 94 03 
  1511)    26410.9  Rx       50F  8  02 21 00 00 79 05 B3 00 
  1512)    26420.8  Rx       1A7  8  00 00 F8 11 0B 00 94 11 
  1513)    26480.9  Rx       310  8  87 00 06 01 00 00 00 00 
  1514)    26490.8  Rx       50E  8  00 00 00 00 00 00 00 00 
  1515)    26500.8  Rx       19F  8  FA 26 CC 03 02 21 A5 03 
  1516)    26510.9  Rx       50F  8  02 21 00 00 78 05 B3 00 
  1517)    26520.7  Rx       1A7  8  00 00 F8 11 0B 00 F8 11 
  1518)    26580.8  Rx       310  8  87 00 06 01 00 00 00 00 
  1519)    26590.9  Rx       50E  8  00 00 00 00 00 00 00 00 
  1520)    26601.0  Rx       19F  8  FE 26 CF 03 02 21 A6 03 
  1521)    26610.9  Rx       50F  8  02 21 00 00 78 05 B3 00 
  1522)    26620.7  Rx       1A7  8  00 00 F8 11 0B 00 F8 11 
  1523)    26631.1  Rx       644  8  13 0A 00 00 02 00 00 00 
  1524)    26640.9  Rx       645  8  05 00 00 00 00 00 00 00 
  1525)    26681.1  Rx       310  8  87 00 06 01 00 00 00 00 
  1526)    26690.8  Rx       50E  8  00 00 00 00 00 00 00 00 
  1527)    26700.8  Rx       19F  8  FA 26 CC 03 02 21 A8 03 
  1528)    26711.0  Rx       50F  8  02 21 00 00 79 05 B3 00 
  1529)    26720.8  Rx       1A7  8  00 00 F8 11 0B 00 F8 11 
  1530)    26730.6  Rx       12C  8  20 03 88 90 00 00 00 00 
  1531)    26731.9  Rx       12C  8  20 03 88 90 00 00 00 00 
  1532)    26781.1  Rx       310  8  87 00 06 01 00 00 00 00 
  1533)    26791.1  Rx       50E  8  00 00 00 00 00 00 00 00 
  1534)    26800.8  Rx       19F  8  FC 26 CC 03 01 21 8D 03 
  1535)    26811.0  Rx       50F  8  02 21 00 00 78 05 B3 00 
  1536)    26820.8  Rx       1A7  8  00 00 F8 11 0B 00 F8 11 
  1537)    26881.1  Rx       310  8  87 00 06 01 00 00 00 00 
  1538)    26891.0  Rx       50E  8  00 00 00 00 00 00 00 00 
  1539)    26900.9  Rx       19F  8  0A 27 AE 03 01 21 81 03 
  1540)    26910.9  Rx       50F  8  00 21 00 00 78 05 B3 00 
  1541)    26920.9  Rx       1A7  8  00 00 F8 11 0B 00 F8 11 
  1542)    26980.9  Rx       310  8  87 00 06 01 00 00 00 00 
  1543)    26990.8  Rx       50E  8  00 00 00 00 00 00 00 00 
  1544)    27000.8  Rx       19F  8  03 27 97 03 FE 20 57 03 
  1545)    27010.8  Rx       50F  8  FE 20 00 00 79 05 B3 00 
  1546)    27020.6  Rx       1A7  8  00 00 F8 11 0B 00 F8 11 
  1547)    27030.9  Rx  10000201  8  03 01 06 01 00 00 03 00 
  1548)    27041.0  Rx  10000202  8  00 00 00 00 00 00 00 00 
  1549)    27050.8  Rx  10000203  8  C6 27 C8 03 49 0D 01 21 
  1550)    27060.8  Rx  10000204  8  E0 20 90 03 77 05 B3 00 
  1551)    27070.9  Rx  10000205  8  01 26 64 64 64 64 00 26 
  1552)    27071.1  Rx  10000206  8  00 00 F8 11 F8 11 30 11 
  1553)    27071.2  Rx  10000207  8  00 00 00 00 73 13 00 00 
  1554)    27071.2  Rx  10000208  8  00 00 00 00 00 00 00 00 
  1555)    27080.8  Rx       310  8  87 00 06 01 00 00 00 00 
  1556)    27090.8  Rx       50E  8  00 00 00 00 00 00 00 00 
  1557)    27100.7  Rx       19F  8  11 27 86 03 FE 20 46 03 
  1558)    27110.7  Rx       50F  8  FE 20 00 00 77 05 B3 00 
  1559)    27120.8  Rx       1A7  8  00 00 F8 11 0B 00 F8 11 
  1560)    27180.7  Rx       310  8  87 00 06 01 00 00 00 00 
  1561)    27190.9  Rx       50E  8  00 00 00 00 00 00 00 00 
  1562)    27200.8  Rx       19F  8  10 27 7C 03 FD 20 45 03 
  1563)    27210.9  Rx       50F  8  FE 20 00 00 78 05 B3 00 
  1564)    27221.0  Rx       1A7  8  00 00 F8 11 0B 00 F8 11 
  1565)    27281.2  Rx       310  8  87 00 06 01 00 00 00 00 
  1566)    27290.7  Rx       50E  8  00 00 00 00 00 00 00 00 
  1567)    27300.9  Rx       19F  8  0F 27 74 03 FE 20 43 03 
  1568)    27311.0  Rx       50F  8  FD 20 00 00 7A 05 B3 00 
  1569)    27320.8  Rx       1A7  8  00 00 F8 11 0B 00 F8 11 
  1570)    27380.9  Rx       310  8  87 00 06 01 00 00 00 00 
  1571)    27390.9  Rx       50E  8  00 00 00 00 00 00 00 00 
  1572)    27400.7  Rx       19F  8  13 27 6C 03 FD 20 3D 03 
  1573)    27410.7  Rx       50F  8  FE 20 00 00 78 05 B3 00 
  1574)    27420.8  Rx       1A7  8  00 00 F8 11 0B 00 F8 11 
  1575)    27480.9  Rx       310  8  87 00 06 01 00 00 00 00 
  1576)    27490.8  Rx       50E  8  00 00 00 00 00 00 00 00 
  1577)    27500.8  Rx       19F  8  0E 27 67 03 FD 20 28 03 
  1578)    27510.8  Rx       50F  8  FE 20 00 00 78 05 B3 00 
  1579)    27520.7  Rx       1A7  8  00 00 F8 11 0B 00 F8 11 
  1580)    27580.8  Rx       310  8  87 00 06 01 00 00 00 00 
  1581)    27590.8  Rx       50E  8  00 00 00 00 00 00 00 00 
  1582)    27600.8  Rx       19F  8  0F 27 62 03 FC 20 1D 03 
  1583)    27610.8  Rx       50F  8  FC 20 00 00 79 05 B3 00 
  1584)    27620.8  Rx       1A7  8  00 00 F8 11 0B 00 F8 11 
  1585)    27681.2  Rx       310  8  87 00 06 01 00 00 00 00 
  1586)    27691.0  Rx       50E  8  00 00 00 00 00 00 00 00 
  1587)    27700.9  Rx       19F  8  0E 27 5F 03 FC 20 2D 03 
  1588)    27710.8  Rx       50F  8  FB 20 00 00 78 05 B3 00 
  1589)    27720.7  Rx       1A7  8  00 00 F8 11 0B 00 F8 11 
  1590)    27780.9  Rx       310  8  87 00 06 01 00 00 00 00 
  1591)    27790.9  Rx       50E  8  00 00 00 00 00 00 00 00 
  1592)    27800.8  Rx       19F  8  12 27 62 03 FC 20 2F 03 
  1593)    27810.8  Rx       50F  8  FC 20 00 00 78 05 B3 00 
  1594)    27820.7  Rx       1A7  8  00 00 F8 11 0B 00 F8 11 
  1595)    27880.8  Rx       310  8  87 00 06 01 00 00 00 00 
  1596)    27891.0  Rx       50E  8  00 00 00 00 00 00 00 00 
  1597)    27901.0  Rx       19F  8  16 27 5E 03 FC 20 1D 03 
  1598)    27910.9  Rx       50F  8  FC 20 00 00 77 05 B3 00 
  1599)    27920.9  Rx       1A7  8  00 00 F8 11 0B 00 F8 11 
  1600)    27981.0  Rx       310  8  87 00 06 01 00 00 00 00 
  1601)    27990.9  Rx       50E  8  00 00 00 00 00 00 00 00 
  1602)    28000.8  Rx       19F  8  14 27 5D 03 FC 20 2A 03 
  1603)    28011.0  Rx       50F  8  FC 20 00 00 77 05 B3 00 
  1604)    28020.8  Rx       1A7  8  00 00 F8 11 0B 00 F8 11 
  1605)    28031.2  Rx  10000201  8  03 01 06 01 00 00 03 00 
  1606)    28041.1  Rx  10000202  8  00 00 00 00 00 00 00 00 
