;$FILEVERSION=1.1
;$STARTTIME=46001.9402320448
;
;   Start time: 10-12-2025 22:33:56.048
;   Generated by AtomX
;
;   Message Number
;   |         Time Offset (ms)
;   |         |        Type
;   |         |        |        ID (hex)
;   |         |        |        |     Data Length
;   |         |        |        |     |   Data Bytes (hex) ...
;   |         |        |        |     |   |
;---+--   ----+----  --+--  ----+---  +  -+ -- -- -- -- -- -- --
     1)        0.0  Rx  10000203  8  44 2F 70 62 8A 07 E4 25 
     2)      100.7  Rx       503  8  35 89 2B 71 54 70 73 15 
     3)      205.0  Rx  10000203  8  4C 1D 74 40 BC 07 EC 13 
     4)      305.8  Rx       503  8  85 2E 82 7C 04 3A 91 61 
     5)      406.5  Rx       50F  8  98 68 24 11 D7 92 DF 7C 
     6)      507.0  Rx       7D8  8  00 68 69 22 DB 04 9B 35 
     7)      607.5  Rx       173  8  01 42 2C 95 00 00 00 00 
     8)      708.3  Rx       4CE  8  06 5A 00 00 00 00 00 00 
     9)      809.3  Rx       501  8  06 09 FF 2E 32 CF D4 D1 
    10)      910.1  Rx       4CD  8  FE 00 72 A1 33 0D 20 DE 
    11)     1010.7  Rx         7  8  00 00 00 00 00 50 00 00 
    12)     1111.3  Rx       7C2  8  00 60 D5 3A 72 4F 22 15 
    13)     1211.9  Rx  10000211  8  F9 BB AF 80 26 06 7C 68 
    14)     1315.0  Rx       65B  8  FB 05 00 00 B5 06 00 00 
    15)     1415.7  Rx       62B  8  B2 00 00 00 CA 05 00 00 
    16)     1516.7  Rx       341  8  18 11 31 78 26 62 30 00 
    17)     1617.2  Rx       170  8  C0 DD 82 30 0F 31 C8 A0 
    18)     1718.0  Rx       651  8  D0 E5 00 A1 F6 00 00 00 
    19)     1818.6  Rx       62B  8  BF 06 00 00 43 0D 00 00 
    20)     1919.1  Rx       65B  8  16 0C 00 00 10 0C 00 00 
    21)     2120.7  Rx       642  8  ED 3E 6E E5 72 84 33 F5 
    22)     2221.6  Rx  10000210  0   
    23)     2426.7  Rx        91  8  5D E3 53 5B 00 00 00 00 
    24)     2527.2  Rx  10000203  8  C0 5D D4 30 36 01 DC 50 
    25)     2627.8  Rx        51  8  B7 F8 00 00 35 79 00 00 
    26)     2728.3  Rx       7C2  8  00 C0 41 E1 E2 94 F9 93 
    27)     2829.4  Rx       341  8  F9 D6 33 2E 4E 22 30 00 
    28)     2929.9  Rx        8F  8  00 00 00 00 00 00 00 00 
    29)     3030.6  Rx       70F  8  80 6E FE 5E 3E CA DE 08 
    30)     3131.5  Rx         2  8  80 48 00 00 00 00 00 00 
    31)     3232.6  Rx       177  8  00 00 00 00 2B 6B 2E BB 
    32)     3333.4  Rx       236  8  8E 4D 3A A3 7F C0 F0 FA 
    33)     3434.1  Rx       666  8  17 E5 FA D6 42 4C 32 01 
    34)     3534.8  Rx       650  8  01 8D 67 E6 00 00 00 00 
    35)     3635.4  Rx       65B  8  8C 01 00 00 D3 0E 00 00 
    36)     3735.9  Rx       652  8  D7 EE A0 E0 FB 58 00 00 
    37)     3836.4  Rx        91  8  B1 20 85 01 00 00 00 00 
    38)     3937.0  Rx  10000210  0   
    39)     4037.8  Rx       641  8  00 50 48 76 15 C0 21 BC 
    40)     4138.3  Rx       236  8  B8 BB 42 BD 9C 99 DF F1 
    41)     4238.8  Rx       4CD  8  4A 21 61 93 EE 33 4B 1D 
    42)     4339.4  Rx       64B  8  DA 0D 00 00 37 0E 00 00 
    43)     4440.1  Rx       10A  8  99 69 CC F5 CD A4 2C 18 
    44)     4540.5  Rx       361  8  FB 9F B3 E4 B9 24 6D 00 
    45)     4641.4  Rx       644  8  02 B4 0F 6F 72 A9 F2 55 
    46)     4742.2  Rx        52  8  0E 6A 66 B0 EA 57 18 00 
    47)     4843.0  Rx         7  8  00 00 00 00 00 24 00 00 
    48)     4943.9  Rx       7D7  8  00 88 C5 03 F5 CF A6 FB 
    49)     5044.7  Rx  10000211  8  98 73 0D 86 E0 4E 00 0E 
    50)     5145.4  Rx       674  8  FB 00 00 00 00 00 00 00 
    51)     5246.0  Rx  10000210  0   
    52)     5346.6  Rx       651  8  35 44 54 22 16 00 00 00 
    53)     5447.3  Rx        A0  8  02 06 00 00 00 00 00 00 
    54)     5547.9  Rx        8E  8  F2 31 67 37 00 00 00 00 
    55)     5648.5  Rx       50F  8  3C 36 C1 56 CE 5B 41 82 
    56)     5850.2  Rx       65B  8  AB 0E 00 00 F2 03 00 00 
    57)     5951.0  Rx       64B  8  C4 07 00 00 B1 03 00 00 
    58)     6051.6  Rx       7D8  8  00 58 B6 CF E2 71 00 AC 
    59)     6252.8  Rx       503  8  88 7C 86 FF B9 2E 6E CC 
    60)     6454.3  Rx       233  8  1D C8 4A 4B 8A 1B 5E 69 
    61)     6555.2  Rx       12C  8  D0 E5 6A 86 32 63 20 09 
    62)     6655.9  Rx       187  8  A9 FD E4 2E BB B7 64 00 
    63)     6756.7  Rx       341  8  49 70 27 58 3E 65 19 00 
    64)     6857.4  Rx  10000207  8  DC 2E 79 69 36 89 EF 2D 
    65)     6958.2  Rx       680  8  02 00 00 00 00 00 00 00 
    66)     7159.1  Rx       50F  8  51 C3 47 63 3B F3 A7 73 
    67)     7259.9  Rx       10B  8  02 02 03 00 00 00 00 00 
    68)     7360.7  Rx        91  8  6E 86 26 BD 00 00 00 00 
    69)     7461.4  Rx       641  8  00 D0 76 E1 1C 13 46 48 
    70)     7662.4  Rx       509  8  9D 39 72 2E 01 00 00 00 
    71)     7763.0  Rx       506  8  88 8D 34 28 55 77 E8 90 
    72)     7863.5  Rx       10C  8  1B 1C BA 41 05 00 00 00 
    73)     7964.1  Rx        51  8  54 32 00 00 E1 B5 00 00 
    74)     8065.0  Rx       650  8  01 65 3D 73 00 00 00 00 
    75)     8165.7  Rx       187  8  D6 F6 E5 7E B9 97 EE 00 
    76)     8266.5  Rx       157  8  A4 7F 39 27 48 15 FE FA 
    77)     8467.9  Rx       179  8  1C A6 0C 10 4D 83 14 14 
    78)     8568.9  Rx       509  8  27 30 C6 12 01 00 00 00 
    79)     8669.7  Rx       668  8  46 D8 C6 F0 00 00 00 00 
    80)     8770.3  Rx       505  8  5E A9 65 06 A1 DA BD 85 
    81)     8870.8  Rx       230  8  37 67 E5 D3 DA BB 41 EF 
    82)     8971.2  Rx       450  8  DB 00 00 00 00 00 00 00 
    83)     9071.9  Rx       12B  8  97 0A 91 18 7A 00 00 00 
    84)     9172.5  Rx  10000210  0   
    85)     9273.4  Rx       10A  8  50 F5 E9 F9 9D 99 22 08 
    86)     9374.4  Rx       680  8  02 00 00 00 00 00 00 00 
    87)     9475.0  Rx       12E  8  3D AE FD 53 92 1D C7 42 
    88)     9575.5  Rx       4CE  8  05 26 00 00 00 00 00 00 
    89)     9676.0  Rx  10000204  8  70 62 1C 25 58 02 94 43 
    90)     9776.9  Rx       7D9  8  00 B4 5E D7 B1 3C E2 43 
    91)     9877.2  Rx       7DA  8  00 48 35 E3 5C 2A 98 A3 
    92)     9977.8  Rx         1  8  00 00 00 00 F3 00 00 00 
    93)    10078.7  Rx       507  8  0E 89 25 A7 07 25 E6 AE 
    94)    10179.5  Rx  10000212  8  00 00 00 00 00 00 00 00 
    95)    10280.1  Rx  10000210  0   
    96)    10380.7  Rx  10000211  8  8A 53 76 28 30 A0 FB CE 
    97)    10481.5  Rx       19F  8  5B 5F 67 2A 90 06 82 A8 
    98)    10582.0  Rx       631  8  F1 9A 1E F5 14 28 A7 14 
    99)    10682.6  Rx         1  8  00 00 00 00 6B 00 00 00 
   100)    10783.2  Rx       12C  8  52 69 BE 5A 51 00 24 27 
   101)    10985.0  Rx       650  8  16 E0 68 C9 00 00 00 00 
   102)    11085.7  Rx       666  8  97 4B 60 83 F1 8B EF 3C 
   103)    11186.4  Rx       187  8  10 C5 5A 87 E4 C3 64 00 
   104)    11287.0  Rx         7  8  00 00 00 00 80 78 00 00 
   105)    11387.7  Rx       341  8  24 45 B2 38 2A C7 23 00 
   106)    11488.6  Rx       641  8  00 E0 C8 BB 2B 76 F0 29 
   107)    11589.3  Rx        A0  8  02 04 00 00 00 00 00 00 
   108)    11690.1  Rx       4CD  8  4E 5F A6 3D 5B 9E BC 00 
   109)    11790.9  Rx         0  8  B9 00 00 00 00 00 00 00 
   110)    11891.7  Rx       650  8  0E 2A 29 85 00 00 00 00 
   111)    11992.4  Rx       130  8  31 C3 A7 73 9B FF EE 00 
   112)    12092.9  Rx       675  8  00 20 A9 3B 60 60 0B F6 
   113)    12193.4  Rx       502  8  F8 76 A1 0F 25 A6 FA 69 
   114)    12293.8  Rx       70F  8  00 24 DA 34 C5 F6 26 5D 
   115)    12394.4  Rx       7CC  8  DA 00 00 00 00 00 00 00 
   116)    12496.4  Rx  10000209  4  80 D1 F0 08 
   117)    12597.2  Rx  10000201  8  93 27 8C D7 B8 00 94 00 
   118)    12697.9  Rx       233  8  63 77 DD 3D 7F 72 E5 81 
   119)    12798.7  Rx       62B  8  B8 0E 00 00 96 0D 00 00 
   120)    12899.4  Rx         7  8  00 00 00 00 80 4E 00 00 
   121)    12999.8  Rx  10000208  8  00 00 00 00 00 00 00 00 
   122)    13100.5  Rx  10000201  8  C2 75 BC 65 03 00 3F 00 
   123)    13201.1  Rx       503  8  94 D5 DE 7C 89 76 5D 07 
   124)    13301.7  Rx       154  8  BA 24 02 1A 35 94 00 00 
   125)    13402.4  Rx       600  8  DD DC 12 01 86 29 BB F6 
   126)    13503.4  Rx       170  8  78 C8 E7 4D 60 AD 7E 37 
   127)    13604.3  Rx       234  8  1B 0A 10 13 00 00 00 00 
   128)    13705.0  Rx       12E  8  EE FB C1 BB 15 36 57 CA 
   129)    13805.9  Rx         7  8  00 00 00 00 80 35 00 00 
   130)    13906.5  Rx       153  8  69 00 00 00 00 00 00 00 
   131)    14007.2  Rx       10B  8  0B 08 13 00 00 00 00 00 
   132)    14107.8  Rx       50F  8  DD E3 19 13 66 49 C8 56 
   133)    14208.3  Rx       12E  8  06 AF AE CC 17 66 6C CD 
   134)    14308.7  Rx       600  8  9F 9D C9 DD CC 4C 34 7D 
   135)    14409.6  Rx        50  8  26 02 00 00 00 00 00 00 
   136)    14611.1  Rx       361  8  C0 C0 62 8D 56 0B 8B 01 
   137)    14711.9  Rx       50A  8  3A 4D C0 3B 9C 02 00 00 
   138)    14812.8  Rx       666  8  C4 57 E4 C9 50 51 C1 97 
   139)    14913.4  Rx       235  8  E4 02 00 00 00 00 00 00 
   140)    15014.0  Rx       361  8  B2 80 99 77 22 5F 9C 00 
   141)    15114.6  Rx       666  8  61 08 DE 56 4C 17 A8 B0 
   142)    15315.4  Rx       12D  8  AD AF 0E 44 10 DB 16 F2 
   143)    15416.4  Rx       234  8  12 0F 1C 04 00 00 00 00 
   144)    15517.2  Rx  10000210  0   
   145)    15617.7  Rx       4CD  8  7F A1 DE FA A1 28 9D C3 
   146)    15819.5  Rx       500  8  56 1D 16 D5 F3 FC 8E 94 
   147)    15920.1  Rx  10000210  0   
   148)    16021.1  Rx       505  8  9C 9F DC 82 AA 49 55 AD 
   149)    16121.7  Rx  10000211  8  2F 4A 47 B0 B1 C3 94 07 
   150)    16222.5  Rx       500  8  17 00 2B 35 32 72 47 66 
   151)    16323.2  Rx       7D9  8  00 5A 72 59 4A 44 9D 22 
   152)    16424.2  Rx       650  8  10 B9 0E D9 00 00 00 00 
   153)    16524.9  Rx       178  8  7C 11 1F 8F 2E 68 C9 F7 
   154)    16625.9  Rx       230  8  98 1D A1 86 EF 6D 80 DC 
   155)    16726.8  Rx        8F  8  01 00 00 00 00 00 00 00 
   156)    16827.8  Rx       7DB  8  00 00 C0 2B 61 B0 36 F8 
   157)    16928.6  Rx         4  8  15 00 00 00 00 00 00 00 
   158)    17029.6  Rx        51  8  7B 2B 00 00 B7 2F 00 00 
   159)    17130.3  Rx         5  8  00 00 00 00 EC 00 00 00 
   160)    17231.2  Rx       7C2  8  00 70 0C 29 4E 2C 47 F4 
   161)    17332.0  Rx       642  8  89 18 87 2C C9 58 C1 20 
   162)    17433.0  Rx  10000210  0   
   163)    17534.0  Rx       505  8  B6 BA C9 D7 3D 43 8E 26 
   164)    17634.8  Rx       12F  8  12 86 88 29 CC BB DE E0 
   165)    17735.5  Rx       7B4  8  B8 00 00 00 00 00 00 00 
   166)    17836.5  Rx       178  8  40 7F 55 F1 CD 17 95 F7 
   167)    17937.2  Rx       12E  8  2A 65 04 6F F5 04 4F 70 
   168)    18038.0  Rx       642  8  A9 AD DD 15 1B B9 49 D8 
   169)    18138.6  Rx       7D8  8  00 D4 F6 A4 CA 0C 91 6F 
   170)    18239.7  Rx       645  8  CF 0F 4F FE 48 2A 00 00 
   171)    18340.3  Rx       500  8  93 3A F4 E8 CC BB 78 AD 
   172)    18541.6  Rx        8E  8  C2 27 77 D2 00 00 00 00 
   173)    18742.5  Rx       50A  8  E8 BF 5B 5D 49 00 00 00 
   174)    18843.4  Rx       62B  8  72 08 00 00 88 09 00 00 
   175)    18944.1  Rx       7C2  8  00 60 25 EC F4 30 2F A0 
   176)    19045.0  Rx       642  8  5B 4C 88 C7 72 D2 78 46 
   177)    19145.7  Rx         2  8  00 7D 00 00 00 00 00 00 
   178)    19246.4  Rx       361  8  94 57 3C 70 14 3D 51 01 
   179)    19347.4  Rx       7D8  8  00 38 87 09 D8 1D AF 6B 
   180)    19548.4  Rx        81  8  61 05 67 00 00 00 00 00 
   181)    19649.5  Rx       10C  8  F9 3B E5 19 05 00 00 00 
   182)    19750.1  Rx        91  8  52 4B E9 E2 00 00 00 00 
   183)    19851.3  Rx       50A  8  74 87 F8 DB 4E 01 00 00 
   184)    19952.3  Rx       50E  8  3E 8F FF 2D 00 00 00 00 
   185)    20053.0  Rx       12F  8  8C 4D 68 D1 E3 9A 93 AF 
   186)    20153.9  Rx         6  8  00 4C 00 00 00 00 00 00 
   187)    20254.8  Rx       50A  8  6B 2B 12 C6 D3 06 00 00 
   188)    20355.7  Rx       233  8  75 E8 36 59 1E C9 45 E9 
   189)    20456.3  Rx        91  8  D9 1A F0 F6 00 00 00 00 
   190)    20556.9  Rx       175  8  5B B8 8E AF 2A 20 00 00 
   191)    20657.6  Rx       235  8  EF 01 00 00 00 00 00 00 
   192)    20758.2  Rx       7D9  8  00 24 E7 A3 F6 D3 B8 45 
   193)    20859.2  Rx       12F  8  10 3B C3 91 DD B1 09 D2 
   194)    20959.9  Rx       7B4  8  66 00 00 00 00 00 00 00 
   195)    21060.7  Rx       12B  8  68 01 4C 07 77 01 00 00 
   196)    21161.4  Rx       179  8  E9 31 AA 05 52 76 12 4B 
   197)    21262.3  Rx        8E  8  39 9C 67 73 00 00 00 00 
   198)    21362.9  Rx       509  8  28 78 2C 00 02 00 00 00 
   199)    21463.8  Rx       188  8  BB 25 60 B0 59 68 85 9A 
   200)    21564.8  Rx        51  8  92 5C 00 00 70 B6 00 00 
   201)    21665.4  Rx       4CE  8  00 24 00 00 00 00 00 00 
   202)    21765.9  Rx       12E  8  66 4A AC B9 11 87 A5 DB 
   203)    21866.8  Rx         1  8  00 00 00 00 E6 00 00 00 
   204)    21967.4  Rx       65B  8  53 00 00 00 70 0F 00 00 
   205)    22068.1  Rx       10B  8  06 14 14 00 00 00 00 00 
   206)    22168.7  Rx       187  8  10 44 30 8D B6 38 1E 00 
   207)    22269.3  Rx       70F  8  00 18 DD 9A C9 6A FE B6 
   208)    22370.4  Rx        52  8  0F E5 09 C4 74 07 12 00 
   209)    22471.4  Rx        A0  8  03 05 00 00 00 00 00 00 
   210)    22574.3  Rx       645  8  B4 30 BE 65 57 29 00 00 
   211)    22675.1  Rx       361  8  F1 0C 2E D2 03 62 C7 00 
   212)    22775.8  Rx         0  8  06 00 00 00 00 00 00 00 
   213)    22876.4  Rx        91  8  F9 A6 FC AC 00 00 00 00 
   214)    22976.9  Rx       10B  8  0C 1A 08 00 00 00 00 00 
   215)    23077.5  Rx       12E  8  F4 40 5B F8 CF 88 39 3E 
   216)    23178.4  Rx  10000201  8  B3 02 E1 9C A5 00 AC 00 
   217)    23279.4  Rx       508  8  B8 9D AA 12 1D 9F 0F 0F 
   218)    23380.2  Rx         5  8  00 00 00 00 99 00 00 00 
   219)    23481.1  Rx       7DB  8  00 12 0B 36 D7 4B 2F 18 
   220)    23581.7  Rx       7DB  8  00 30 4F 47 3C AA BB 20 
   221)    23682.2  Rx       130  8  3E DE 60 80 25 1A BC 00 
   222)    23883.3  Rx  10000212  8  00 00 00 00 00 00 00 00 
   223)    23984.1  Rx       652  8  59 45 89 61 6C C4 00 00 
   224)    24084.7  Rx       668  8  51 2F 13 60 00 00 00 00 
   225)    24185.4  Rx       178  8  F7 0B F3 31 9C 79 E3 F7 
   226)    24286.4  Rx       188  8  FB 47 37 A2 92 9D BD 2D 
   227)    24386.9  Rx       7C5  8  00 38 DB 66 09 66 C1 98 
   228)    24487.5  Rx         0  8  65 00 00 00 00 00 00 00 
   229)    24588.1  Rx  10000212  8  00 00 00 00 00 00 00 00 
   230)    24688.9  Rx        A0  8  01 04 00 00 00 00 00 00 
   231)    24789.8  Rx       176  8  CD E8 64 00 AE 93 A0 B1 
   232)    24890.5  Rx  10000212  8  00 00 00 00 00 00 00 00 
   233)    24991.5  Rx  10000207  8  36 44 A0 72 0E A6 9D CC 
   234)    25091.9  Rx       175  8  C0 5D A1 02 84 A1 00 00 
   235)    25192.4  Rx       674  8  1B 00 00 00 00 00 00 00 
   236)    25293.1  Rx       234  8  0A 0A 08 08 00 00 00 00 
   237)    25394.0  Rx       187  8  E6 AA 85 B0 B1 1B 8B 00 
   238)    25494.9  Rx  10000201  8  67 F9 65 55 A1 00 A7 00 
   239)    25595.6  Rx  10000203  8  2C 1A F4 1A 24 09 C0 12 
   240)    25696.2  Rx       170  8  CB 71 87 0E 9B 3E E8 13 
   241)    25796.7  Rx       644  8  2A 63 EE 15 A6 A6 47 74 
   242)    25897.7  Rx       236  8  7A 2A 2D 9C A9 B0 7C 56 
   243)    25998.3  Rx       19F  8  4F D2 DE 9E D6 10 97 9C 
   244)    26099.0  Rx  10000204  8  C0 12 00 32 04 5B 90 4C 
   245)    26199.8  Rx       170  8  15 84 16 70 6A 60 80 47 
   246)    26300.6  Rx       508  8  93 96 87 10 D8 AB DF 20 
   247)    26401.4  Rx       70F  8  00 16 8D B1 49 76 FA 27 
   248)    26502.0  Rx       179  8  83 17 1A C1 5D 18 B0 AD 
   249)    26602.9  Rx       170  8  A9 CF 29 40 58 EA 12 5C 
   250)    26703.8  Rx         1  8  00 00 00 00 07 00 00 00 
   251)    26905.6  Rx       50A  8  8A A1 87 05 6E 04 00 00 
   252)    27006.5  Rx         6  8  00 2C 00 00 00 00 00 00 
   253)    27107.1  Rx       157  8  39 39 9A CE 87 C6 6A 7A 
   254)    27207.9  Rx       450  8  C8 00 00 00 00 00 00 00 
   255)    27309.1  Rx       645  8  B8 61 DE 2B 46 25 00 00 
   256)    27409.8  Rx       645  8  67 0D 54 DF C0 36 00 00 
   257)    27511.0  Rx       235  8  EC 01 00 00 00 00 00 00 
   258)    27612.3  Rx       680  8  01 00 00 00 00 00 00 00 
   259)    27712.6  Rx       508  8  9E 16 85 04 A6 59 E1 B4 
   260)    27813.1  Rx       310  8  51 02 87 BC 00 00 00 00 
   261)    27913.9  Rx       502  8  99 58 42 91 BC FB EC 78 
   262)    28014.6  Rx       177  8  00 00 00 00 65 F4 6D 9A 
   263)    28115.4  Rx       7CC  8  8E 00 00 00 00 00 00 00 
   264)    28216.1  Rx       371  8  97 FF 01 00 00 00 00 00 
   265)    28417.3  Rx       188  8  44 87 DB 76 F1 73 2E 4F 
   266)    28517.9  Rx       10C  8  D9 31 AD AF 01 00 00 00 
   267)    28618.9  Rx       10B  8  08 1B 05 00 00 00 00 00 
   268)    28719.6  Rx       7D8  8  00 8E 1A 17 AA 2E D5 26 
   269)    28820.5  Rx       64B  8  A6 06 00 00 DB 08 00 00 
   270)    28921.4  Rx         3  8  00 00 00 00 80 02 00 00 
   271)    29022.2  Rx       230  8  4A 08 30 48 C6 5D D5 B5 
   272)    29122.7  Rx         7  8  00 00 00 00 00 3E 00 00 
   273)    29223.8  Rx       70F  8  00 EA 60 24 77 2A 7A 0D 
   274)    29324.4  Rx        81  8  34 32 40 00 00 00 00 00 
   275)    29425.2  Rx       236  8  F4 7A E4 02 31 7A A4 D6 
   276)    29525.7  Rx       641  8  00 44 58 19 4E EC C1 59 
   277)    29626.3  Rx       652  8  78 90 10 12 10 A2 00 00 
   278)    29727.2  Rx       7D7  8  00 70 05 A6 23 A2 0C DF 
   279)    29828.0  Rx       645  8  48 90 F1 AF 2C 95 00 00 
   280)    29928.8  Rx       310  8  47 01 3C B0 00 00 00 00 
   281)    30129.8  Rx       12D  8  AD F8 F9 9D 81 5F 81 5B 
   282)    30230.4  Rx       680  8  02 00 00 00 00 00 00 00 
   283)    30330.7  Rx       1A7  8  58 B6 8E 32 06 00 20 F5 
   284)    30431.8  Rx  10000201  8  B4 FC 47 EF 96 00 9D 00 
   285)    30532.5  Rx       178  8  F3 4F 11 98 65 35 8D EE 
   286)    30633.5  Rx       7D7  8  00 90 CE C0 B2 4A 82 E6 
   287)    30734.5  Rx  10000201  8  88 C3 69 9F E3 00 F1 00 
   288)    30835.3  Rx  10000209  4  40 C0 65 03 
   289)    30935.9  Rx       173  8  00 A8 84 DF 00 00 00 00 
   290)    31036.4  Rx       12B  8  BF 17 08 17 54 03 00 00 
   291)    31137.0  Rx         1  8  00 00 00 00 C1 00 00 00 
   292)    31338.1  Rx       507  8  71 ED 43 C0 CF EA 53 B7 
   293)    31539.3  Rx       4CE  8  01 1D 00 00 00 00 00 00 
   294)    31640.0  Rx       7DB  8  00 41 18 58 71 47 1E 16 
   295)    31740.4  Rx  10000212  8  00 00 00 00 00 00 00 00 
   296)    31840.8  Rx       12E  8  27 1F CF 91 21 11 A6 F2 
   297)    31941.7  Rx       7B4  8  D9 00 00 00 00 00 00 00 
   298)    32042.2  Rx       7D6  8  8B 00 00 00 00 00 00 00 
   299)    32142.7  Rx       10C  8  05 37 F4 24 0B 00 00 00 
   300)    32243.6  Rx       12F  8  93 C3 25 98 09 76 57 28 
   301)    32344.4  Rx       175  8  74 92 F1 36 92 3D 00 00 
   302)    32444.9  Rx       4CE  8  05 33 00 00 00 00 00 00 
   303)    32545.7  Rx       7DB  8  00 84 13 86 FB 03 F2 64 
   304)    32647.7  Rx       361  8  D8 C3 37 34 3F C6 9B 01 
   305)    32949.4  Rx       233  8  9F B9 DF 17 34 34 AC E6 
   306)    33049.9  Rx       235  8  7A 03 00 00 00 00 00 00 
   307)    33150.6  Rx  10000210  0   
   308)    33251.3  Rx       650  8  0D 48 13 3C 00 00 00 00 
   309)    33351.9  Rx        50  8  28 00 00 00 00 00 00 00 
   310)    33452.6  Rx       7D9  8  00 18 61 95 6C 0F 3B 9D 
   311)    33553.2  Rx  10000208  8  00 00 00 00 00 00 00 00 
   312)    33653.9  Rx       505  8  98 3E 21 6C 97 A6 F1 AC 
   313)    33854.9  Rx       641  8  00 30 41 5D 3F FC 94 F0 
   314)    33955.8  Rx  10000201  8  84 F4 8C 02 5F 00 23 00 
   315)    34056.4  Rx       4CD  8  45 E6 49 21 5E D4 0B C9 
   316)    34157.1  Rx       233  8  E5 5C 7D 2D 13 53 1C D2 
   317)    34257.7  Rx       371  8  96 4A 00 00 00 00 00 00 
   318)    34358.5  Rx       502  8  0A 74 E9 FA F5 43 36 F4 
   319)    34459.4  Rx       240  8  40 EE 71 00 00 00 00 00 
   320)    34559.9  Rx       652  8  55 53 99 63 F6 6A 00 00 
   321)    34660.6  Rx       509  8  9B 7E 51 DA 03 00 00 00 
   322)    34761.4  Rx       666  8  C7 2D E4 88 91 1A F8 B7 
   323)    34862.4  Rx       178  8  77 26 CB D8 94 BA 15 2B 
   324)    34963.2  Rx       7D6  8  5A 00 00 00 00 00 00 00 
   325)    35063.9  Rx       652  8  D5 2C CC 58 AA 64 00 00 
   326)    35164.5  Rx       7DB  8  00 E0 C8 19 A4 38 37 4B 
   327)    35265.3  Rx       233  8  D6 86 3B 16 B5 5E D9 44 
   328)    35366.1  Rx       680  8  01 00 00 00 00 00 00 00 
   329)    35466.8  Rx       130  8  D9 4D F5 7F 66 87 B1 00 
   330)    35567.4  Rx       507  8  DB 95 F7 F5 5F 6B FC F0 
   331)    35668.1  Rx  10000210  0   
   332)    35769.1  Rx       70F  8  00 D8 68 60 29 0C 54 A4 
   333)    35869.6  Rx  10000208  8  00 00 00 00 00 00 00 00 
   334)    35970.5  Rx       509  8  1E 9A B3 B7 02 00 00 00 
   335)    36071.5  Rx        80  8  20 44 12 00 84 0B 02 0B 
   336)    36272.8  Rx       50A  8  90 EB AD B6 E9 03 00 00 
   337)    36373.7  Rx       450  8  72 00 00 00 00 00 00 00 
   338)    36474.4  Rx       64B  8  8D 01 00 00 A4 04 00 00 
   339)    36576.0  Rx  10000212  8  00 00 00 00 00 00 00 00 
   340)    36676.9  Rx       7DA  8  00 88 CC CC 6F C4 AE 91 
   341)    36777.3  Rx       65B  8  5F 0C 00 00 B8 00 00 00 
   342)    36878.3  Rx       651  8  24 D0 68 61 5B 00 00 00 
   343)    37079.4  Rx       631  8  55 BA B3 23 20 28 15 88 
   344)    37180.0  Rx       502  8  A4 EE 82 F5 4E 3A 37 9F 
   345)    37280.8  Rx       641  8  30 60 CD 33 73 38 40 00 
   346)    37381.4  Rx       666  8  E7 67 31 7A E1 3F C1 9B 
   347)    37482.0  Rx         6  8  80 2D 00 00 00 00 00 00 
   348)    37582.8  Rx       12C  8  60 00 93 99 F3 DA 09 22 
   349)    37884.8  Rx        52  8  5A E1 88 15 91 99 00 00 
   350)    37985.3  Rx       371  8  9B D3 00 00 00 00 00 00 
   351)    38085.9  Rx       7C5  8  00 78 31 68 48 90 52 F2 
   352)    38186.6  Rx  10000211  8  17 DB 4A E4 4E F4 17 30 
   353)    38287.2  Rx       501  8  4F 26 5E E1 51 52 2D 00 
   354)    38388.1  Rx         0  8  89 00 00 00 00 00 00 00 
   355)    38488.6  Rx       12E  8  C9 97 9F 82 75 FB 93 0F 
   356)    38589.4  Rx       7D9  8  00 E0 1F D6 FC 6D 9C 20 
   357)    38690.4  Rx         0  8  96 00 00 00 00 00 00 00 
   358)    38790.9  Rx  10000208  8  00 00 00 00 00 00 00 00 
   359)    38891.7  Rx       680  8  00 00 00 00 00 00 00 00 
   360)    38992.2  Rx       173  8  00 6A E1 1B 00 00 00 00 
   361)    39092.8  Rx         0  8  C4 00 00 00 00 00 00 00 
   362)    39294.2  Rx        91  8  D2 D4 5E BF 00 00 00 00 
   363)    39394.5  Rx        50  8  7E 01 00 00 00 00 00 00 
   364)    39495.2  Rx       7B4  8  03 00 00 00 00 00 00 00 
   365)    39595.7  Rx       10B  8  04 14 0C 00 00 00 00 00 
   366)    39696.1  Rx       642  8  08 49 F9 36 6A 86 92 65 
   367)    39796.6  Rx       50F  8  2C 4B 73 9D 34 8C 15 5C 
   368)    39997.5  Rx         1  8  00 00 00 00 4F 00 00 00 
   369)    40098.3  Rx       176  8  7F 5D 07 00 DA D3 05 61 
   370)    40199.3  Rx       501  8  F6 28 64 39 28 2F EE 0E 
   371)    40300.2  Rx        51  8  03 18 00 00 83 0C 00 00 
   372)    40401.1  Rx       178  8  D8 F6 9B 8C 81 B9 64 C2 
   373)    40501.8  Rx       600  8  AF A6 D8 B1 43 E2 93 A9 
   374)    40602.6  Rx        50  8  E8 03 00 00 00 00 00 00 
   375)    40703.2  Rx       7DB  8  00 A9 FF 41 4D 46 0B 17 
   376)    40803.7  Rx       10B  8  07 11 17 00 00 00 00 00 
   377)    40904.6  Rx       505  8  A4 78 48 84 50 6F 3E 0E 
   378)    41004.9  Rx        A0  8  03 01 00 00 00 00 00 00 
   379)    41105.4  Rx       680  8  03 00 00 00 00 00 00 00 
   380)    41205.9  Rx       7C2  8  00 6C 17 2D E4 2F 5E 26 
   381)    41407.3  Rx       310  8  77 01 E0 4D 00 00 00 00 
   382)    41508.0  Rx       505  8  3C 13 C2 59 51 87 95 42 
   383)    41608.9  Rx  10000207  8  CA 8C 0B 22 86 5E 32 1D 
   384)    41709.8  Rx        81  8  45 26 75 00 00 00 00 00 
   385)    41810.5  Rx       7CC  8  42 00 00 00 00 00 00 00 
   386)    41911.2  Rx       680  8  03 00 00 00 00 00 00 00 
   387)    42012.0  Rx       631  8  80 0A 0A 85 68 40 55 3D 
   388)    42112.8  Rx       501  8  77 87 CF A7 DF 38 BA 40 
   389)    42213.5  Rx        8E  8  FE 13 03 2F 00 00 00 00 
   390)    42314.3  Rx       7DA  8  00 70 2F C5 35 9B 55 5F 
   391)    42415.2  Rx       675  8  00 02 09 C4 D5 3E 91 23 
   392)    42515.7  Rx       506  8  51 E5 A4 D0 80 7B C8 69 
   393)    42616.4  Rx       502  8  C0 84 CF EF 68 F7 18 6D 
   394)    42720.5  Rx       10C  8  25 38 9E 50 0B 00 00 00 
   395)    42821.2  Rx       178  8  AA D6 AF 84 D3 B1 97 1E 
   396)    42922.0  Rx       154  8  68 A6 2E 14 12 50 00 00 
   397)    43022.8  Rx       7C2  8  00 00 DA 42 9D 0C F6 8A 
   398)    43123.4  Rx       240  8  95 33 D0 00 00 00 00 00 
   399)    43324.3  Rx         4  8  65 00 00 00 00 00 00 00 
   400)    43424.9  Rx       7DB  8  40 C4 9F 7F C4 0D 83 05 
   401)    43525.7  Rx       70F  8  00 10 14 7F 95 39 06 83 
   402)    43626.1  Rx         2  8  00 2C 00 00 00 00 00 00 
   403)    43726.6  Rx       505  8  12 FB C1 9A 55 02 57 E1 
   404)    43827.4  Rx       65B  8  79 09 00 00 E0 0C 00 00 
   405)    44028.3  Rx       7CC  8  D7 00 00 00 00 00 00 00 
   406)    44129.2  Rx       233  8  4D 95 4F 00 2B EE D3 CE 
   407)    44229.9  Rx       154  8  34 7A 09 06 1F AC 00 00 
   408)    44330.4  Rx       153  8  1D 00 00 00 00 00 00 00 
   409)    44531.5  Rx        80  8  87 38 10 00 9E 0A 09 1C 
   410)    44632.3  Rx       502  8  4B 03 60 1E 8F F2 56 61 
   411)    44733.0  Rx       508  8  9B 8B 1C 04 88 8E 00 5F 
   412)    44833.7  Rx       506  8  3B EE 01 69 FB 79 65 62 
   413)    44934.5  Rx       7D8  8  00 06 BB F5 C0 1A 85 3C 
   414)    45035.3  Rx         0  8  AE 00 00 00 00 00 00 00 
   415)    45136.0  Rx       502  8  94 D2 92 75 D4 81 21 68 
   416)    45237.1  Rx        51  8  20 91 00 00 B1 A9 00 00 
   417)    45337.6  Rx       7D8  8  00 58 1C 2B 36 A3 49 F6 
   418)    45438.5  Rx       157  8  67 78 06 77 FC E5 1F 26 
   419)    45538.9  Rx       500  8  6A 9A 67 BB 7C CE 34 91 
   420)    45639.7  Rx       170  8  08 4E A5 DD 01 F7 32 E9 
   421)    45740.5  Rx       157  8  A0 A1 20 29 A8 9A DF B2 
   422)    45841.3  Rx       645  8  8E 3A 4C 3E C0 DC 00 00 
   423)    45941.7  Rx  10000208  8  00 00 00 00 00 00 00 00 
   424)    46042.7  Rx       50E  8  64 0A 2D 5E 00 00 00 00 
   425)    46143.7  Rx       666  8  3E 84 BD 3F 90 EF F8 22 
   426)    46344.9  Rx         1  8  00 00 00 00 81 00 00 00 
   427)    46445.5  Rx       170  8  66 00 21 B7 8E A8 CB 0C 
   428)    46546.1  Rx         5  8  00 00 00 00 63 00 00 00 
