;$FILEVERSION=1.1
;$STARTTIME=46004.6529706585
;
;   Start time: 13-12-2025 15:40:16.664
;   Generated by AtomX
;
;   Message Number
;   |         Time Offset (ms)
;   |         |        Type
;   |         |        |        ID (hex)
;   |         |        |        |     Data Length
;   |         |        |        |     |   Data Bytes (hex) ...
;   |         |        |        |     |   |
;---+--   ----+----  --+--  ----+---  +  -+ -- -- -- -- -- -- --
     1)        0.0  Rx       12D  8  30 75 00 00 E0 2E 01 00 
     2)       14.2  Rx       10C  8  00 00 80 00 00 00 00 00 
     3)       17.1  Rx       12A  8  11 00 00 88 13 02 02 00 
     4)       32.8  Rx       12C  8  8C 0A 88 90 00 00 00 00 
     5)       88.1  Rx       10B  8  05 0F 01 00 00 00 00 00 
     6)      101.0  Rx       12D  8  30 75 00 00 E0 2E 01 00 
     7)      115.0  Rx       10C  8  00 00 80 00 00 00 00 00 
     8)      118.1  Rx       12A  8  11 00 00 88 13 02 02 00 
     9)      133.2  Rx       12C  8  8C 0A 88 90 00 00 00 00 
    10)      188.4  Rx       10B  8  05 0F 01 00 00 00 00 00 
    11)      201.8  Rx       12D  8  30 75 00 00 E0 2E 01 00 
    12)      216.5  Rx       10C  8  00 00 80 00 00 00 00 00 
    13)      218.4  Rx       12A  8  11 00 00 88 13 02 02 00 
    14)      233.5  Rx       12C  8  8C 0A 88 90 00 00 00 00 
    15)      288.3  Rx       10B  8  05 0F 01 00 00 00 00 00 
    16)      302.2  Rx       12D  8  30 75 00 00 E0 2E 01 00 
    17)      317.4  Rx       10C  8  00 00 80 00 00 00 00 00 
    18)      319.1  Rx       12A  8  11 00 00 88 13 02 02 00 
    19)      341.4  Rx       12C  8  8C 0A 88 90 00 00 00 00 
    20)      389.6  Rx       10B  8  05 0F 01 00 00 00 00 00 
    21)      402.9  Rx       12D  8  30 75 00 00 E0 2E 01 00 
    22)      417.1  Rx       10C  8  00 00 80 00 00 00 00 00 
    23)      420.9  Rx       12A  8  11 00 00 88 13 02 02 00 
    24)      441.5  Rx       12C  8  8C 0A 88 90 00 00 00 00 
    25)      489.5  Rx       10B  8  05 0F 01 00 00 00 00 00 
    26)      504.3  Rx       12D  8  30 75 00 00 E0 2E 01 00 
    27)      517.4  Rx       10C  8  00 00 80 00 00 00 00 00 
    28)      521.3  Rx       12A  8  11 00 00 88 13 02 02 00 
    29)      542.6  Rx       12C  8  8C 0A 88 90 00 00 00 00 
    30)      555.5  Rx       10B  8  05 0F 01 00 00 00 00 00 
    31)      556.1  Rx       10B  8  05 0F 01 00 00 00 00 00 
    32)      558.7  Rx       10C  8  00 00 80 00 00 00 00 00 
    33)      558.9  Rx       10C  8  00 00 80 00 00 00 00 00 
    34)      561.1  Rx       12A  8  11 00 00 88 13 02 02 00 
    35)      561.5  Rx       12A  8  11 00 00 88 13 02 02 00 
    36)      563.7  Rx   8192A3B  1  00 
    37)      563.8  Rx   8192A3B  1  00 
    38)      566.7  Rx       12C  8  8C 0A 88 90 00 00 00 00 
    39)      567.2  Rx       12C  8  8C 0A 88 90 00 00 00 00 
    40)      569.8  Rx       12D  8  30 75 00 00 E0 2E 01 00 
    41)      570.0  Rx       12D  8  30 75 00 00 E0 2E 01 00 
    42)      657.2  Rx       10B  8  05 0F 01 00 00 00 00 00 
    43)      661.5  Rx       10C  8  00 00 80 00 00 00 00 00 
    44)      662.9  Rx       12A  8  11 00 00 88 13 02 02 00 
    45)      668.6  Rx       12C  8  8C 0A 88 90 00 00 00 00 
    46)      671.0  Rx       12D  8  30 75 00 00 E0 2E 01 00 
    47)      757.6  Rx       10B  8  05 0F 01 00 00 00 00 00 
    48)      761.7  Rx       10C  8  00 00 80 00 00 00 00 00 
    49)      763.9  Rx       12A  8  11 00 00 88 13 02 02 00 
    50)      769.9  Rx       12C  8  8C 0A 88 90 00 00 00 00 
    51)      772.4  Rx       12D  8  30 75 00 00 E0 2E 01 00 
    52)      857.7  Rx       10B  8  05 0F 01 00 00 00 00 00 
    53)      861.8  Rx       10C  8  00 00 80 00 00 00 00 00 
    54)      864.1  Rx       12A  8  11 00 00 88 13 02 02 00 
    55)      871.8  Rx       12C  8  8C 0A 88 90 00 00 00 00 
    56)      872.6  Rx       12D  8  30 75 00 00 E0 2E 01 00 
    57)      958.9  Rx       10B  8  05 0F 01 00 00 00 00 00 
    58)      963.0  Rx       10C  8  00 00 80 00 00 00 00 00 
    59)      965.2  Rx       12A  8  11 00 00 88 13 02 02 00 
    60)      972.4  Rx       12C  8  8C 0A 88 90 00 00 00 00 
    61)      973.4  Rx       12D  8  30 75 00 00 E0 2E 01 00 
    62)     1060.7  Rx       10B  8  05 0F 01 00 00 00 00 00 
    63)     1063.2  Rx       10C  8  00 00 80 00 00 00 00 00 
    64)     1065.1  Rx       12A  8  11 00 00 88 13 02 02 00 
    65)     1072.3  Rx       12C  8  8C 0A 88 90 00 00 00 00 
    66)     1073.4  Rx       12D  8  30 75 00 00 E0 2E 01 00 
    67)     1160.5  Rx       10B  8  05 0F 01 00 00 00 00 00 
    68)     1164.5  Rx       10C  8  00 00 80 00 00 00 00 00 
    69)     1165.5  Rx       12A  8  11 00 00 88 13 02 02 00 
    70)     1173.2  Rx       12C  8  8C 0A 88 90 00 00 00 00 
    71)     1174.5  Rx       12D  8  30 75 00 00 E0 2E 01 00 
    72)     1261.2  Rx       10B  8  05 0F 01 00 00 00 00 00 
    73)     1264.9  Rx       10C  8  00 00 80 00 00 00 00 00 
    74)     1266.1  Rx       12A  8  11 00 00 88 13 02 02 00 
    75)     1274.0  Rx       12C  8  8C 0A 88 90 00 00 00 00 
    76)     1275.3  Rx       12D  8  30 75 00 00 E0 2E 01 00 
    77)     1361.6  Rx       10B  8  05 0F 01 00 00 00 00 00 
    78)     1365.8  Rx       10C  8  00 00 80 00 00 00 00 00 
    79)     1366.7  Rx       12A  8  11 00 00 88 13 02 02 00 
    80)     1375.2  Rx       12C  8  8C 0A 88 90 00 00 00 00 
    81)     1376.1  Rx       12D  8  30 75 00 00 E0 2E 01 00 
    82)     1447.6  Rx         1  4  00 00 00 04 
    83)     1461.7  Rx       10B  8  05 0F 01 00 00 00 00 00 
    84)     1466.4  Rx       10C  8  00 00 80 00 00 00 00 00 
    85)     1467.3  Rx       12A  8  11 00 00 88 13 02 02 00 
    86)     1475.5  Rx       12C  8  8C 0A 88 90 00 00 00 00 
    87)     1476.3  Rx       12D  8  30 75 00 00 E0 2E 01 00 
    88)     1563.3  Rx       10B  8  05 0F 01 00 00 00 00 00 
    89)     1566.0  Rx   8192A3B  1  00 
    90)     1567.0  Rx       10C  8  00 00 80 00 00 00 00 00 
    91)     1568.6  Rx       12A  8  11 00 00 88 13 02 02 00 
    92)     1576.3  Rx       12C  8  8C 0A 88 90 00 00 00 00 
    93)     1576.5  Rx       12D  8  30 75 00 00 E0 2E 01 00 
    94)     1664.4  Rx       10B  8  05 0F 01 00 00 00 00 00 
    95)     1667.2  Rx       10C  8  00 00 80 00 00 00 00 00 
    96)     1668.9  Rx       12A  8  11 00 00 88 13 02 02 00 
    97)     1676.4  Rx       12D  8  30 75 00 00 E0 2E 01 00 
    98)     1676.7  Rx       12C  8  8C 0A 88 90 00 00 00 00 
    99)     1764.9  Rx       10B  8  05 0F 01 00 00 00 00 00 
   100)     1769.7  Rx       10C  8  00 00 80 00 00 00 00 00 
   101)     1770.2  Rx       12A  8  11 00 00 88 13 02 02 00 
   102)     1777.2  Rx       12D  8  30 75 00 00 E0 2E 01 00 
   103)     1777.6  Rx       12C  8  8C 0A 88 90 00 00 00 00 
   104)     1865.0  Rx       10B  8  05 0F 01 00 00 00 00 00 
   105)     1869.8  Rx       12A  8  11 00 00 88 13 02 02 00 
   106)     1870.0  Rx       10C  8  00 00 80 00 00 00 00 00 
   107)     1877.2  Rx       12D  8  30 75 00 00 E0 2E 01 00 
   108)     1877.4  Rx       12C  8  8C 0A 88 90 00 00 00 00 
   109)     1965.9  Rx       10B  8  05 0F 01 00 00 00 00 00 
   110)     1969.8  Rx       10C  8  00 00 80 00 00 00 00 00 
   111)     1970.4  Rx       12A  8  11 00 00 88 13 02 02 00 
   112)     1977.4  Rx       12C  8  8C 0A 88 90 00 00 00 00 
   113)     1977.9  Rx       12D  8  30 75 00 00 E0 2E 01 00 
   114)     2066.9  Rx       10B  8  05 0F 01 00 00 00 00 00 
   115)     2071.4  Rx       12A  8  11 00 00 88 13 02 02 00 
   116)     2071.8  Rx       10C  8  00 00 80 00 00 00 00 00 
   117)     2077.5  Rx       12D  8  30 75 00 00 E0 2E 01 00 
   118)     2077.8  Rx       12C  8  8C 0A 88 90 00 00 00 00 
   119)     2167.8  Rx       10B  8  05 0F 01 00 00 00 00 00 
   120)     2173.0  Rx       10C  8  00 00 80 00 00 00 00 00 
   121)     2173.3  Rx       12A  8  11 00 00 88 13 02 02 00 
   122)     2177.7  Rx       12D  8  30 75 00 00 E0 2E 01 00 
   123)     2178.0  Rx       12C  8  8C 0A 88 90 00 00 00 00 
   124)     2229.8  Rx       310  8  01 00 02 00 00 00 00 00 
   125)     2239.9  Rx       50E  8  00 02 00 00 00 00 00 00 
   126)     2249.6  Rx       19F  8  00 00 00 00 CD 26 00 00 
   127)     2259.7  Rx       50F  8  23 27 0F 00 02 00 12 00 
   128)     2268.8  Rx       10B  8  05 0F 01 00 00 00 00 00 
   129)     2270.0  Rx       1A7  8  00 00 00 00 02 00 00 00 
   130)     2273.4  Rx       10C  8  00 00 80 00 00 00 00 00 
   131)     2274.4  Rx       12A  8  11 00 00 88 13 02 02 00 
   132)     2278.4  Rx       12D  8  30 75 00 00 E0 2E 01 00 
   133)     2278.7  Rx       12C  8  8C 0A 88 90 00 00 00 00 
   134)     2279.5  Rx       644  8  13 0A 00 00 03 00 00 00 
   135)     2289.7  Rx       645  8  05 00 00 00 00 00 00 00 
   136)     2329.6  Rx       310  8  01 00 02 00 00 00 00 00 
   137)     2339.8  Rx       50E  8  00 00 00 00 00 00 00 00 
   138)     2350.4  Rx       19F  8  00 00 00 00 3B 27 00 00 
   139)     2360.0  Rx       50F  8  3A 27 0A 00 02 00 30 00 
   140)     2369.7  Rx       1A7  8  00 00 00 00 02 00 00 00 
   141)     2370.1  Rx       10B  8  05 0F 01 00 00 00 00 00 
   142)     2374.5  Rx       10C  8  00 00 80 00 00 00 00 00 
   143)     2374.9  Rx       12A  8  11 00 00 88 13 02 02 00 
   144)     2379.3  Rx       12D  8  30 75 00 00 E0 2E 01 00 
   145)     2379.6  Rx       12C  8  8C 0A 88 90 00 00 00 00 
   146)     2429.8  Rx       310  8  01 00 02 00 00 00 00 00 
   147)     2440.5  Rx       50E  8  00 00 00 00 00 00 00 00 
   148)     2449.8  Rx       19F  8  00 00 00 00 35 27 00 00 
   149)     2459.7  Rx       50F  8  32 27 43 00 09 00 57 00 
   150)     2469.6  Rx       1A7  8  00 00 00 00 0A 00 60 09 
   151)     2471.2  Rx       10B  8  05 0F 01 00 00 00 00 00 
   152)     2475.3  Rx       10C  8  00 00 80 00 00 00 00 00 
   153)     2475.6  Rx       12A  8  11 00 00 88 13 02 02 00 
   154)     2479.3  Rx       12D  8  30 75 00 00 E0 2E 01 00 
   155)     2479.9  Rx       12C  8  8C 0A 88 90 00 00 00 00 
   156)     2529.6  Rx       310  8  01 00 02 00 00 00 00 00 
   157)     2539.6  Rx       50E  8  00 00 00 00 00 00 00 00 
   158)     2550.8  Rx       19F  8  00 00 00 00 E0 26 00 00 
   159)     2559.9  Rx       50F  8  D4 26 2D 03 08 00 8B 00 
   160)     2566.6  Rx   8192A3B  1  00 
   161)     2569.7  Rx       1A7  8  00 00 60 09 0A 00 60 09 
   162)     2572.0  Rx       10B  8  05 0F 01 00 00 00 00 00 
   163)     2576.2  Rx       12A  8  11 00 00 88 13 02 02 00 
   164)     2576.6  Rx       10C  8  00 00 80 00 00 00 00 00 
   165)     2579.7  Rx  10000201  8  03 02 02 00 00 00 02 00 
   166)     2580.0  Rx       12D  8  30 75 00 00 E0 2E 01 00 
   167)     2580.3  Rx       12C  8  8C 0A 88 90 00 00 00 00 
   168)     2589.8  Rx  10000202  8  00 00 00 00 00 00 00 00 
   169)     2599.9  Rx  10000203  8  00 00 00 00 EC 00 CD 0A 
   170)     2609.9  Rx  10000204  8  D5 0A C1 FF 0B 00 98 00 
   171)     2619.9  Rx  10000205  8  01 00 64 64 64 64 00 00 
   172)     2620.4  Rx  10000206  8  00 00 60 09 60 09 00 00 
   173)     2620.6  Rx  10000207  8  00 00 00 00 92 15 00 00 
   174)     2620.9  Rx  10000208  8  00 00 00 00 00 00 00 00 
   175)     2629.6  Rx       310  8  01 00 02 00 00 00 00 00 
   176)     2639.8  Rx       50E  8  00 00 00 00 00 00 00 00 
   177)     2649.8  Rx       19F  8  00 00 00 00 38 27 00 00 
   178)     2659.8  Rx       50F  8  2D 27 15 00 59 00 C4 00 
   179)     2669.9  Rx       1A7  8  00 00 60 09 0A 00 60 09 
   180)     2672.1  Rx       10B  8  05 0F 01 00 00 00 00 00 
   181)     2677.3  Rx       10C  8  00 00 80 00 00 00 00 00 
   182)     2677.6  Rx       12A  8  11 00 00 88 13 02 02 00 
   183)     2680.2  Rx       12D  8  30 75 00 00 E0 2E 01 00 
   184)     2680.7  Rx       12C  8  8C 0A 88 90 00 00 00 00 
   185)     2729.8  Rx       310  8  01 00 02 00 00 00 00 00 
   186)     2739.5  Rx       50E  8  00 00 00 00 00 00 00 00 
   187)     2749.7  Rx       19F  8  00 00 00 00 35 27 00 00 
   188)     2759.6  Rx       50F  8  34 27 33 00 C7 01 66 01 
   189)     2769.7  Rx       1A7  8  00 00 60 09 0A 00 60 09 
   190)     2772.5  Rx       10B  8  05 0F 01 00 00 00 00 00 
   191)     2777.7  Rx       12A  8  11 00 00 88 13 02 02 00 
   192)     2778.2  Rx       10C  8  00 00 80 00 00 00 00 00 
   193)     2780.4  Rx       12D  8  30 75 00 00 E0 2E 01 00 
   194)     2780.8  Rx       12C  8  8C 0A 88 90 00 00 00 00 
   195)     2829.7  Rx       310  8  01 00 02 00 00 00 00 00 
   196)     2840.1  Rx       50E  8  00 00 00 00 00 00 00 00 
   197)     2850.7  Rx       19F  8  00 00 00 00 31 27 00 00 
   198)     2859.6  Rx       50F  8  32 27 57 00 BA 02 BC 01 
   199)     2870.6  Rx       1A7  8  00 00 60 09 0A 00 60 09 
   200)     2872.9  Rx       10B  8  05 0F 01 00 00 00 00 00 
   201)     2878.4  Rx       12A  8  11 00 00 88 13 02 02 00 
   202)     2879.2  Rx       10C  8  00 00 80 00 00 00 00 00 
   203)     2881.2  Rx       12D  8  30 75 00 00 E0 2E 01 00 
   204)     2881.5  Rx       12C  8  8C 0A 88 90 00 00 00 00 
   205)     2929.7  Rx       310  8  01 00 02 00 00 00 00 00 
   206)     2939.8  Rx       50E  8  00 00 00 00 00 00 00 00 
   207)     2949.7  Rx       19F  8  00 00 00 00 2F 27 00 00 
   208)     2959.8  Rx       50F  8  30 27 5D 00 6F 03 ED 01 
   209)     2970.0  Rx       1A7  8  00 00 60 09 0A 00 60 09 
   210)     2973.5  Rx       10B  8  05 0F 01 00 00 00 00 00 
   211)     2978.6  Rx       12A  8  11 00 00 88 13 02 02 00 
   212)     2979.6  Rx       10C  8  00 00 80 00 00 00 00 00 
   213)     2981.5  Rx       12C  8  8C 0A 88 90 00 00 00 00 
   214)     2981.9  Rx       12D  8  30 75 00 00 E0 2E 01 00 
   215)     3029.7  Rx       310  8  01 00 02 00 00 00 00 00 
   216)     3039.5  Rx       50E  8  00 00 00 00 00 00 00 00 
   217)     3049.6  Rx       19F  8  00 00 00 00 2D 27 00 00 
   218)     3059.6  Rx       50F  8  2C 27 7C 00 F7 03 0A 02 
   219)     3069.6  Rx       1A7  8  00 00 60 09 08 00 60 09 
   220)     3073.6  Rx       10B  8  05 0F 01 00 00 00 00 00 
   221)     3078.7  Rx       12A  8  11 00 00 88 13 02 02 00 
   222)     3079.6  Rx       10C  8  00 00 80 00 00 00 00 00 
   223)     3081.5  Rx       12D  8  30 75 00 00 E0 2E 01 00 
   224)     3081.8  Rx       12C  8  8C 0A 88 90 00 00 00 00 
   225)     3129.6  Rx       310  8  01 00 02 00 00 00 00 00 
   226)     3139.7  Rx       50E  8  00 00 00 00 00 00 00 00 
   227)     3149.8  Rx       19F  8  00 00 00 00 31 27 00 00 
   228)     3159.6  Rx       50F  8  32 27 53 00 57 04 15 02 
   229)     3169.7  Rx       1A7  8  00 00 60 09 08 00 60 09 
   230)     3173.8  Rx       10B  8  05 0F 01 00 00 00 00 00 
   231)     3178.9  Rx       12A  8  11 00 00 88 13 02 02 00 
   232)     3179.9  Rx       10C  8  00 00 80 00 00 00 00 00 
   233)     3181.7  Rx       12D  8  30 75 00 00 E0 2E 01 00 
   234)     3182.1  Rx       12C  8  8C 0A 88 90 00 00 00 00 
   235)     3229.7  Rx       310  8  01 00 02 00 00 00 00 00 
   236)     3239.9  Rx       50E  8  00 00 00 00 00 00 00 00 
   237)     3249.6  Rx       19F  8  00 00 00 00 2E 27 00 00 
   238)     3259.8  Rx       50F  8  2D 27 67 00 A2 04 1A 02 
   239)     3269.9  Rx       1A7  8  00 00 60 09 08 00 60 09 
   240)     3274.2  Rx       10B  8  05 0F 01 00 00 00 00 00 
   241)     3279.8  Rx       10C  8  00 00 80 00 00 00 00 00 
   242)     3280.1  Rx       12A  8  11 00 00 88 13 02 02 00 
   243)     3282.2  Rx       12C  8  8C 0A 88 90 00 00 00 00 
   244)     3282.5  Rx       12D  8  30 75 00 00 E0 2E 01 00 
   245)     3329.9  Rx       310  8  01 00 02 00 00 00 00 00 
   246)     3339.7  Rx       50E  8  00 00 00 00 00 00 00 00 
   247)     3349.9  Rx       19F  8  00 00 00 00 2D 27 00 00 
   248)     3359.7  Rx       50F  8  2E 27 65 00 D8 04 1D 02 
   249)     3370.2  Rx       1A7  8  00 00 60 09 08 00 60 09 
   250)     3374.4  Rx       10B  8  05 0F 01 00 00 00 00 00 
   251)     3380.4  Rx       12A  8  11 00 00 88 13 02 02 00 
   252)     3380.9  Rx       10C  8  00 00 80 00 00 00 00 00 
   253)     3382.5  Rx       12D  8  30 75 00 00 E0 2E 01 00 
   254)     3382.8  Rx       12C  8  8C 0A 88 90 00 00 00 00 
   255)     3429.8  Rx       310  8  01 00 02 00 00 00 00 00 
   256)     3439.7  Rx       50E  8  00 00 00 00 00 00 00 00 
   257)     3449.9  Rx       19F  8  00 00 00 00 2C 27 00 00 
   258)     3459.6  Rx       50F  8  2C 27 6C 00 00 05 1E 02 
   259)     3469.8  Rx       1A7  8  00 00 60 09 08 00 60 09 
   260)     3474.7  Rx       10B  8  05 0F 01 00 00 00 00 00 
   261)     3480.7  Rx       12A  8  11 00 00 88 13 02 02 00 
   262)     3481.0  Rx       10C  8  00 00 80 00 00 00 00 00 
   263)     3482.8  Rx       12C  8  8C 0A 88 90 00 00 00 00 
   264)     3483.0  Rx       12D  8  30 75 00 00 E0 2E 01 00 
   265)     3529.7  Rx       310  8  01 00 02 00 00 00 00 00 
   266)     3539.8  Rx       50E  8  00 00 00 00 00 00 00 00 
   267)     3549.8  Rx       19F  8  00 00 00 00 2E 27 00 00 
   268)     3559.8  Rx       50F  8  2E 27 72 00 1E 05 1F 02 
   269)     3567.7  Rx   8192A3B  1  00 
   270)     3570.0  Rx       1A7  8  00 00 60 09 08 00 60 09 
   271)     3575.0  Rx       10B  8  05 0F 01 00 00 00 00 00 
   272)     3579.8  Rx  10000201  8  03 02 02 00 00 00 03 00 
   273)     3580.9  Rx       10C  8  00 00 80 00 00 00 00 00 
   274)     3581.4  Rx       12A  8  11 00 00 88 13 02 02 00 
   275)     3582.9  Rx       12C  8  8C 0A 88 90 00 00 00 00 
   276)     3583.3  Rx       12D  8  30 75 00 00 E0 2E 01 00 
   277)     3589.8  Rx  10000202  8  00 00 00 00 00 00 00 00 
   278)     3599.9  Rx  10000203  8  00 00 00 00 B4 08 0D 1B 
   279)     3609.6  Rx  10000204  8  F8 1A AE FF 2C 05 20 02 
   280)     3620.0  Rx  10000205  8  01 00 64 64 64 64 00 00 
   281)     3620.3  Rx  10000206  8  00 00 60 09 60 09 60 09 
   282)     3620.4  Rx  10000207  8  00 00 00 00 66 15 00 00 
   283)     3620.6  Rx  10000208  8  00 00 00 00 00 00 00 00 
   284)     3629.9  Rx       310  8  01 00 02 00 00 00 00 00 
   285)     3639.6  Rx       50E  8  00 00 00 00 00 00 00 00 
   286)     3649.8  Rx       19F  8  00 00 00 00 2B 27 00 00 
   287)     3659.8  Rx       50F  8  2B 27 6E 00 37 05 20 02 
   288)     3669.6  Rx       1A7  8  00 00 60 09 08 00 60 09 
   289)     3675.4  Rx       10B  8  05 0F 01 00 00 00 00 00 
   290)     3681.4  Rx       12A  8  11 00 00 88 13 02 02 00 
   291)     3681.7  Rx       10C  8  00 00 80 00 00 00 00 00 
   292)     3683.4  Rx       12D  8  30 75 00 00 E0 2E 01 00 
   293)     3683.7  Rx       12C  8  8C 0A 88 90 00 00 00 00 
   294)     3729.6  Rx       310  8  01 00 02 00 00 00 00 00 
   295)     3739.6  Rx       50E  8  00 00 00 00 00 00 00 00 
   296)     3749.8  Rx       19F  8  00 00 00 00 2B 27 00 00 
   297)     3759.7  Rx       50F  8  2C 27 6F 00 45 05 21 02 
   298)     3770.0  Rx       1A7  8  00 00 60 09 08 00 60 09 
   299)     3776.4  Rx       10B  8  05 0F 01 00 00 00 00 00 
   300)     3782.4  Rx       10C  8  00 00 80 00 00 00 00 00 
   301)     3782.8  Rx       12A  8  11 00 00 88 13 02 02 00 
   302)     3784.2  Rx       12D  8  30 75 00 00 E0 2E 01 00 
   303)     3784.5  Rx       12C  8  8C 0A 88 90 00 00 00 00 
   304)     3829.6  Rx       310  8  01 00 02 00 00 00 00 00 
   305)     3839.8  Rx       50E  8  00 00 00 00 00 00 00 00 
   306)     3849.7  Rx       19F  8  00 00 00 00 2C 27 00 00 
   307)     3859.5  Rx       50F  8  2C 27 76 00 50 05 22 02 
   308)     3869.7  Rx       1A7  8  00 00 60 09 08 00 60 09 
   309)     3877.3  Rx       10B  8  05 0F 01 00 00 00 00 00 
   310)     3883.4  Rx       12A  8  11 00 00 88 13 02 02 00 
   311)     3883.7  Rx       10C  8  00 00 80 00 00 00 00 00 
   312)     3885.3  Rx       12C  8  8C 0A 88 90 00 00 00 00 
   313)     3885.7  Rx       12D  8  30 75 00 00 E0 2E 01 00 
   314)     3929.8  Rx       310  8  01 00 02 00 00 00 00 00 
   315)     3939.6  Rx       50E  8  00 00 00 00 00 00 00 00 
   316)     3949.9  Rx       19F  8  00 00 00 00 2B 27 00 00 
   317)     3959.9  Rx       50F  8  2A 27 73 00 5B 05 22 02 
   318)     3969.6  Rx       1A7  8  00 00 60 09 08 00 60 09 
   319)     3977.3  Rx       10B  8  05 0F 01 00 00 00 00 00 
   320)     3984.4  Rx       10C  8  00 00 80 00 00 00 00 00 
   321)     3984.9  Rx       12A  8  11 00 00 88 13 02 02 00 
   322)     3986.4  Rx       12D  8  30 75 00 00 E0 2E 01 00 
   323)     3986.7  Rx       12C  8  8C 0A 88 90 00 00 00 00 
   324)     4029.7  Rx       310  8  01 00 02 00 00 00 00 00 
   325)     4039.8  Rx       50E  8  00 00 00 00 00 00 00 00 
   326)     4049.8  Rx       19F  8  00 00 00 00 2A 27 00 00 
   327)     4059.8  Rx       50F  8  2A 27 73 00 64 05 23 02 
   328)     4069.6  Rx       1A7  8  00 00 60 09 08 00 98 08 
   329)     4078.3  Rx       10B  8  05 0F 01 00 00 00 00 00 
   330)     4088.4  Rx       10C  8  00 00 80 00 00 00 00 00 
   331)     4088.7  Rx       12A  8  11 00 00 88 13 02 02 00 
   332)     4089.0  Rx       12D  8  30 75 00 00 E0 2E 01 00 
   333)     4089.2  Rx       12C  8  8C 0A 88 90 00 00 00 00 
   334)     4129.9  Rx       310  8  01 00 02 00 00 00 00 00 
   335)     4139.8  Rx       50E  8  00 00 00 00 00 00 00 00 
   336)     4150.0  Rx       19F  8  00 00 00 00 2C 27 00 00 
   337)     4159.8  Rx       50F  8  2B 27 72 00 67 05 23 02 
   338)     4169.6  Rx       1A7  8  00 00 98 08 08 00 98 08 
   339)     4188.3  Rx       10B  8  05 0F 01 00 00 00 00 00 
   340)     4189.0  Rx       12D  8  30 75 00 00 E0 2E 01 00 
   341)     4189.4  Rx       12C  8  8C 0A 88 90 00 00 00 00 
   342)     4189.6  Rx       12A  8  11 00 00 88 13 02 02 00 
   343)     4189.8  Rx       10C  8  00 00 80 00 00 00 00 00 
   344)     4229.8  Rx       310  8  01 00 02 00 00 00 00 00 
   345)     4239.8  Rx       50E  8  00 00 00 00 00 00 00 00 
   346)     4249.6  Rx       19F  8  00 00 00 00 2B 27 00 00 
   347)     4259.5  Rx       50F  8  2C 27 70 00 6A 05 23 02 
   348)     4269.7  Rx       1A7  8  00 00 98 08 08 00 98 08 
   349)     4289.0  Rx       10B  8  05 0F 01 00 00 00 00 00 
   350)     4290.0  Rx       12D  8  30 75 00 00 E0 2E 01 00 
   351)     4290.2  Rx       12C  8  8C 0A 88 90 00 00 00 00 
   352)     4290.5  Rx       12A  8  11 00 00 88 13 02 02 00 
   353)     4290.7  Rx       10C  8  00 00 80 00 00 00 00 00 
   354)     4329.7  Rx       310  8  01 00 02 00 00 00 00 00 
   355)     4339.8  Rx       50E  8  00 00 00 00 00 00 00 00 
   356)     4349.6  Rx       19F  8  00 00 00 00 2B 27 00 00 
   357)     4359.8  Rx       50F  8  2B 27 72 00 6E 05 22 02 
   358)     4369.5  Rx       1A7  8  00 00 98 08 08 00 98 08 
   359)     4389.7  Rx       10B  8  05 0F 01 00 00 00 00 00 
   360)     4390.8  Rx       12C  8  8C 0A 88 90 00 00 00 00 
   361)     4391.2  Rx       10C  8  00 00 80 00 00 00 00 00 
   362)     4391.5  Rx       12A  8  11 00 00 88 13 02 02 00 
   363)     4391.7  Rx       12D  8  30 75 00 00 E0 2E 01 00 
   364)     4429.7  Rx       310  8  01 00 02 00 00 00 00 00 
   365)     4439.7  Rx       50E  8  00 00 00 00 00 00 00 00 
   366)     4449.7  Rx       19F  8  00 00 00 00 2C 27 00 00 
   367)     4459.5  Rx       50F  8  2D 27 6C 00 70 05 22 02 
   368)     4469.5  Rx       1A7  8  00 00 98 08 08 00 98 08 
   369)     4490.2  Rx       10B  8  05 0F 01 00 00 00 00 00 
   370)     4491.3  Rx       10C  8  00 00 80 00 00 00 00 00 
   371)     4491.7  Rx       12C  8  8C 0A 88 90 00 00 00 00 
   372)     4492.3  Rx       12D  8  30 75 00 00 E0 2E 01 00 
   373)     4492.6  Rx       12A  8  11 00 00 88 13 02 02 00 
   374)     4529.5  Rx       310  8  01 00 02 00 00 00 00 00 
   375)     4539.4  Rx       50E  8  00 00 00 00 00 00 00 00 
   376)     4549.6  Rx       19F  8  00 00 00 00 2D 27 00 00 
   377)     4559.6  Rx       50F  8  2D 27 75 00 71 05 22 02 
   378)     4568.8  Rx   8192A3B  1  00 
   379)     4569.6  Rx       1A7  8  00 00 98 08 08 00 98 08 
   380)     4579.6  Rx  10000201  8  03 02 02 00 00 00 03 00 
   381)     4589.6  Rx  10000202  8  00 00 00 00 00 00 00 00 
   382)     4591.1  Rx       10B  8  05 0F 01 00 00 00 00 00 
   383)     4592.3  Rx       12C  8  8C 0A 88 90 00 00 00 00 
   384)     4592.6  Rx       10C  8  00 00 80 00 00 00 00 00 
   385)     4593.2  Rx       12A  8  11 00 00 88 13 02 02 00 
   386)     4593.7  Rx       12D  8  30 75 00 00 E0 2E 01 00 
   387)     4599.6  Rx  10000203  8  07 00 00 00 F9 0B FD 21 
   388)     4609.7  Rx  10000204  8  DC 21 9C FF 74 05 23 02 
   389)     4619.8  Rx  10000205  8  01 00 64 64 64 64 00 00 
   390)     4620.2  Rx  10000206  8  00 00 98 08 98 08 98 08 
   391)     4620.3  Rx  10000207  8  00 00 00 00 32 15 00 00 
   392)     4620.5  Rx  10000208  8  00 00 00 00 00 00 00 00 
   393)     4629.7  Rx       310  8  01 00 02 00 00 00 00 00 
   394)     4639.7  Rx       50E  8  00 00 00 00 00 00 00 00 
   395)     4649.6  Rx       19F  8  00 00 00 00 2C 27 00 00 
   396)     4659.8  Rx       50F  8  2D 27 6A 00 73 05 22 02 
   397)     4669.6  Rx       1A7  8  00 00 98 08 08 00 98 08 
   398)     4691.5  Rx       10B  8  05 0F 01 00 00 00 00 00 
   399)     4692.5  Rx       10C  8  00 00 80 00 00 00 00 00 
   400)     4693.3  Rx       12C  8  8C 0A 88 90 00 00 00 00 
   401)     4693.7  Rx       12D  8  30 75 00 00 E0 2E 01 00 
   402)     4693.9  Rx       12A  8  11 00 00 88 13 02 02 00 
   403)     4729.8  Rx       310  8  01 00 02 00 00 00 00 00 
   404)     4739.9  Rx       50E  8  00 00 00 00 00 00 00 00 
   405)     4749.8  Rx       19F  8  00 00 00 00 2D 27 00 00 
   406)     4759.5  Rx       50F  8  2D 27 6F 00 72 05 22 02 
   407)     4769.6  Rx       1A7  8  00 00 98 08 08 00 98 08 
   408)     4791.8  Rx       10B  8  05 0F 01 00 00 00 00 00 
   409)     4792.7  Rx       10C  8  00 00 80 00 00 00 00 00 
   410)     4793.8  Rx       12D  8  30 75 00 00 E0 2E 01 00 
   411)     4794.1  Rx       12A  8  11 00 00 88 13 02 02 00 
   412)     4794.2  Rx       12C  8  8C 0A 88 90 00 00 00 00 
   413)     4829.6  Rx       310  8  01 00 02 00 00 00 00 00 
   414)     4839.6  Rx       50E  8  00 00 00 00 00 00 00 00 
   415)     4849.6  Rx       19F  8  00 00 00 00 2C 27 00 00 
   416)     4859.6  Rx       50F  8  2D 27 73 00 74 05 22 02 
   417)     4869.5  Rx       1A7  8  00 00 98 08 08 00 98 08 
   418)     4891.9  Rx       10B  8  05 0F 01 00 00 00 00 00 
   419)     4892.8  Rx       10C  8  00 00 80 00 00 00 00 00 
   420)     4894.1  Rx       12C  8  8C 0A 88 90 00 00 00 00 
   421)     4894.4  Rx       12A  8  11 00 00 88 13 02 02 00 
   422)     4894.5  Rx       12D  8  30 75 00 00 E0 2E 01 00 
   423)     4929.5  Rx       310  8  01 00 02 00 00 00 00 00 
   424)     4939.5  Rx       50E  8  00 00 00 00 00 00 00 00 
   425)     4949.5  Rx       19F  8  00 00 00 00 2D 27 00 00 
   426)     4959.5  Rx       50F  8  2E 27 6B 00 73 05 22 02 
   427)     4969.5  Rx       1A7  8  00 00 98 08 08 00 98 08 
   428)     4992.9  Rx       10B  8  05 0F 01 00 00 00 00 00 
   429)     4993.2  Rx       10C  8  00 00 80 00 00 00 00 00 
   430)     4994.3  Rx       12D  8  30 75 00 00 E0 2E 01 00 
   431)     4994.5  Rx       12A  8  11 00 00 88 13 02 02 00 
   432)     4994.7  Rx       12C  8  8C 0A 88 90 00 00 00 00 
   433)     5029.4  Rx       310  8  01 00 02 00 00 00 00 00 
   434)     5039.6  Rx       50E  8  00 00 00 00 00 00 00 00 
   435)     5049.5  Rx       19F  8  00 00 00 00 2D 27 00 00 
   436)     5059.4  Rx       50F  8  2D 27 76 00 76 05 22 02 
   437)     5069.5  Rx       1A7  8  00 00 98 08 08 00 98 08 
   438)     5093.6  Rx       10C  8  00 00 80 00 00 00 00 00 
   439)     5093.8  Rx       10B  8  05 0F 01 00 00 00 00 00 
   440)     5095.1  Rx       12A  8  11 00 00 88 13 02 02 00 
   441)     5095.3  Rx       12C  8  8C 0A 88 90 00 00 00 00 
   442)     5095.4  Rx       12D  8  30 75 00 00 E0 2E 01 00 
   443)     5129.6  Rx       310  8  01 00 02 00 00 00 00 00 
   444)     5139.5  Rx       50E  8  00 00 00 00 00 00 00 00 
   445)     5149.5  Rx       19F  8  00 00 00 00 2C 27 00 00 
   446)     5159.4  Rx       50F  8  2D 27 70 00 76 05 22 02 
   447)     5169.5  Rx       1A7  8  00 00 98 08 08 00 98 08 
   448)     5194.5  Rx       10B  8  05 0F 01 00 00 00 00 00 
   449)     5195.5  Rx       10C  8  00 00 80 00 00 00 00 00 
   450)     5196.2  Rx       12C  8  8C 0A 88 90 00 00 00 00 
   451)     5196.5  Rx       12D  8  30 75 00 00 E0 2E 01 00 
   452)     5196.7  Rx       12A  8  11 00 00 88 13 02 02 00 
   453)     5229.5  Rx       310  8  01 00 02 00 00 00 00 00 
   454)     5239.5  Rx       50E  8  00 00 00 00 00 00 00 00 
   455)     5249.5  Rx       19F  8  00 00 00 00 2D 27 00 00 
   456)     5259.5  Rx       50F  8  2C 27 73 00 74 05 22 02 
   457)     5269.5  Rx       1A7  8  00 00 98 08 08 00 98 08 
   458)     5295.2  Rx       10C  8  00 00 80 00 00 00 00 00 
   459)     5295.6  Rx       10B  8  05 0F 01 00 00 00 00 00 
   460)     5297.4  Rx       12A  8  11 00 00 88 13 02 02 00 
   461)     5297.7  Rx       12D  8  30 75 00 00 E0 2E 01 00 
   462)     5297.8  Rx       12C  8  8C 0A 88 90 00 00 00 00 
   463)     5329.5  Rx       310  8  01 00 02 00 00 00 00 00 
   464)     5339.6  Rx       50E  8  00 00 00 00 00 00 00 00 
   465)     5349.7  Rx       19F  8  00 00 00 00 2C 27 00 00 
   466)     5359.6  Rx       50F  8  2D 27 72 00 74 05 22 02 
   467)     5369.4  Rx       1A7  8  00 00 98 08 08 00 98 08 
   468)     5395.5  Rx       10C  8  00 00 80 00 00 00 00 00 
   469)     5395.9  Rx       10B  8  05 0F 01 00 00 00 00 00 
   470)     5397.9  Rx       12C  8  8C 0A 88 90 00 00 00 00 
   471)     5398.3  Rx       12D  8  30 75 00 00 E0 2E 01 00 
   472)     5398.5  Rx       12A  8  11 00 00 88 13 02 02 00 
   473)     5429.7  Rx       310  8  01 00 02 00 00 00 00 00 
   474)     5439.4  Rx       50E  8  00 00 00 00 00 00 00 00 
   475)     5449.5  Rx       19F  8  00 00 00 00 2D 27 00 00 
   476)     5459.4  Rx       50F  8  2D 27 70 00 74 05 22 02 
   477)     5469.7  Rx       1A7  8  00 00 98 08 08 00 98 08 
   478)     5496.2  Rx       10C  8  00 00 80 00 00 00 00 00 
   479)     5496.6  Rx       10B  8  05 0F 01 00 00 00 00 00 
   480)     5498.1  Rx       12C  8  8C 0A 88 90 00 00 00 00 
   481)     5498.3  Rx       12D  8  30 75 00 00 E0 2E 01 00 
   482)     5499.2  Rx       12A  8  11 00 00 88 13 02 02 00 
   483)     5529.8  Rx       310  8  01 00 02 00 00 00 00 00 
   484)     5539.9  Rx       50E  8  00 00 00 00 00 00 00 00 
   485)     5549.9  Rx       19F  8  00 00 00 00 2D 27 00 00 
   486)     5559.4  Rx       50F  8  2D 27 70 00 76 05 22 02 
   487)     5569.6  Rx       1A7  8  00 00 98 08 08 00 98 08 
   488)     5570.3  Rx   8192A3B  1  00 
   489)     5579.7  Rx  10000201  8  03 02 02 00 00 00 03 00 
   490)     5589.6  Rx  10000202  8  00 00 00 00 00 00 00 00 
   491)     5597.1  Rx       10C  8  00 00 80 00 00 00 00 00 
   492)     5597.5  Rx       10B  8  05 0F 01 00 00 00 00 00 
   493)     5599.2  Rx       12D  8  30 75 00 00 E0 2E 01 00 
   494)     5599.7  Rx  10000203  8  1A 00 00 00 62 0D F5 24 
   495)     5600.0  Rx       12C  8  8C 0A 88 90 00 00 00 00 
   496)     5600.4  Rx       12A  8  11 00 00 88 13 02 02 00 
   497)     5609.7  Rx  10000204  8  CD 24 95 FF 75 05 22 02 
   498)     5619.8  Rx  10000205  8  01 00 64 64 64 64 00 00 
   499)     5620.0  Rx  10000206  8  00 00 98 08 98 08 98 08 
   500)     5620.1  Rx  10000207  8  00 00 00 00 6F 15 00 00 
   501)     5620.2  Rx  10000208  8  00 00 00 00 00 00 00 00 
   502)     5629.5  Rx       310  8  01 00 02 00 00 00 00 00 
   503)     5639.6  Rx       50E  8  00 00 00 00 00 00 00 00 
   504)     5649.5  Rx       19F  8  00 00 00 00 2D 27 00 00 
   505)     5659.7  Rx       50F  8  2D 27 6F 00 75 05 22 02 
   506)     5669.6  Rx       1A7  8  00 00 98 08 08 00 98 08 
   507)     5697.8  Rx       10B  8  05 0F 01 00 00 00 00 00 
   508)     5698.1  Rx       10C  8  00 00 80 00 00 00 00 00 
   509)     5699.8  Rx       12D  8  30 75 00 00 E0 2E 01 00 
   510)     5700.7  Rx       12C  8  8C 0A 88 90 00 00 00 00 
   511)     5700.9  Rx       12A  8  11 00 00 88 13 02 02 00 
   512)     5729.6  Rx       310  8  01 00 02 00 00 00 00 00 
   513)     5739.6  Rx       50E  8  00 00 00 00 00 00 00 00 
   514)     5749.5  Rx       19F  8  00 00 00 00 2D 27 00 00 
   515)     5759.5  Rx       50F  8  2D 27 6F 00 75 05 22 02 
   516)     5769.6  Rx       1A7  8  00 00 98 08 08 00 98 08 
   517)     5798.7  Rx       10C  8  00 00 80 00 00 00 00 00 
   518)     5799.1  Rx       10B  8  05 0F 01 00 00 00 00 00 
   519)     5800.7  Rx       12D  8  30 75 00 00 E0 2E 01 00 
   520)     5801.7  Rx       12A  8  11 00 00 88 13 02 02 00 
   521)     5801.9  Rx       12C  8  8C 0A 88 90 00 00 00 00 
   522)     5829.6  Rx       310  8  01 00 02 00 00 00 00 00 
   523)     5839.5  Rx       50E  8  00 00 00 00 00 00 00 00 
   524)     5849.7  Rx       19F  8  00 00 00 00 2D 27 00 00 
   525)     5859.8  Rx       50F  8  2D 27 73 00 77 05 22 02 
   526)     5869.6  Rx       1A7  8  00 00 98 08 08 00 98 08 
   527)     5899.4  Rx       10C  8  00 00 80 00 00 00 00 00 
   528)     5899.7  Rx       10B  8  05 0F 01 00 00 00 00 00 
   529)     5901.4  Rx       12D  8  30 75 00 00 E0 2E 01 00 
   530)     5902.3  Rx       12A  8  11 00 00 88 13 02 02 00 
   531)     5902.7  Rx       12C  8  8C 0A 88 90 00 00 00 00 
   532)     5929.6  Rx       310  8  01 00 02 00 00 00 00 00 
   533)     5939.5  Rx       50E  8  00 00 00 00 00 00 00 00 
   534)     5949.6  Rx       19F  8  00 00 00 00 2C 27 00 00 
   535)     5959.5  Rx       50F  8  2C 27 6D 00 76 05 22 02 
   536)     5969.6  Rx       1A7  8  00 00 98 08 08 00 98 08 
   537)     6000.5  Rx       10B  8  05 0F 01 00 00 00 00 00 
   538)     6000.7  Rx       10C  8  00 00 80 00 00 00 00 00 
   539)     6001.4  Rx       12D  8  30 75 00 00 E0 2E 01 00 
   540)     6002.4  Rx       12A  8  11 00 00 88 13 02 02 00 
   541)     6002.7  Rx       12C  8  8C 0A 88 90 00 00 00 00 
   542)     6029.6  Rx       310  8  01 00 02 00 00 00 00 00 
   543)     6039.6  Rx       50E  8  00 00 00 00 00 00 00 00 
   544)     6049.6  Rx       19F  8  00 00 00 00 2E 27 00 00 
   545)     6059.7  Rx       50F  8  2D 27 70 00 75 05 22 02 
   546)     6069.7  Rx       1A7  8  00 00 98 08 08 00 98 08 
   547)     6100.6  Rx       10C  8  00 00 80 00 00 00 00 00 
   548)     6101.1  Rx       10B  8  05 0F 01 00 00 00 00 00 
   549)     6101.8  Rx       12D  8  30 75 00 00 E0 2E 01 00 
   550)     6102.8  Rx       12A  8  11 00 00 88 13 02 02 00 
   551)     6103.1  Rx       12C  8  8C 0A 88 90 00 00 00 00 
   552)     6129.7  Rx       310  8  01 00 02 00 00 00 00 00 
   553)     6139.5  Rx       50E  8  00 00 00 00 00 00 00 00 
   554)     6149.6  Rx       19F  8  00 00 00 00 2D 27 00 00 
   555)     6159.4  Rx       50F  8  2E 27 6F 00 74 05 22 02 
   556)     6169.4  Rx       1A7  8  00 00 98 08 08 00 98 08 
   557)     6200.7  Rx       10C  8  00 00 80 00 00 00 00 00 
   558)     6201.0  Rx       10B  8  05 0F 01 00 00 00 00 00 
   559)     6201.9  Rx       12D  8  30 75 00 00 E0 2E 01 00 
   560)     6202.9  Rx       12A  8  11 00 00 88 13 02 02 00 
   561)     6203.1  Rx       12C  8  8C 0A 88 90 00 00 00 00 
   562)     6229.5  Rx       310  8  01 00 02 00 00 00 00 00 
   563)     6239.5  Rx       50E  8  00 00 00 00 00 00 00 00 
   564)     6249.5  Rx       19F  8  00 00 00 00 2C 27 00 00 
   565)     6259.3  Rx       50F  8  2D 27 6C 00 75 05 22 02 
   566)     6269.3  Rx       1A7  8  00 00 98 08 08 00 98 08 
   567)     6301.5  Rx       10B  8  05 0F 01 00 00 00 00 00 
   568)     6301.8  Rx       10C  8  00 00 80 00 00 00 00 00 
   569)     6302.5  Rx       12D  8  30 75 00 00 E0 2E 01 00 
   570)     6303.5  Rx       12A  8  11 00 00 88 13 02 02 00 
   571)     6303.7  Rx       12C  8  8C 0A 88 90 00 00 00 00 
   572)     6329.4  Rx       310  8  01 00 02 00 00 00 00 00 
   573)     6339.5  Rx       50E  8  00 00 00 00 00 00 00 00 
   574)     6349.4  Rx       19F  8  00 00 00 00 2D 27 00 00 
   575)     6359.4  Rx       50F  8  2C 27 6F 00 77 05 22 02 
   576)     6369.3  Rx       1A7  8  00 00 98 08 08 00 98 08 
   577)     6402.0  Rx       10B  8  05 0F 01 00 00 00 00 00 
   578)     6402.5  Rx       10C  8  00 00 80 00 00 00 00 00 
   579)     6402.9  Rx       12D  8  30 75 00 00 E0 2E 01 00 
   580)     6403.9  Rx       12A  8  11 00 00 88 13 02 02 00 
   581)     6404.0  Rx       12C  8  8C 0A 88 90 00 00 00 00 
   582)     6429.7  Rx       310  8  01 00 02 00 00 00 00 00 
   583)     6439.6  Rx       50E  8  00 00 00 00 00 00 00 00 
   584)     6449.4  Rx       19F  8  00 00 00 00 2D 27 00 00 
   585)     6459.6  Rx       50F  8  2C 27 75 00 77 05 22 02 
   586)     6469.3  Rx       1A7  8  00 00 98 08 08 00 98 08 
   587)     6502.9  Rx       10B  8  05 0F 01 00 00 00 00 00 
   588)     6503.2  Rx       10C  8  00 00 80 00 00 00 00 00 
   589)     6503.9  Rx       12D  8  30 75 00 00 E0 2E 01 00 
   590)     6504.9  Rx       12A  8  11 00 00 88 13 02 02 00 
   591)     6505.1  Rx       12C  8  8C 0A 88 90 00 00 00 00 
   592)     6529.6  Rx       310  8  01 00 02 00 00 00 00 00 
   593)     6539.7  Rx       50E  8  00 00 00 00 00 00 00 00 
   594)     6549.5  Rx       19F  8  00 00 00 00 2D 27 00 00 
   595)     6559.5  Rx       50F  8  2D 27 71 00 76 05 22 02 
   596)     6569.6  Rx       1A7  8  00 00 98 08 08 00 98 08 
   597)     6571.3  Rx   8192A3B  1  00 
   598)     6579.6  Rx  10000201  8  03 02 02 00 00 00 03 00 
   599)     6589.6  Rx  10000202  8  00 00 00 00 00 00 00 00 
   600)     6599.7  Rx  10000203  8  09 00 00 00 FC 0D 3A 26 
   601)     6603.4  Rx       10B  8  05 0F 01 00 00 00 00 00 
   602)     6603.7  Rx       10C  8  00 00 80 00 00 00 00 00 
   603)     6604.4  Rx       12D  8  30 75 00 00 E0 2E 01 00 
   604)     6605.4  Rx       12C  8  8C 0A 88 90 00 00 00 00 
   605)     6605.7  Rx       12A  8  11 00 00 88 13 02 02 00 
   606)     6609.6  Rx  10000204  8  10 26 92 FF 78 05 22 02 
   607)     6619.8  Rx  10000205  8  01 00 64 64 64 64 00 00 
   608)     6620.0  Rx  10000206  8  00 00 98 08 98 08 98 08 
   609)     6620.1  Rx  10000207  8  00 00 00 00 3C 15 00 00 
   610)     6620.2  Rx  10000208  8  00 00 00 00 00 00 00 00 
   611)     6629.6  Rx       310  8  01 00 02 00 00 00 00 00 
   612)     6639.8  Rx       50E  8  00 00 00 00 00 00 00 00 
   613)     6649.7  Rx       19F  8  00 00 00 00 2C 27 00 00 
   614)     6659.7  Rx       50F  8  2D 27 69 00 75 05 22 02 
   615)     6669.6  Rx       1A7  8  00 00 98 08 08 00 98 08 
   616)     6703.9  Rx       10C  8  00 00 80 00 00 00 00 00 
   617)     6704.4  Rx       10B  8  05 0F 01 00 00 00 00 00 
   618)     6704.7  Rx       12D  8  30 75 00 00 E0 2E 01 00 
   619)     6705.8  Rx       12A  8  11 00 00 88 13 02 02 00 
   620)     6706.2  Rx       12C  8  8C 0A 88 90 00 00 00 00 
   621)     6729.8  Rx       310  8  01 00 02 00 00 00 00 00 
   622)     6739.7  Rx       50E  8  00 00 00 00 00 00 00 00 
   623)     6749.5  Rx       19F  8  00 00 00 00 2D 27 00 00 
   624)     6759.6  Rx       50F  8  2C 27 6F 00 78 05 22 02 
   625)     6769.5  Rx       1A7  8  00 00 98 08 08 00 98 08 
   626)     6804.2  Rx       10C  8  00 00 80 00 00 00 00 00 
   627)     6815.9  Rx       10B  8  05 0F 01 00 00 00 00 00 
   628)     6816.1  Rx       12D  8  30 75 00 00 E0 2E 01 00 
   629)     6816.3  Rx       12A  8  11 00 00 88 13 02 02 00 
   630)     6816.4  Rx       12C  8  8C 0A 88 90 00 00 00 00 
   631)     6829.7  Rx       310  8  01 00 02 00 00 00 00 00 
   632)     6839.5  Rx       50E  8  00 00 00 00 00 00 00 00 
   633)     6849.6  Rx       19F  8  00 00 00 00 2D 27 00 00 
   634)     6859.6  Rx       50F  8  2D 27 71 00 78 05 22 02 
   635)     6869.5  Rx       1A7  8  00 00 98 08 08 00 98 08 
   636)     6916.5  Rx       12C  8  8C 0A 88 90 00 00 00 00 
   637)     6916.8  Rx       12A  8  11 00 00 88 13 02 02 00 
   638)     6917.0  Rx       12D  8  30 75 00 00 E0 2E 01 00 
   639)     6917.1  Rx       10B  8  05 0F 01 00 00 00 00 00 
   640)     6917.2  Rx       10C  8  00 00 80 00 00 00 00 00 
   641)     6929.7  Rx       310  8  01 00 02 00 00 00 00 00 
   642)     6939.6  Rx       50E  8  00 00 00 00 00 00 00 00 
   643)     6949.7  Rx       19F  8  00 00 00 00 2C 27 00 00 
   644)     6959.5  Rx       50F  8  2D 27 70 00 77 05 22 02 
   645)     6969.8  Rx       1A7  8  00 00 98 08 08 00 98 08 
   646)     7016.6  Rx       12C  8  8C 0A 88 90 00 00 00 00 
   647)     7017.1  Rx       12A  8  11 00 00 88 13 02 02 00 
   648)     7017.4  Rx       10B  8  05 0F 01 00 00 00 00 00 
   649)     7017.7  Rx       12D  8  30 75 00 00 E0 2E 01 00 
   650)     7017.9  Rx       10C  8  00 00 80 00 00 00 00 00 
   651)     7029.6  Rx       310  8  01 00 02 00 00 00 00 00 
   652)     7039.5  Rx       50E  8  00 00 00 00 00 00 00 00 
   653)     7049.6  Rx       19F  8  00 00 00 00 2D 27 00 00 
   654)     7059.6  Rx       50F  8  2D 27 76 00 76 05 22 02 
   655)     7069.8  Rx       1A7  8  00 00 98 08 08 00 98 08 
   656)     7117.3  Rx       10B  8  05 0F 01 00 00 00 00 00 
   657)     7117.5  Rx       12A  8  11 00 00 88 13 02 02 00 
   658)     7117.7  Rx       12C  8  8C 0A 88 90 00 00 00 00 
   659)     7118.0  Rx       10C  8  00 00 80 00 00 00 00 00 
   660)     7118.2  Rx       12D  8  30 75 00 00 E0 2E 01 00 
   661)     7129.5  Rx       310  8  01 00 02 00 00 00 00 00 
   662)     7139.7  Rx       50E  8  00 00 00 00 00 00 00 00 
   663)     7149.4  Rx       19F  8  00 00 00 00 2D 27 00 00 
   664)     7159.5  Rx       50F  8  2E 27 6E 00 74 05 22 02 
   665)     7169.5  Rx       1A7  8  00 00 98 08 08 00 98 08 
   666)     7217.8  Rx       10B  8  05 0F 01 00 00 00 00 00 
   667)     7218.9  Rx       12A  8  11 00 00 88 13 02 02 00 
   668)     7219.2  Rx       10C  8  00 00 80 00 00 00 00 00 
   669)     7219.4  Rx       12C  8  8C 0A 88 90 00 00 00 00 
   670)     7219.6  Rx       12D  8  30 75 00 00 E0 2E 01 00 
   671)     7229.6  Rx       310  8  01 00 02 00 00 00 00 00 
   672)     7239.7  Rx       50E  8  00 00 00 00 00 00 00 00 
   673)     7249.6  Rx       19F  8  00 00 00 00 2D 27 00 00 
   674)     7259.4  Rx       50F  8  2C 27 73 00 75 05 22 02 
   675)     7269.7  Rx       1A7  8  00 00 98 08 08 00 98 08 
   676)     7279.6  Rx       644  8  13 0A 00 00 03 00 00 00 
   677)     7289.4  Rx       645  8  05 00 00 00 00 00 00 00 
   678)     7319.6  Rx       10B  8  05 0F 01 00 00 00 00 00 
   679)     7320.1  Rx       12A  8  11 00 00 88 13 02 02 00 
   680)     7320.7  Rx       12C  8  8C 0A 88 90 00 00 00 00 
   681)     7321.0  Rx       12D  8  30 75 00 00 E0 2E 01 00 
   682)     7321.2  Rx       10C  8  00 00 80 00 00 00 00 00 
   683)     7329.5  Rx       310  8  01 00 02 00 00 00 00 00 
   684)     7339.6  Rx       50E  8  00 00 00 00 00 00 00 00 
   685)     7349.9  Rx       19F  8  00 00 00 00 2E 27 00 00 
   686)     7359.7  Rx       50F  8  2D 27 76 00 77 05 22 02 
   687)     7369.7  Rx       1A7  8  00 00 98 08 08 00 98 08 
   688)     7420.6  Rx       10B  8  05 0F 01 00 00 00 00 00 
   689)     7421.0  Rx       12A  8  11 00 00 88 13 02 02 00 
   690)     7421.5  Rx       12C  8  8C 0A 88 90 00 00 00 00 
   691)     7421.8  Rx       12D  8  30 75 00 00 E0 2E 01 00 
   692)     7422.0  Rx       10C  8  00 00 80 00 00 00 00 00 
   693)     7429.8  Rx       310  8  01 00 02 00 00 00 00 00 
   694)     7439.6  Rx       50E  8  00 00 00 00 00 00 00 00 
   695)     7449.5  Rx       19F  8  00 00 00 00 2D 27 00 00 
   696)     7459.4  Rx       50F  8  2C 27 72 00 76 05 22 02 
   697)     7469.4  Rx       1A7  8  00 00 98 08 08 00 98 08 
   698)     7520.9  Rx       10B  8  05 0F 01 00 00 00 00 00 
   699)     7521.5  Rx       12A  8  11 00 00 88 13 02 02 00 
   700)     7522.1  Rx       12D  8  30 75 00 00 E0 2E 01 00 
   701)     7522.4  Rx       10C  8  00 00 80 00 00 00 00 00 
   702)     7522.8  Rx       12C  8  8C 0A 88 90 00 00 00 00 
   703)     7529.5  Rx       310  8  01 00 02 00 00 00 00 00 
   704)     7539.4  Rx       50E  8  00 00 00 00 00 00 00 00 
   705)     7549.5  Rx       19F  8  00 00 00 00 2D 27 00 00 
   706)     7559.7  Rx       50F  8  2C 27 6F 00 75 05 22 02 
   707)     7569.4  Rx       1A7  8  00 00 98 08 08 00 98 08 
   708)     7571.7  Rx   8192A3B  1  00 
   709)     7579.6  Rx  10000201  8  03 02 02 00 00 00 03 00 
   710)     7589.3  Rx  10000202  8  00 00 00 00 00 00 00 00 
   711)     7599.5  Rx  10000203  8  22 00 00 00 3F 0E C5 26 
   712)     7609.5  Rx  10000204  8  99 26 90 FF 74 05 22 02 
   713)     7619.5  Rx  10000205  8  01 00 64 64 64 64 00 00 
   714)     7619.7  Rx  10000206  8  00 00 98 08 98 08 98 08 
   715)     7619.7  Rx  10000207  8  00 00 00 00 55 15 00 00 
   716)     7619.8  Rx  10000208  8  00 00 00 00 00 00 00 00 
   717)     7621.2  Rx       10B  8  05 0F 01 00 00 00 00 00 
   718)     7622.1  Rx       12A  8  11 00 00 88 13 02 02 00 
   719)     7622.4  Rx       12D  8  30 75 00 00 E0 2E 01 00 
   720)     7623.3  Rx       12C  8  8C 0A 88 90 00 00 00 00 
   721)     7623.4  Rx       10C  8  00 00 80 00 00 00 00 00 
   722)     7629.4  Rx       310  8  01 00 02 00 00 00 00 00 
   723)     7639.4  Rx       50E  8  00 00 00 00 00 00 00 00 
   724)     7649.3  Rx       19F  8  00 00 00 00 2D 27 00 00 
   725)     7659.5  Rx       50F  8  2C 27 72 00 75 05 22 02 
   726)     7669.4  Rx       1A7  8  00 00 98 08 08 00 98 08 
   727)     7721.5  Rx       10B  8  05 0F 01 00 00 00 00 00 
   728)     7722.2  Rx       12A  8  11 00 00 88 13 02 02 00 
   729)     7722.5  Rx       12D  8  30 75 00 00 E0 2E 01 00 
   730)     7723.5  Rx       10C  8  00 00 80 00 00 00 00 00 
   731)     7723.8  Rx       12C  8  8C 0A 88 90 00 00 00 00 
   732)     7729.5  Rx       310  8  01 00 02 00 00 00 00 00 
   733)     7739.6  Rx       50E  8  00 00 00 00 00 00 00 00 
   734)     7749.6  Rx       19F  8  00 00 00 00 2D 27 00 00 
   735)     7759.6  Rx       50F  8  2D 27 6E 00 74 05 22 02 
   736)     7769.5  Rx       1A7  8  00 00 98 08 08 00 98 08 
   737)     7821.6  Rx       10B  8  05 0F 01 00 00 00 00 00 
   738)     7822.8  Rx       12A  8  11 00 00 88 13 02 02 00 
   739)     7823.7  Rx       12C  8  8C 0A 88 90 00 00 00 00 
   740)     7824.0  Rx       10C  8  00 00 80 00 00 00 00 00 
   741)     7824.2  Rx       12D  8  30 75 00 00 E0 2E 01 00 
   742)     7829.5  Rx       310  8  01 00 02 00 00 00 00 00 
   743)     7839.4  Rx       50E  8  00 00 00 00 00 00 00 00 
   744)     7849.4  Rx       19F  8  00 00 00 00 2D 27 00 00 
   745)     7859.7  Rx       50F  8  2D 27 6D 00 77 05 22 02 
   746)     7869.6  Rx       1A7  8  00 00 98 08 08 00 98 08 
   747)     7921.9  Rx       10B  8  05 0F 01 00 00 00 00 00 
   748)     7922.8  Rx       12A  8  11 00 00 88 13 02 02 00 
   749)     7923.8  Rx       12D  8  30 75 00 00 E0 2E 01 00 
   750)     7924.4  Rx       10C  8  00 00 80 00 00 00 00 00 
   751)     7924.9  Rx       12C  8  8C 0A 88 90 00 00 00 00 
   752)     7929.5  Rx       310  8  01 00 02 00 00 00 00 00 
   753)     7939.6  Rx       50E  8  00 00 00 00 00 00 00 00 
   754)     7949.6  Rx       19F  8  00 00 00 00 2C 27 00 00 
   755)     7960.0  Rx       50F  8  2D 27 74 00 76 05 22 02 
   756)     7969.4  Rx       1A7  8  00 00 98 08 08 00 98 08 
   757)     8022.0  Rx       10B  8  05 0F 01 00 00 00 00 00 
   758)     8023.6  Rx       12A  8  11 00 00 88 13 02 02 00 
   759)     8024.4  Rx       12D  8  30 75 00 00 E0 2E 01 00 
   760)     8025.3  Rx       12C  8  8C 0A 88 90 00 00 00 00 
   761)     8025.7  Rx       10C  8  00 00 80 00 00 00 00 00 
   762)     8029.6  Rx       310  8  01 00 02 00 00 00 00 00 
   763)     8039.5  Rx       50E  8  00 00 00 00 00 00 00 00 
   764)     8049.8  Rx       19F  8  00 00 00 00 2D 27 00 00 
   765)     8059.7  Rx       50F  8  2D 27 66 00 74 05 22 02 
   766)     8069.5  Rx       1A7  8  00 00 98 08 08 00 98 08 
   767)     8122.9  Rx       10B  8  05 0F 01 00 00 00 00 00 
   768)     8123.9  Rx       12A  8  11 00 00 88 13 02 02 00 
   769)     8124.9  Rx       12D  8  30 75 00 00 E0 2E 01 00 
   770)     8126.0  Rx       10C  8  00 00 80 00 00 00 00 00 
   771)     8126.4  Rx       12C  8  8C 0A 88 90 00 00 00 00 
   772)     8129.6  Rx       310  8  01 00 02 00 00 00 00 00 
   773)     8139.6  Rx       50E  8  00 00 00 00 00 00 00 00 
   774)     8149.4  Rx       19F  8  00 00 00 00 2D 27 00 00 
   775)     8159.5  Rx       50F  8  2C 27 75 00 77 05 22 02 
   776)     8169.6  Rx       1A7  8  00 00 98 08 08 00 98 08 
   777)     8223.0  Rx       10B  8  05 0F 01 00 00 00 00 00 
   778)     8224.1  Rx       12A  8  11 00 00 88 13 02 02 00 
   779)     8225.1  Rx       12D  8  30 75 00 00 E0 2E 01 00 
   780)     8226.1  Rx       10C  8  00 00 80 00 00 00 00 00 
   781)     8226.5  Rx       12C  8  8C 0A 88 90 00 00 00 00 
   782)     8229.6  Rx       310  8  01 00 02 00 00 00 00 00 
   783)     8239.4  Rx       50E  8  00 00 00 00 00 00 00 00 
   784)     8249.5  Rx       19F  8  00 00 00 00 2C 27 00 00 
   785)     8259.5  Rx       50F  8  2D 27 71 00 76 05 22 02 
   786)     8269.6  Rx       1A7  8  00 00 98 08 08 00 98 08 
   787)     8323.3  Rx       10B  8  05 0F 01 00 00 00 00 00 
   788)     8324.2  Rx       12A  8  11 00 00 88 13 02 02 00 
   789)     8325.2  Rx       12D  8  30 75 00 00 E0 2E 01 00 
   790)     8326.3  Rx       10C  8  00 00 80 00 00 00 00 00 
   791)     8326.7  Rx       12C  8  8C 0A 88 90 00 00 00 00 
   792)     8329.5  Rx       310  8  01 00 02 00 00 00 00 00 
   793)     8339.6  Rx       50E  8  00 00 00 00 00 00 00 00 
   794)     8349.8  Rx       19F  8  00 00 00 00 2D 27 00 00 
   795)     8359.6  Rx       50F  8  2D 27 6D 00 75 05 22 02 
   796)     8370.2  Rx       1A7  8  00 00 98 08 08 00 98 08 
   797)     8423.5  Rx       10B  8  05 0F 01 00 00 00 00 00 
   798)     8424.5  Rx       12A  8  11 00 00 88 13 02 02 00 
   799)     8425.5  Rx       12D  8  30 75 00 00 E0 2E 01 00 
   800)     8426.4  Rx       10C  8  00 00 80 00 00 00 00 00 
   801)     8426.9  Rx       12C  8  8C 0A 88 90 00 00 00 00 
   802)     8429.6  Rx       310  8  01 00 02 00 00 00 00 00 
   803)     8439.8  Rx       50E  8  00 00 00 00 00 00 00 00 
   804)     8449.6  Rx       19F  8  00 00 00 00 2D 27 00 00 
   805)     8459.7  Rx       50F  8  2D 27 71 00 75 05 22 02 
   806)     8469.4  Rx       1A7  8  00 00 98 08 08 00 98 08 
   807)     8524.0  Rx       10B  8  05 0F 01 00 00 00 00 00 
   808)     8525.0  Rx       12A  8  11 00 00 88 13 02 02 00 
   809)     8526.1  Rx       12D  8  30 75 00 00 E0 2E 01 00 
   810)     8527.1  Rx       12C  8  8C 0A 88 90 00 00 00 00 
   811)     8527.4  Rx       10C  8  00 00 80 00 00 00 00 00 
   812)     8529.4  Rx       310  8  01 00 02 00 00 00 00 00 
   813)     8539.6  Rx       50E  8  00 00 00 00 00 00 00 00 
   814)     8549.4  Rx       19F  8  00 00 00 00 2C 27 00 00 
   815)     8559.5  Rx       50F  8  2C 27 6F 00 75 05 22 02 
   816)     8569.4  Rx       1A7  8  00 00 98 08 08 00 98 08 
   817)     8572.5  Rx   8192A3B  1  00 
   818)     8580.9  Rx  10000201  8  03 02 02 00 00 00 03 00 
   819)     8589.6  Rx  10000202  8  00 00 00 00 00 00 00 00 
   820)     8599.4  Rx  10000203  8  0B 00 00 00 5B 0E 01 27 
   821)     8609.6  Rx  10000204  8  D4 26 90 FF 74 05 23 02 
   822)     8619.8  Rx  10000205  8  01 00 64 64 64 64 00 00 
   823)     8620.1  Rx  10000206  8  00 00 98 08 98 08 98 08 
   824)     8620.2  Rx  10000207  8  00 00 00 00 18 15 00 00 
   825)     8620.4  Rx  10000208  8  00 00 00 00 00 00 00 00 
   826)     8624.6  Rx       10B  8  05 0F 01 00 00 00 00 00 
   827)     8625.6  Rx       12A  8  11 00 00 88 13 02 02 00 
   828)     8626.5  Rx       12D  8  30 75 00 00 E0 2E 01 00 
   829)     8627.5  Rx       10C  8  00 00 80 00 00 00 00 00 
   830)     8627.8  Rx       12C  8  8C 0A 88 90 00 00 00 00 
   831)     8629.7  Rx       310  8  01 00 02 00 00 00 00 00 
   832)     8639.4  Rx       50E  8  00 00 00 00 00 00 00 00 
   833)     8649.5  Rx       19F  8  00 00 00 00 2D 27 00 00 
   834)     8659.3  Rx       50F  8  2D 27 6D 00 74 05 22 02 
   835)     8669.8  Rx       1A7  8  00 00 98 08 08 00 98 08 
   836)     8724.6  Rx       10B  8  05 0F 01 00 00 00 00 00 
   837)     8725.8  Rx       12A  8  11 00 00 88 13 02 02 00 
   838)     8726.7  Rx       12D  8  30 75 00 00 E0 2E 01 00 
   839)     8727.8  Rx       12C  8  8C 0A 88 90 00 00 00 00 
   840)     8728.1  Rx       10C  8  00 00 80 00 00 00 00 00 
   841)     8729.6  Rx       310  8  01 00 02 00 00 00 00 00 
   842)     8739.7  Rx       50E  8  00 00 00 00 00 00 00 00 
   843)     8749.5  Rx       19F  8  00 00 00 00 2C 27 00 00 
   844)     8759.5  Rx       50F  8  2C 27 71 00 74 05 22 02 
   845)     8769.5  Rx       1A7  8  00 00 98 08 08 00 98 08 
   846)     8825.2  Rx       10B  8  05 0F 01 00 00 00 00 00 
   847)     8826.1  Rx       12A  8  11 00 00 88 13 02 02 00 
   848)     8827.1  Rx       12D  8  30 75 00 00 E0 2E 01 00 
   849)     8828.1  Rx       12C  8  8C 0A 88 90 00 00 00 00 
   850)     8828.4  Rx       10C  8  00 00 80 00 00 00 00 00 
   851)     8829.6  Rx       310  8  01 00 02 00 00 00 00 00 
   852)     8839.5  Rx       50E  8  00 00 00 00 00 00 00 00 
   853)     8849.4  Rx       19F  8  00 00 00 00 2C 27 00 00 
   854)     8859.5  Rx       50F  8  2D 27 68 00 74 05 22 02 
   855)     8869.5  Rx       1A7  8  00 00 98 08 08 00 98 08 
   856)     8925.5  Rx       10B  8  05 0F 01 00 00 00 00 00 
   857)     8926.5  Rx       12A  8  11 00 00 88 13 02 02 00 
   858)     8927.5  Rx       12D  8  30 75 00 00 E0 2E 01 00 
   859)     8928.6  Rx       10C  8  00 00 80 00 00 00 00 00 
   860)     8928.9  Rx       12C  8  8C 0A 88 90 00 00 00 00 
   861)     8929.5  Rx       310  8  01 00 02 00 00 00 00 00 
   862)     8939.7  Rx       50E  8  00 00 00 00 00 00 00 00 
   863)     8949.6  Rx       19F  8  00 00 00 00 2C 27 00 00 
   864)     8959.6  Rx       50F  8  2C 27 72 00 77 05 22 02 
   865)     8969.4  Rx       1A7  8  00 00 98 08 08 00 98 08 
   866)     9026.3  Rx       10B  8  05 0F 01 00 00 00 00 00 
   867)     9027.2  Rx       12A  8  11 00 00 88 13 02 02 00 
   868)     9028.3  Rx       12D  8  30 75 00 00 E0 2E 01 00 
   869)     9029.2  Rx       12C  8  8C 0A 88 90 00 00 00 00 
   870)     9029.7  Rx       10C  8  00 00 80 00 00 00 00 00 
   871)     9029.9  Rx       310  8  01 00 02 00 00 00 00 00 
   872)     9039.5  Rx       50E  8  00 00 00 00 00 00 00 00 
   873)     9049.7  Rx       19F  8  00 00 00 00 2B 27 00 00 
   874)     9059.6  Rx       50F  8  2D 27 71 00 76 05 22 02 
   875)     9069.7  Rx       1A7  8  00 00 98 08 08 00 98 08 
   876)     9127.3  Rx       10B  8  05 0F 01 00 00 00 00 00 
   877)     9127.6  Rx       12A  8  11 00 00 88 13 02 02 00 
   878)     9128.5  Rx       12D  8  30 75 00 00 E0 2E 01 00 
   879)     9129.4  Rx       12C  8  8C 0A 88 90 00 00 00 00 
   880)     9129.8  Rx       10C  8  00 00 80 00 00 00 00 00 
   881)     9130.1  Rx       310  8  01 00 02 00 00 00 00 00 
   882)     9139.6  Rx       50E  8  00 00 00 00 00 00 00 00 
   883)     9149.6  Rx       19F  8  00 00 00 00 2D 27 00 00 
   884)     9159.4  Rx       50F  8  2D 27 72 00 76 05 22 02 
   885)     9169.3  Rx       1A7  8  00 00 98 08 08 00 98 08 
   886)     9228.1  Rx       12A  8  11 00 00 88 13 02 02 00 
   887)     9228.4  Rx       10B  8  05 0F 01 00 00 00 00 00 
   888)     9229.0  Rx       12D  8  30 75 00 00 E0 2E 01 00 
   889)     9229.4  Rx       310  8  01 00 02 00 00 00 00 00 
   890)     9230.0  Rx       10C  8  00 00 80 00 00 00 00 00 
   891)     9230.3  Rx       12C  8  8C 0A 88 90 00 00 00 00 
   892)     9239.4  Rx       50E  8  00 00 00 00 00 00 00 00 
   893)     9249.5  Rx       19F  8  00 00 00 00 2D 27 00 00 
   894)     9259.3  Rx       50F  8  2C 27 7D 00 77 05 22 02 
   895)     9269.4  Rx       1A7  8  00 00 98 08 08 00 98 08 
   896)     9328.2  Rx       12A  8  11 00 00 88 13 02 02 00 
   897)     9328.3  Rx       10B  8  05 0F 01 00 00 00 00 00 
   898)     9329.1  Rx       12D  8  30 75 00 00 E0 2E 01 00 
   899)     9329.3  Rx       310  8  01 00 02 00 00 00 00 00 
   900)     9330.1  Rx       12C  8  8C 0A 88 90 00 00 00 00 
   901)     9330.3  Rx       10C  8  00 00 80 00 00 00 00 00 
   902)     9339.5  Rx       50E  8  00 00 00 00 00 00 00 00 
   903)     9349.6  Rx       19F  8  00 00 00 00 2C 27 00 00 
   904)     9359.6  Rx       50F  8  2C 27 70 00 77 05 22 02 
   905)     9369.6  Rx       1A7  8  00 00 98 08 08 00 98 08 
   906)     9428.5  Rx       12A  8  11 00 00 88 13 02 02 00 
   907)     9428.9  Rx       10B  8  05 0F 01 00 00 00 00 00 
   908)     9429.6  Rx       310  8  01 00 02 00 00 00 00 00 
   909)     9430.2  Rx       12D  8  30 75 00 00 E0 2E 01 00 
   910)     9430.7  Rx       12C  8  8C 0A 88 90 00 00 00 00 
   911)     9431.0  Rx       10C  8  00 00 80 00 00 00 00 00 
   912)     9439.7  Rx       50E  8  00 00 00 00 00 00 00 00 
   913)     9449.5  Rx       19F  8  00 00 00 00 2D 27 00 00 
   914)     9459.4  Rx       50F  8  2D 27 76 00 77 05 22 02 
   915)     9469.4  Rx       1A7  8  00 00 98 08 08 00 98 08 
   916)     9528.9  Rx       10B  8  05 0F 01 00 00 00 00 00 
   917)     9529.3  Rx       12A  8  11 00 00 88 13 02 02 00 
   918)     9529.7  Rx       310  8  01 00 02 00 00 00 00 00 
   919)     9530.9  Rx       12C  8  8C 0A 88 90 00 00 00 00 
   920)     9537.6  Rx       12D  8  30 75 00 00 E0 2E 01 00 
   921)     9538.0  Rx       10C  8  00 00 80 00 00 00 00 00 
   922)     9539.7  Rx       50E  8  00 00 00 00 00 00 00 00 
   923)     9549.6  Rx       19F  8  00 00 00 00 2D 27 00 00 
   924)     9559.5  Rx       50F  8  2C 27 6F 00 78 05 23 02 
   925)     9569.5  Rx       1A7  8  00 00 60 09 08 00 98 08 
   926)     9573.3  Rx   8192A3B  1  00 
   927)     9579.7  Rx  10000201  8  03 02 02 00 00 00 03 00 
   928)     9589.7  Rx  10000202  8  00 00 00 00 00 00 00 00 
   929)     9599.5  Rx  10000203  8  03 00 00 00 67 0E 1A 27 
   930)     9609.6  Rx  10000204  8  ED 26 90 FF 74 05 22 02 
   931)     9619.6  Rx  10000205  8  01 00 64 64 64 64 00 00 
   932)     9619.9  Rx  10000206  8  00 00 98 08 60 09 98 08 
   933)     9620.0  Rx  10000207  8  00 00 00 00 5D 15 00 00 
   934)     9620.0  Rx  10000208  8  00 00 00 00 00 00 00 00 
   935)     9629.3  Rx       10B  8  05 0F 01 00 00 00 00 00 
   936)     9629.7  Rx       310  8  01 00 02 00 00 00 00 00 
   937)     9630.2  Rx       12A  8  11 00 00 88 13 02 02 00 
   938)     9638.2  Rx       12D  8  30 75 00 00 E0 2E 01 00 
   939)     9638.5  Rx       12C  8  8C 0A 88 90 00 00 00 00 
   940)     9639.3  Rx       10C  8  00 00 80 00 00 00 00 00 
   941)     9639.7  Rx       50E  8  00 00 00 00 00 00 00 00 
   942)     9649.5  Rx       19F  8  00 00 00 00 2B 27 00 00 
   943)     9659.5  Rx       50F  8  2D 27 6B 00 75 05 22 02 
   944)     9669.4  Rx       1A7  8  00 00 60 09 08 00 98 08 
   945)     9729.4  Rx       310  8  01 00 02 00 00 00 00 00 
   946)     9729.7  Rx       10B  8  05 0F 01 00 00 00 00 00 
   947)     9730.6  Rx       12A  8  11 00 00 88 13 02 02 00 
   948)     9738.6  Rx       12D  8  30 75 00 00 E0 2E 01 00 
   949)     9739.1  Rx       12C  8  8C 0A 88 90 00 00 00 00 
   950)     9739.4  Rx       50E  8  00 00 00 00 00 00 00 00 
   951)     9739.7  Rx       10C  8  00 00 80 00 00 00 00 00 
   952)     9749.4  Rx       19F  8  00 00 00 00 2C 27 00 00 
   953)     9759.6  Rx       50F  8  2C 27 6A 00 74 05 22 02 
   954)     9769.6  Rx       1A7  8  00 00 60 09 08 00 98 08 
   955)     9829.6  Rx       310  8  01 00 02 00 00 00 00 00 
   956)     9830.7  Rx       10B  8  05 0F 01 00 00 00 00 00 
   957)     9831.0  Rx       12A  8  11 00 00 88 13 02 02 00 
   958)     9839.0  Rx       12D  8  30 75 00 00 E0 2E 01 00 
   959)     9839.3  Rx       12C  8  8C 0A 88 90 00 00 00 00 
   960)     9839.6  Rx       50E  8  00 00 00 00 00 00 00 00 
   961)     9840.1  Rx       10C  8  00 00 80 00 00 00 00 00 
   962)     9849.5  Rx       19F  8  00 00 00 00 2D 27 00 00 
   963)     9859.3  Rx       50F  8  2D 27 6E 00 74 05 22 02 
   964)     9869.3  Rx       1A7  8  00 00 60 09 08 00 98 08 
   965)     9929.3  Rx       310  8  01 00 02 00 00 00 00 00 
   966)     9930.9  Rx       12A  8  11 00 00 88 13 02 02 00 
   967)     9931.2  Rx       10B  8  05 0F 01 00 00 00 00 00 
   968)     9939.0  Rx       12C  8  8C 0A 88 90 00 00 00 00 
   969)     9939.4  Rx       12D  8  30 75 00 00 E0 2E 01 00 
   970)     9939.7  Rx       50E  8  00 00 00 00 00 00 00 00 
   971)     9940.1  Rx       10C  8  00 00 80 00 00 00 00 00 
   972)     9949.4  Rx       19F  8  00 00 00 00 2D 27 00 00 
   973)     9959.4  Rx       50F  8  2D 27 72 00 75 05 22 02 
   974)     9969.3  Rx       1A7  8  00 00 60 09 08 00 98 08 
   975)    10029.5  Rx       310  8  01 00 02 00 00 00 00 00 
   976)    10031.1  Rx       12A  8  11 00 00 88 13 02 02 00 
   977)    10031.4  Rx       10B  8  05 0F 01 00 00 00 00 00 
   978)    10039.2  Rx       12C  8  8C 0A 88 90 00 00 00 00 
   979)    10039.5  Rx       50E  8  00 00 00 00 00 00 00 00 
   980)    10040.3  Rx       12D  8  30 75 00 00 E0 2E 01 00 
   981)    10040.5  Rx       10C  8  00 00 80 00 00 00 00 00 
   982)    10049.4  Rx       19F  8  00 00 00 00 2D 27 00 00 
   983)    10059.4  Rx       50F  8  2D 27 7A 00 78 05 22 02 
   984)    10069.5  Rx       1A7  8  00 00 60 09 08 00 98 08 
   985)    10129.6  Rx       310  8  01 00 02 00 00 00 00 00 
   986)    10131.4  Rx       10B  8  05 0F 01 00 00 00 00 00 
   987)    10131.8  Rx       12A  8  11 00 00 88 13 02 02 00 
   988)    10139.4  Rx       12C  8  8C 0A 88 90 00 00 00 00 
   989)    10139.8  Rx       50E  8  00 00 00 00 00 00 00 00 
   990)    10141.4  Rx       12D  8  30 75 00 00 E0 2E 01 00 
   991)    10141.7  Rx       10C  8  00 00 80 00 00 00 00 00 
   992)    10149.6  Rx       19F  8  00 00 00 00 2D 27 00 00 
   993)    10159.4  Rx       50F  8  2D 27 71 00 78 05 22 02 
   994)    10169.4  Rx       1A7  8  00 00 60 09 08 00 98 08 
   995)    10229.7  Rx       310  8  01 00 02 00 00 00 00 00 
   996)    10232.3  Rx       10B  8  05 0F 01 00 00 00 00 00 
   997)    10232.6  Rx       12A  8  11 00 00 88 13 02 02 00 
   998)    10239.5  Rx       50E  8  00 00 00 00 00 00 00 00 
   999)    10240.3  Rx       12C  8  8C 0A 88 90 00 00 00 00 
  1000)    10242.3  Rx       10C  8  00 00 80 00 00 00 00 00 
  1001)    10242.7  Rx       12D  8  30 75 00 00 E0 2E 01 00 
  1002)    10249.5  Rx       19F  8  00 00 00 00 2C 27 00 00 
  1003)    10259.3  Rx       50F  8  2D 27 70 00 76 05 22 02 
  1004)    10269.6  Rx       1A7  8  00 00 60 09 08 00 98 08 
  1005)    10329.6  Rx       310  8  01 00 02 00 00 00 00 00 
  1006)    10332.8  Rx       12A  8  11 00 00 88 13 02 02 00 
  1007)    10333.1  Rx       10B  8  05 0F 01 00 00 00 00 00 
  1008)    10339.6  Rx       50E  8  00 00 00 00 00 00 00 00 
  1009)    10340.7  Rx       12C  8  8C 0A 88 90 00 00 00 00 
  1010)    10342.8  Rx       12D  8  30 75 00 00 E0 2E 01 00 
  1011)    10343.1  Rx       10C  8  00 00 80 00 00 00 00 00 
  1012)    10349.4  Rx       19F  8  00 00 00 00 2D 27 00 00 
  1013)    10359.5  Rx       50F  8  2C 27 76 00 77 05 22 02 
  1014)    10369.5  Rx       1A7  8  00 00 60 09 08 00 98 08 
  1015)    10429.5  Rx       310  8  01 00 02 00 00 00 00 00 
  1016)    10433.1  Rx       10B  8  05 0F 01 00 00 00 00 00 
  1017)    10433.4  Rx       12A  8  11 00 00 88 13 02 02 00 
  1018)    10439.5  Rx       50E  8  00 00 00 00 00 00 00 00 
  1019)    10440.7  Rx       12C  8  8C 0A 88 90 00 00 00 00 
  1020)    10443.9  Rx       10C  8  00 00 80 00 00 00 00 00 
  1021)    10444.3  Rx       12D  8  30 75 00 00 E0 2E 01 00 
  1022)    10449.5  Rx       19F  8  00 00 00 00 2D 27 00 00 
  1023)    10459.4  Rx       50F  8  2D 27 75 00 76 05 22 02 
  1024)    10469.5  Rx       1A7  8  00 00 60 09 08 00 98 08 
  1025)    10529.4  Rx       310  8  01 00 02 00 00 00 00 00 
  1026)    10534.0  Rx       12A  8  11 00 00 88 13 02 02 00 
  1027)    10534.3  Rx       10B  8  05 0F 01 00 00 00 00 00 
  1028)    10539.4  Rx       50E  8  00 00 00 00 00 00 00 00 
  1029)    10541.0  Rx       12C  8  8C 0A 88 90 00 00 00 00 
  1030)    10544.3  Rx       12D  8  30 75 00 00 E0 2E 01 00 
  1031)    10544.6  Rx       10C  8  00 00 80 00 00 00 00 00 
  1032)    10549.6  Rx       19F  8  00 00 00 00 2C 27 00 00 
  1033)    10559.3  Rx       50F  8  2D 27 73 00 74 05 22 02 
  1034)    10569.4  Rx       1A7  8  00 00 60 09 08 00 98 08 
  1035)    10574.2  Rx   8192A3B  1  00 
  1036)    10579.4  Rx  10000201  8  03 02 02 00 00 00 03 00 
  1037)    10589.6  Rx  10000202  8  00 00 00 00 00 00 00 00 
  1038)    10599.5  Rx  10000203  8  19 00 00 00 6C 0E 24 27 
  1039)    10609.5  Rx  10000204  8  F8 26 90 FF 75 05 22 02 
  1040)    10619.6  Rx  10000205  8  01 00 64 64 64 64 00 00 
  1041)    10619.9  Rx  10000206  8  00 00 98 08 60 09 98 08 
  1042)    10620.0  Rx  10000207  8  00 00 00 00 49 15 00 00 
  1043)    10620.1  Rx  10000208  8  00 00 00 00 00 00 00 00 
  1044)    10629.5  Rx       310  8  01 00 02 00 00 00 00 00 
  1045)    10634.4  Rx       12A  8  11 00 00 88 13 02 02 00 
  1046)    10634.7  Rx       10B  8  05 0F 01 00 00 00 00 00 
  1047)    10639.5  Rx       50E  8  00 00 00 00 00 00 00 00 
  1048)    10641.8  Rx       12C  8  8C 0A 88 90 00 00 00 00 
  1049)    10644.9  Rx       12D  8  30 75 00 00 E0 2E 01 00 
  1050)    10645.2  Rx       10C  8  00 00 80 00 00 00 00 00 
  1051)    10649.4  Rx       19F  8  00 00 00 00 2C 27 00 00 
  1052)    10659.3  Rx       50F  8  2D 27 71 00 73 05 22 02 
  1053)    10669.5  Rx       1A7  8  00 00 60 09 08 00 98 08 
  1054)    10730.1  Rx       310  8  01 00 02 00 00 00 00 00 
  1055)    10734.8  Rx       12A  8  11 00 00 88 13 02 02 00 
  1056)    10735.1  Rx       10B  8  05 0F 01 00 00 00 00 00 
  1057)    10739.3  Rx       50E  8  00 00 00 00 00 00 00 00 
  1058)    10742.2  Rx       12C  8  8C 0A 88 90 00 00 00 00 
  1059)    10745.8  Rx       10C  8  00 00 80 00 00 00 00 00 
  1060)    10746.1  Rx       12D  8  30 75 00 00 E0 2E 01 00 
  1061)    10749.7  Rx       19F  8  00 00 00 00 2C 27 00 00 
  1062)    10759.5  Rx       50F  8  2C 27 73 00 77 05 22 02 
  1063)    10769.4  Rx       1A7  8  00 00 60 09 08 00 98 08 
  1064)    10829.4  Rx       310  8  01 00 02 00 00 00 00 00 
  1065)    10835.4  Rx       10B  8  05 0F 01 00 00 00 00 00 
  1066)    10835.7  Rx       12A  8  11 00 00 88 13 02 02 00 
  1067)    10839.5  Rx       50E  8  00 00 00 00 00 00 00 00 
  1068)    10842.4  Rx       12C  8  8C 0A 88 90 00 00 00 00 
  1069)    10846.4  Rx       12D  8  30 75 00 00 E0 2E 01 00 
  1070)    10846.6  Rx       10C  8  00 00 80 00 00 00 00 00 
  1071)    10849.5  Rx       19F  8  00 00 00 00 2D 27 00 00 
  1072)    10859.4  Rx       50F  8  2D 27 72 00 75 05 22 02 
  1073)    10869.4  Rx       1A7  8  00 00 60 09 08 00 98 08 
  1074)    10930.0  Rx       310  8  01 00 02 00 00 00 00 00 
  1075)    10936.1  Rx       10B  8  05 0F 01 00 00 00 00 00 
  1076)    10936.4  Rx       12A  8  11 00 00 88 13 02 02 00 
  1077)    10939.5  Rx       50E  8  00 00 00 00 00 00 00 00 
  1078)    10943.5  Rx       12C  8  8C 0A 88 90 00 00 00 00 
  1079)    10946.4  Rx       12D  8  30 75 00 00 E0 2E 01 00 
  1080)    10946.7  Rx       10C  8  00 00 80 00 00 00 00 00 
  1081)    10949.6  Rx       19F  8  00 00 00 00 2C 27 00 00 
  1082)    10959.4  Rx       50F  8  2D 27 72 00 74 05 22 02 
  1083)    10969.4  Rx       1A7  8  00 00 60 09 08 00 60 09 
  1084)    11029.5  Rx       310  8  01 00 02 00 00 00 00 00 
  1085)    11037.3  Rx       12A  8  11 00 00 88 13 02 02 00 
  1086)    11038.1  Rx       10B  8  05 0F 01 00 00 00 00 00 
  1087)    11039.5  Rx       50E  8  00 00 00 00 00 00 00 00 
  1088)    11044.3  Rx       12C  8  8C 0A 88 90 00 00 00 00 
  1089)    11047.3  Rx       10C  8  00 00 80 00 00 00 00 00 
  1090)    11047.8  Rx       12D  8  30 75 00 00 E0 2E 01 00 
  1091)    11049.5  Rx       19F  8  00 00 00 00 2D 27 00 00 
  1092)    11059.3  Rx       50F  8  2D 27 71 00 74 05 22 02 
  1093)    11069.3  Rx       1A7  8  00 00 60 09 08 00 60 09 
  1094)    11129.6  Rx       310  8  01 00 02 00 00 00 00 00 
  1095)    11138.7  Rx       10B  8  05 0F 01 00 00 00 00 00 
  1096)    11139.9  Rx       12A  8  11 00 00 88 13 02 02 00 
  1097)    11140.1  Rx       50E  8  00 00 00 00 00 00 00 00 
  1098)    11144.9  Rx       12C  8  8C 0A 88 90 00 00 00 00 
  1099)    11148.1  Rx       12D  8  30 75 00 00 E0 2E 01 00 
  1100)    11148.7  Rx       10C  8  00 00 80 00 00 00 00 00 
  1101)    11149.5  Rx       19F  8  00 00 00 00 2C 27 00 00 
  1102)    11159.4  Rx       50F  8  2D 27 70 00 74 05 22 02 
  1103)    11169.4  Rx       1A7  8  00 00 60 09 08 00 60 09 
  1104)    11229.5  Rx       310  8  01 00 02 00 00 00 00 00 
  1105)    11239.4  Rx       50E  8  00 00 00 00 00 00 00 00 
  1106)    11239.8  Rx       10B  8  05 0F 01 00 00 00 00 00 
  1107)    11240.0  Rx       12A  8  11 00 00 88 13 02 02 00 
  1108)    11245.0  Rx       12C  8  8C 0A 88 90 00 00 00 00 
  1109)    11249.0  Rx       12D  8  30 75 00 00 E0 2E 01 00 
  1110)    11249.5  Rx       19F  8  00 00 00 00 2C 27 00 00 
  1111)    11250.0  Rx       10C  8  00 00 80 00 00 00 00 00 
  1112)    11259.5  Rx       50F  8  2D 27 72 00 75 05 22 02 
  1113)    11269.3  Rx       1A7  8  00 00 60 09 08 00 60 09 
  1114)    11329.5  Rx       310  8  01 00 02 00 00 00 00 00 
  1115)    11339.3  Rx       50E  8  00 00 00 00 00 00 00 00 
  1116)    11339.9  Rx       10B  8  05 0F 01 00 00 00 00 00 
  1117)    11340.2  Rx       12A  8  11 00 00 88 13 02 02 00 
  1118)    11346.0  Rx       12C  8  8C 0A 88 90 00 00 00 00 
  1119)    11349.2  Rx       12D  8  30 75 00 00 E0 2E 01 00 
  1120)    11349.5  Rx       19F  8  00 00 00 00 2C 27 00 00 
  1121)    11350.0  Rx       10C  8  00 00 80 00 00 00 00 00 
  1122)    11359.9  Rx       50F  8  2D 27 6C 00 75 05 22 02 
  1123)    11369.4  Rx       1A7  8  00 00 60 09 08 00 60 09 
  1124)    11429.5  Rx       310  8  01 00 02 00 00 00 00 00 
  1125)    11439.6  Rx       50E  8  00 00 00 00 00 00 00 00 
  1126)    11440.1  Rx       12A  8  11 00 00 88 13 02 02 00 
  1127)    11440.4  Rx       10B  8  05 0F 01 00 00 00 00 00 
  1128)    11446.5  Rx       12C  8  8C 0A 88 90 00 00 00 00 
  1129)    11449.4  Rx       12D  8  30 75 00 00 E0 2E 01 00 
  1130)    11450.0  Rx       19F  8  00 00 00 00 2C 27 00 00 
  1131)    11450.4  Rx       10C  8  00 00 80 00 00 00 00 00 
  1132)    11459.5  Rx       50F  8  2C 27 73 00 79 05 22 02 
  1133)    11469.3  Rx       1A7  8  00 00 60 09 08 00 60 09 
  1134)    11529.5  Rx       310  8  01 00 02 00 00 00 00 00 
  1135)    11539.7  Rx       50E  8  00 00 00 00 00 00 00 00 
  1136)    11541.0  Rx       12A  8  11 00 00 88 13 02 02 00 
  1137)    11541.3  Rx       10B  8  05 0F 01 00 00 00 00 00 
  1138)    11547.0  Rx       12C  8  8C 0A 88 90 00 00 00 00 
  1139)    11549.8  Rx       19F  8  00 00 00 00 2C 27 00 00 
  1140)    11550.1  Rx       12D  8  30 75 00 00 E0 2E 01 00 
  1141)    11551.0  Rx       10C  8  00 00 80 00 00 00 00 00 
  1142)    11559.2  Rx       50F  8  2D 27 6B 00 76 05 22 02 
  1143)    11569.4  Rx       1A7  8  00 00 60 09 08 00 60 09 
  1144)    11575.2  Rx   8192A3B  1  00 
  1145)    11579.3  Rx  10000201  8  03 02 02 00 00 00 03 00 
  1146)    11589.5  Rx  10000202  8  00 00 00 00 00 00 00 00 
  1147)    11599.7  Rx  10000203  8  2D 00 00 00 6E 0E 29 27 
  1148)    11609.6  Rx  10000204  8  FC 26 8F FF 76 05 22 02 
  1149)    11619.4  Rx  10000205  8  01 00 64 64 64 64 00 00 
  1150)    11619.8  Rx  10000206  8  00 00 60 09 60 09 98 08 
  1151)    11620.0  Rx  10000207  8  00 00 00 00 21 15 00 00 
  1152)    11620.2  Rx  10000208  8  00 00 00 00 00 00 00 00 
  1153)    11629.3  Rx       310  8  01 00 02 00 00 00 00 00 
  1154)    11639.4  Rx       50E  8  00 00 00 00 00 00 00 00 
  1155)    11641.7  Rx       10B  8  05 0F 01 00 00 00 00 00 
  1156)    11642.0  Rx       12A  8  11 00 00 88 13 02 02 00 
  1157)    11647.7  Rx       12C  8  8C 0A 88 90 00 00 00 00 
  1158)    11649.3  Rx       19F  8  00 00 00 00 2D 27 00 00 
  1159)    11650.7  Rx       12D  8  30 75 00 00 E0 2E 01 00 
  1160)    11651.7  Rx       10C  8  00 00 80 00 00 00 00 00 
  1161)    11659.3  Rx       50F  8  2D 27 6F 00 75 05 22 02 
  1162)    11669.3  Rx       1A7  8  00 00 60 09 08 00 60 09 
  1163)    11729.5  Rx       310  8  01 00 02 00 00 00 00 00 
  1164)    11739.6  Rx       50E  8  00 00 00 00 00 00 00 00 
  1165)    11741.7  Rx       10B  8  05 0F 01 00 00 00 00 00 
  1166)    11742.0  Rx       12A  8  11 00 00 88 13 02 02 00 
  1167)    11747.9  Rx       12C  8  8C 0A 88 90 00 00 00 00 
  1168)    11749.3  Rx       19F  8  00 00 00 00 2C 27 00 00 
  1169)    11750.9  Rx       12D  8  30 75 00 00 E0 2E 01 00 
  1170)    11751.9  Rx       10C  8  00 00 80 00 00 00 00 00 
  1171)    11759.4  Rx       50F  8  2D 27 71 00 76 05 22 02 
  1172)    11769.4  Rx       1A7  8  00 00 60 09 08 00 60 09 
  1173)    11829.4  Rx       310  8  01 00 02 00 00 00 00 00 
  1174)    11839.4  Rx       50E  8  00 00 00 00 00 00 00 00 
  1175)    11842.1  Rx       12A  8  11 00 00 88 13 02 02 00 
  1176)    11842.5  Rx       10B  8  05 0F 01 00 00 00 00 00 
  1177)    11848.2  Rx       12C  8  8C 0A 88 90 00 00 00 00 
  1178)    11849.6  Rx       19F  8  00 00 00 00 2B 27 00 00 
  1179)    11851.1  Rx       12D  8  30 75 00 00 E0 2E 01 00 
  1180)    11852.3  Rx       10C  8  00 00 80 00 00 00 00 00 
  1181)    11859.2  Rx       50F  8  2E 27 6F 00 76 05 22 02 
  1182)    11869.5  Rx       1A7  8  00 00 60 09 08 00 60 09 
  1183)    11929.5  Rx       310  8  01 00 02 00 00 00 00 00 
  1184)    11939.6  Rx       50E  8  00 00 00 00 00 00 00 00 
  1185)    11942.3  Rx       12A  8  11 00 00 88 13 02 02 00 
  1186)    11942.6  Rx       10B  8  05 0F 01 00 00 00 00 00 
  1187)    11948.5  Rx       12C  8  8C 0A 88 90 00 00 00 00 
  1188)    11949.4  Rx       19F  8  00 00 00 00 2D 27 00 00 
  1189)    11951.5  Rx       12D  8  30 75 00 00 E0 2E 01 00 
  1190)    11952.5  Rx       10C  8  00 00 80 00 00 00 00 00 
  1191)    11959.4  Rx       50F  8  2D 27 73 00 76 05 22 02 
  1192)    11969.3  Rx       1A7  8  00 00 60 09 08 00 60 09 
  1193)    12029.5  Rx       310  8  01 00 02 00 00 00 00 00 
  1194)    12039.6  Rx       50E  8  00 00 00 00 00 00 00 00 
  1195)    12042.5  Rx       12A  8  11 00 00 88 13 02 02 00 
  1196)    12042.7  Rx       10B  8  05 0F 01 00 00 00 00 00 
  1197)    12048.9  Rx       12C  8  8C 0A 88 90 00 00 00 00 
  1198)    12049.6  Rx       19F  8  00 00 00 00 2C 27 00 00 
  1199)    12051.8  Rx       12D  8  30 75 00 00 E0 2E 01 00 
  1200)    12052.6  Rx       10C  8  00 00 80 00 00 00 00 00 
  1201)    12059.5  Rx       50F  8  2C 27 77 00 75 05 22 02 
  1202)    12069.4  Rx       1A7  8  00 00 60 09 08 00 60 09 
  1203)    12129.4  Rx       310  8  01 00 02 00 00 00 00 00 
  1204)    12139.4  Rx       50E  8  00 00 00 00 00 00 00 00 
  1205)    12143.2  Rx       10B  8  05 0F 01 00 00 00 00 00 
  1206)    12143.5  Rx       12A  8  11 00 00 88 13 02 02 00 
  1207)    12149.5  Rx       19F  8  00 00 00 00 2E 27 00 00 
  1208)    12149.7  Rx       12C  8  8C 0A 88 90 00 00 00 00 
  1209)    12152.5  Rx       12D  8  30 75 00 00 E0 2E 01 00 
  1210)    12153.5  Rx       10C  8  00 00 80 00 00 00 00 00 
  1211)    12159.1  Rx       50F  8  2D 27 6D 00 76 05 22 02 
  1212)    12169.3  Rx       1A7  8  00 00 60 09 08 00 60 09 
  1213)    12229.4  Rx       310  8  01 00 02 00 00 00 00 00 
  1214)    12239.3  Rx       50E  8  00 00 00 00 00 00 00 00 
  1215)    12243.5  Rx       10B  8  05 0F 01 00 00 00 00 00 
  1216)    12243.9  Rx       12A  8  11 00 00 88 13 02 02 00 
  1217)    12249.4  Rx       19F  8  00 00 00 00 2D 27 00 00 
  1218)    12249.7  Rx       12C  8  8C 0A 88 90 00 00 00 00 
  1219)    12253.2  Rx       12D  8  30 75 00 00 E0 2E 01 00 
  1220)    12253.9  Rx       10C  8  00 00 80 00 00 00 00 00 
  1221)    12259.3  Rx       50F  8  2C 27 6F 00 74 05 22 02 
  1222)    12269.3  Rx       1A7  8  00 00 60 09 08 00 60 09 
  1223)    12279.3  Rx       644  8  13 0A 00 00 03 00 00 00 
  1224)    12289.5  Rx       645  8  05 00 00 00 00 00 00 00 
  1225)    12329.4  Rx       310  8  01 00 02 00 00 00 00 00 
  1226)    12339.6  Rx       50E  8  00 00 00 00 00 00 00 00 
  1227)    12343.8  Rx       10B  8  05 0F 01 00 00 00 00 00 
  1228)    12344.1  Rx       12A  8  11 00 00 88 13 02 02 00 
  1229)    12349.4  Rx       19F  8  00 00 00 00 2C 27 00 00 
  1230)    12350.9  Rx       12C  8  8C 0A 88 90 00 00 00 00 
  1231)    12353.6  Rx       12D  8  30 75 00 00 E0 2E 01 00 
  1232)    12354.7  Rx       10C  8  00 00 80 00 00 00 00 00 
  1233)    12359.2  Rx       50F  8  2D 27 70 00 77 05 22 02 
  1234)    12369.5  Rx       1A7  8  00 00 60 09 08 00 60 09 
  1235)    12429.5  Rx       310  8  01 00 02 00 00 00 00 00 
  1236)    12439.5  Rx       50E  8  00 00 00 00 00 00 00 00 
  1237)    12443.8  Rx       12A  8  11 00 00 88 13 02 02 00 
  1238)    12444.2  Rx       10B  8  05 0F 01 00 00 00 00 00 
  1239)    12449.7  Rx       19F  8  00 00 00 00 2C 27 00 00 
  1240)    12450.8  Rx       12C  8  8C 0A 88 90 00 00 00 00 
  1241)    12453.8  Rx       12D  8  30 75 00 00 E0 2E 01 00 
  1242)    12454.9  Rx       10C  8  00 00 80 00 00 00 00 00 
  1243)    12459.4  Rx       50F  8  2D 27 6F 00 77 05 22 02 
  1244)    12469.5  Rx       1A7  8  00 00 60 09 08 00 60 09 
  1245)    12529.6  Rx       310  8  01 00 02 00 00 00 00 00 
  1246)    12539.3  Rx       50E  8  00 00 00 00 00 00 00 00 
  1247)    12544.0  Rx       10B  8  05 0F 01 00 00 00 00 00 
  1248)    12544.2  Rx       12A  8  11 00 00 88 13 02 02 00 
  1249)    12549.4  Rx       19F  8  00 00 00 00 2D 27 00 00 
  1250)    12551.0  Rx       12C  8  8C 0A 88 90 00 00 00 00 
  1251)    12553.9  Rx       12D  8  30 75 00 00 E0 2E 01 00 
  1252)    12554.9  Rx       10C  8  00 00 80 00 00 00 00 00 
  1253)    12559.4  Rx       50F  8  2C 27 74 00 75 05 22 02 
  1254)    12569.5  Rx       1A7  8  00 00 60 09 08 00 60 09 
  1255)    12575.2  Rx   8192A3B  1  00 
  1256)    12580.1  Rx  10000201  8  03 02 02 00 00 00 03 00 
  1257)    12589.4  Rx  10000202  8  00 00 00 00 00 00 00 00 
  1258)    12599.7  Rx  10000203  8  34 00 00 00 6F 0E 2B 27 
  1259)    12609.5  Rx  10000204  8  FF 26 90 FF 78 05 22 02 
  1260)    12619.4  Rx  10000205  8  01 00 64 64 64 64 00 00 
  1261)    12619.7  Rx  10000206  8  00 00 60 09 60 09 98 08 
  1262)    12619.8  Rx  10000207  8  00 00 00 00 15 15 00 00 
  1263)    12619.9  Rx  10000208  8  00 00 00 00 00 00 00 00 
  1264)    12629.5  Rx       310  8  01 00 02 00 00 00 00 00 
  1265)    12639.5  Rx       50E  8  00 00 00 00 00 00 00 00 
  1266)    12644.5  Rx       12A  8  11 00 00 88 13 02 02 00 
  1267)    12644.8  Rx       10B  8  05 0F 01 00 00 00 00 00 
  1268)    12649.5  Rx       19F  8  00 00 00 00 2C 27 00 00 
  1269)    12651.5  Rx       12C  8  8C 0A 88 90 00 00 00 00 
  1270)    12654.5  Rx       12D  8  30 75 00 00 E0 2E 01 00 
  1271)    12655.5  Rx       10C  8  00 00 80 00 00 00 00 00 
  1272)    12659.3  Rx       50F  8  2C 27 74 00 76 05 22 02 
  1273)    12669.5  Rx       1A7  8  00 00 60 09 08 00 60 09 
  1274)    12729.5  Rx       310  8  01 00 02 00 00 00 00 00 
  1275)    12739.4  Rx       50E  8  00 00 00 00 00 00 00 00 
  1276)    12744.8  Rx       10B  8  05 0F 01 00 00 00 00 00 
  1277)    12745.1  Rx       12A  8  11 00 00 88 13 02 02 00 
  1278)    12749.5  Rx       19F  8  00 00 00 00 2D 27 00 00 
  1279)    12751.7  Rx       12C  8  8C 0A 88 90 00 00 00 00 
  1280)    12754.7  Rx       12D  8  30 75 00 00 E0 2E 01 00 
  1281)    12755.8  Rx       10C  8  00 00 80 00 00 00 00 00 
  1282)    12759.5  Rx       50F  8  2C 27 73 00 76 05 22 02 
  1283)    12769.3  Rx       1A7  8  00 00 60 09 08 00 60 09 
  1284)    12829.5  Rx       310  8  01 00 02 00 00 00 00 00 
  1285)    12839.2  Rx       50E  8  00 00 00 00 00 00 00 00 
  1286)    12845.7  Rx       12A  8  11 00 00 88 13 02 02 00 
  1287)    12846.0  Rx       10B  8  05 0F 01 00 00 00 00 00 
  1288)    12849.3  Rx       19F  8  00 00 00 00 2D 27 00 00 
  1289)    12851.8  Rx       12C  8  8C 0A 88 90 00 00 00 00 
  1290)    12854.9  Rx       12D  8  30 75 00 00 E0 2E 01 00 
  1291)    12856.0  Rx       10C  8  00 00 80 00 00 00 00 00 
  1292)    12859.3  Rx       50F  8  2D 27 6D 00 73 05 22 02 
  1293)    12869.3  Rx       1A7  8  00 00 60 09 08 00 60 09 
  1294)    12929.7  Rx       310  8  01 00 02 00 00 00 00 00 
  1295)    12939.6  Rx       50E  8  00 00 00 00 00 00 00 00 
  1296)    12946.0  Rx       10B  8  05 0F 01 00 00 00 00 00 
  1297)    12946.3  Rx       12A  8  11 00 00 88 13 02 02 00 
  1298)    12949.2  Rx       19F  8  00 00 00 00 2D 27 00 00 
  1299)    12951.9  Rx       12C  8  8C 0A 88 90 00 00 00 00 
  1300)    12955.1  Rx       12D  8  30 75 00 00 E0 2E 01 00 
  1301)    12957.7  Rx       10C  8  00 00 80 00 00 00 00 00 
  1302)    12959.5  Rx       50F  8  2D 27 70 00 77 05 22 02 
  1303)    12969.5  Rx       1A7  8  00 00 60 09 08 00 60 09 
  1304)    13029.4  Rx       310  8  01 00 02 00 00 00 00 00 
  1305)    13039.4  Rx       50E  8  00 00 00 00 00 00 00 00 
  1306)    13047.0  Rx       10B  8  05 0F 01 00 00 00 00 00 
  1307)    13047.3  Rx       12A  8  11 00 00 88 13 02 02 00 
  1308)    13049.3  Rx       19F  8  00 00 00 00 2D 27 00 00 
  1309)    13052.0  Rx       12C  8  8C 0A 88 90 00 00 00 00 
  1310)    13055.0  Rx       12D  8  30 75 00 00 E0 2E 01 00 
  1311)    13057.8  Rx       10C  8  00 00 80 00 00 00 00 00 
  1312)    13059.4  Rx       50F  8  2C 27 6A 00 75 05 22 02 
  1313)    13069.3  Rx       1A7  8  00 00 60 09 08 00 60 09 
  1314)    13129.4  Rx       310  8  01 00 02 00 00 00 00 00 
  1315)    13139.4  Rx       50E  8  00 00 00 00 00 00 00 00 
  1316)    13147.9  Rx       10B  8  05 0F 01 00 00 00 00 00 
  1317)    13148.2  Rx       12A  8  11 00 00 88 13 02 02 00 
  1318)    13149.4  Rx       19F  8  00 00 00 00 2C 27 00 00 
  1319)    13152.0  Rx       12C  8  8C 0A 88 90 00 00 00 00 
  1320)    13155.0  Rx       12D  8  30 75 00 00 E0 2E 01 00 
  1321)    13157.8  Rx       10C  8  00 00 80 00 00 00 00 00 
  1322)    13159.3  Rx       50F  8  2D 27 74 00 76 05 22 02 
  1323)    13169.3  Rx       1A7  8  00 00 60 09 08 00 60 09 
  1324)    13229.4  Rx       310  8  01 00 02 00 00 00 00 00 
  1325)    13239.4  Rx       50E  8  00 00 00 00 00 00 00 00 
  1326)    13248.3  Rx       10B  8  05 0F 01 00 00 00 00 00 
  1327)    13248.7  Rx       12A  8  11 00 00 88 13 02 02 00 
  1328)    13249.5  Rx       19F  8  00 00 00 00 2D 27 00 00 
  1329)    13252.4  Rx       12C  8  8C 0A 88 90 00 00 00 00 
  1330)    13255.4  Rx       12D  8  30 75 00 00 E0 2E 01 00 
  1331)    13257.8  Rx       10C  8  00 00 80 00 00 00 00 00 
  1332)    13259.4  Rx       50F  8  2C 27 73 00 74 05 22 02 
  1333)    13269.3  Rx       1A7  8  00 00 60 09 08 00 60 09 
  1334)    13329.2  Rx       310  8  01 00 02 00 00 00 00 00 
  1335)    13339.9  Rx       50E  8  00 00 00 00 00 00 00 00 
  1336)    13348.5  Rx       12A  8  11 00 00 88 13 02 02 00 
  1337)    13348.7  Rx       10B  8  05 0F 01 00 00 00 00 00 
  1338)    13349.7  Rx       19F  8  00 00 00 00 2C 27 00 00 
  1339)    13352.5  Rx       12C  8  8C 0A 88 90 00 00 00 00 
  1340)    13355.5  Rx       12D  8  30 75 00 00 E0 2E 01 00 
  1341)    13357.7  Rx       10C  8  00 00 80 00 00 00 00 00 
  1342)    13359.3  Rx       50F  8  2B 27 70 00 77 05 22 02 
  1343)    13369.3  Rx       1A7  8  00 00 60 09 08 00 60 09 
  1344)    13430.1  Rx       310  8  01 00 02 00 00 00 00 00 
  1345)    13439.4  Rx       50E  8  00 00 00 00 00 00 00 00 
  1346)    13448.7  Rx       10B  8  05 0F 01 00 00 00 00 00 
  1347)    13449.0  Rx       12A  8  11 00 00 88 13 02 02 00 
  1348)    13449.4  Rx       19F  8  00 00 00 00 2C 27 00 00 
  1349)    13453.5  Rx       12C  8  8C 0A 88 90 00 00 00 00 
  1350)    13456.5  Rx       12D  8  30 75 00 00 E0 2E 01 00 
  1351)    13458.7  Rx       10C  8  00 00 80 00 00 00 00 00 
  1352)    13459.2  Rx       50F  8  2D 27 6C 00 76 05 22 02 
  1353)    13469.4  Rx       1A7  8  00 00 60 09 08 00 60 09 
  1354)    13529.5  Rx       310  8  01 00 02 00 00 00 00 00 
  1355)    13539.5  Rx       50E  8  00 00 00 00 00 00 00 00 
  1356)    13549.4  Rx       10B  8  05 0F 01 00 00 00 00 00 
  1357)    13550.2  Rx       12A  8  11 00 00 88 13 02 02 00 
  1358)    13550.7  Rx       19F  8  0C 44 00 00 2D 27 00 00 
  1359)    13554.4  Rx       12C  8  8C 0A 88 90 00 00 00 00 
  1360)    13558.1  Rx       12D  8  30 75 00 00 E0 2E 01 00 
  1361)    13559.2  Rx       10C  8  00 00 80 00 00 00 00 00 
  1362)    13559.7  Rx       50F  8  2D 27 6E 00 74 05 22 02 
  1363)    13569.4  Rx       1A7  8  00 00 60 09 08 00 60 09 
  1364)    13575.5  Rx   8192A3B  1  00 
  1365)    13579.3  Rx  10000201  8  03 02 02 00 00 00 03 00 
  1366)    13589.6  Rx  10000202  8  00 00 00 00 00 00 00 00 
  1367)    13599.4  Rx  10000203  8  2E 3A 00 00 6F 0E 2C 27 
  1368)    13609.4  Rx  10000204  8  FF 26 90 FF 74 05 22 02 
  1369)    13619.8  Rx  10000205  8  10 64 64 57 64 64 00 57 
  1370)    13620.2  Rx  10000206  8  00 00 60 09 60 09 98 08 
  1371)    13628.3  Rx  10000207  8  00 00 00 00 58 13 00 00 
  1372)    13631.5  Rx  10000208  8  00 00 00 00 00 00 00 00 
  1373)    13631.7  Rx       310  8  83 00 02 00 00 00 00 00 
  1374)    13639.5  Rx       50E  8  00 00 00 00 00 00 00 00 
  1375)    13649.3  Rx       19F  8  CC 59 00 00 2D 27 00 00 
  1376)    13649.6  Rx       10B  8  05 0F 01 00 00 00 00 00 
  1377)    13650.6  Rx       12A  8  11 00 00 88 13 02 02 00 
  1378)    13654.6  Rx       12C  8  8C 0A 88 90 00 00 00 00 
  1379)    13659.1  Rx       12D  8  30 75 00 00 E0 2E 01 00 
  1380)    13659.6  Rx       50F  8  2C 27 75 00 78 05 22 02 
  1381)    13659.9  Rx       10C  8  00 00 80 00 00 00 00 00 
  1382)    13669.3  Rx       1A7  8  00 00 60 09 08 00 60 09 
  1383)    13729.5  Rx       310  8  83 00 02 00 00 00 00 00 
  1384)    13739.4  Rx       50E  8  00 00 00 00 00 00 00 00 
  1385)    13749.4  Rx       19F  8  FE 59 00 00 2E 27 00 00 
  1386)    13749.7  Rx       10B  8  05 0F 01 00 00 00 00 00 
  1387)    13750.6  Rx       12A  8  11 00 00 88 13 02 02 00 
  1388)    13754.7  Rx       12C  8  8C 0A 88 90 00 00 00 00 
  1389)    13759.1  Rx       12D  8  30 75 00 00 E0 2E 01 00 
  1390)    13759.5  Rx       50F  8  2C 27 73 00 78 05 23 02 
  1391)    13760.9  Rx       10C  8  00 00 80 00 00 00 00 00 
  1392)    13769.3  Rx       1A7  8  00 00 60 09 08 00 60 09 
  1393)    13829.4  Rx       310  8  83 00 02 00 00 00 00 00 
  1394)    13839.3  Rx       50E  8  00 00 00 00 00 00 00 00 
  1395)    13849.2  Rx       19F  8  F9 59 00 00 2E 27 00 00 
  1396)    13850.1  Rx       10B  8  05 0F 01 00 00 00 00 00 
  1397)    13851.1  Rx       12A  8  11 00 00 88 13 02 02 00 
  1398)    13855.2  Rx       12C  8  8C 0A 88 90 00 00 00 00 
  1399)    13859.1  Rx       50F  8  2C 27 6A 00 74 05 22 02 
  1400)    13859.5  Rx       12D  8  30 75 00 00 E0 2E 01 00 
  1401)    13861.0  Rx       10C  8  00 00 80 00 00 00 00 00 
  1402)    13869.3  Rx       1A7  8  00 00 60 09 08 00 60 09 
  1403)    13929.5  Rx       310  8  83 00 02 00 00 00 00 00 
  1404)    13939.4  Rx       50E  8  00 00 00 00 00 00 00 00 
  1405)    13949.4  Rx       19F  8  EC 59 00 00 2E 27 00 00 
  1406)    13950.9  Rx       10B  8  05 0F 01 00 00 00 00 00 
  1407)    13951.9  Rx       12A  8  11 00 00 88 13 02 02 00 
  1408)    13956.1  Rx       12C  8  8C 0A 88 90 00 00 00 00 
  1409)    13959.1  Rx       50F  8  2C 27 6F 00 75 05 22 02 
  1410)    13960.3  Rx       12D  8  30 75 00 00 E0 2E 01 00 
  1411)    13961.3  Rx       10C  8  00 00 80 00 00 00 00 00 
  1412)    13969.4  Rx       1A7  8  00 00 60 09 08 00 60 09 
  1413)    13997.1  Rx       12C  8  00 00 88 90 00 00 00 00 
  1414)    13998.3  Rx       12C  8  00 00 88 90 00 00 00 00 
  1415)    13998.8  Rx       12C  8  00 00 88 90 00 00 00 00 
  1416)    13999.7  Rx       12C  8  00 00 88 90 00 00 00 00 
  1417)    14029.3  Rx       310  8  83 00 02 00 00 00 00 00 
  1418)    14039.4  Rx       50E  8  00 00 00 00 00 00 00 00 
  1419)    14049.7  Rx       19F  8  13 5A 00 00 2E 27 00 00 
  1420)    14051.3  Rx       10B  8  05 0F 01 00 00 00 00 00 
  1421)    14052.5  Rx       12A  8  11 00 00 88 13 02 02 00 
  1422)    14059.3  Rx       50F  8  2C 27 72 00 74 05 22 02 
  1423)    14060.8  Rx       12D  8  30 75 00 00 E0 2E 01 00 
  1424)    14062.0  Rx       10C  8  00 00 80 00 00 00 00 00 
  1425)    14069.4  Rx       1A7  8  00 00 60 09 08 00 60 09 
  1426)    14102.4  Rx       12C  8  00 00 88 90 00 00 00 00 
  1427)    14129.2  Rx       310  8  83 00 02 00 00 00 00 00 
  1428)    14139.3  Rx       50E  8  00 00 00 00 00 00 00 00 
  1429)    14149.5  Rx       19F  8  00 5A 00 00 2E 27 00 00 
  1430)    14151.7  Rx       10B  8  05 0F 01 00 00 00 00 00 
  1431)    14152.5  Rx       12A  8  11 00 00 88 13 02 02 00 
  1432)    14159.3  Rx       50F  8  2D 27 74 00 77 05 23 02 
  1433)    14161.7  Rx       12D  8  30 75 00 00 E0 2E 01 00 
  1434)    14162.7  Rx       10C  8  00 00 80 00 00 00 00 00 
  1435)    14169.6  Rx       1A7  8  00 00 60 09 08 00 60 09 
  1436)    14203.9  Rx       12C  8  00 00 88 90 00 00 00 00 
  1437)    14229.3  Rx       310  8  83 00 02 00 00 00 00 00 
  1438)    14239.4  Rx       50E  8  00 00 00 00 00 00 00 00 
  1439)    14249.4  Rx       19F  8  02 5A 00 00 2E 27 00 00 
  1440)    14252.5  Rx       10B  8  05 0F 01 00 00 00 00 00 
  1441)    14253.3  Rx       12A  8  11 00 00 88 13 02 02 00 
  1442)    14259.2  Rx       50F  8  2C 27 72 00 76 05 22 02 
  1443)    14263.0  Rx       12D  8  30 75 00 00 E0 2E 01 00 
  1444)    14263.4  Rx       10C  8  00 00 80 00 00 00 00 00 
  1445)    14269.2  Rx       1A7  8  00 00 60 09 08 00 60 09 
  1446)    14304.8  Rx       12C  8  00 00 88 90 00 00 00 00 
  1447)    14329.3  Rx       310  8  83 00 02 00 00 00 00 00 
  1448)    14339.6  Rx       50E  8  00 00 00 00 00 00 00 00 
  1449)    14349.4  Rx       19F  8  02 5A 00 00 2E 27 00 00 
  1450)    14352.6  Rx       10B  8  05 0F 01 00 00 00 00 00 
  1451)    14353.6  Rx       12A  8  11 00 00 88 13 02 02 00 
  1452)    14359.4  Rx       50F  8  2C 27 72 00 77 05 22 02 
  1453)    14363.2  Rx       12D  8  30 75 00 00 E0 2E 01 00 
  1454)    14364.7  Rx       10C  8  00 00 80 00 00 00 00 00 
  1455)    14369.4  Rx       1A7  8  00 00 60 09 08 00 60 09 
  1456)    14405.3  Rx       12C  8  00 00 88 90 00 00 00 00 
  1457)    14429.2  Rx       310  8  83 00 02 00 00 00 00 00 
  1458)    14439.1  Rx       50E  8  00 00 00 00 00 00 00 00 
  1459)    14449.0  Rx       19F  8  F8 59 00 00 2E 27 00 00 
  1460)    14452.5  Rx       10B  8  05 0F 01 00 00 00 00 00 
  1461)    14453.5  Rx       12A  8  11 00 00 88 13 02 02 00 
  1462)    14459.1  Rx       50F  8  2D 27 6F 00 76 05 22 02 
  1463)    14463.9  Rx       12D  8  30 75 00 00 E0 2E 01 00 
  1464)    14464.9  Rx       10C  8  00 00 80 00 00 00 00 00 
  1465)    14469.4  Rx       1A7  8  00 00 60 09 08 00 60 09 
  1466)    14505.4  Rx       12C  8  00 00 88 90 00 00 00 00 
  1467)    14529.4  Rx       310  8  83 00 02 00 00 00 00 00 
  1468)    14539.8  Rx       50E  8  00 00 00 00 00 00 00 00 
  1469)    14549.5  Rx       19F  8  F7 59 00 00 2D 27 00 00 
  1470)    14553.5  Rx       10B  8  05 0F 01 00 00 00 00 00 
  1471)    14554.4  Rx       12A  8  11 00 00 88 13 02 02 00 
  1472)    14559.3  Rx       50F  8  2D 27 66 00 74 05 22 02 
  1473)    14565.0  Rx       12D  8  30 75 00 00 E0 2E 01 00 
  1474)    14565.4  Rx       10C  8  00 00 80 00 00 00 00 00 
  1475)    14569.6  Rx       1A7  8  00 00 60 09 08 00 60 09 
  1476)    14575.9  Rx   8192A3B  1  00 
  1477)    14579.3  Rx  10000201  8  03 02 02 00 00 00 03 00 
  1478)    14589.5  Rx  10000202  8  00 00 00 00 00 00 00 00 
  1479)    14599.4  Rx  10000203  8  1C 4F 00 00 6F 0E 2C 27 
  1480)    14605.5  Rx       12C  8  00 00 88 90 00 00 00 00 
  1481)    14609.4  Rx  10000204  8  FF 26 90 FF 75 05 22 02 
  1482)    14619.3  Rx  10000205  8  00 64 64 64 64 64 00 64 
  1483)    14619.7  Rx  10000206  8  00 00 60 09 60 09 98 08 
  1484)    14619.9  Rx  10000207  8  00 00 00 00 7E 13 00 00 
  1485)    14620.1  Rx  10000208  8  00 00 00 00 00 00 00 00 
  1486)    14629.2  Rx       310  8  83 00 02 00 00 00 00 00 
  1487)    14639.4  Rx       50E  8  00 00 00 00 00 00 00 00 
  1488)    14649.4  Rx       19F  8  0A 5A 00 00 2D 27 00 00 
  1489)    14654.6  Rx       12A  8  11 00 00 88 13 02 02 00 
  1490)    14655.0  Rx       10B  8  05 0F 01 00 00 00 00 00 
  1491)    14659.3  Rx       50F  8  2D 27 70 00 74 05 22 02 
  1492)    14666.2  Rx       10C  8  00 00 80 00 00 00 00 00 
  1493)    14666.5  Rx       12D  8  30 75 00 00 E0 2E 01 00 
  1494)    14669.4  Rx       1A7  8  00 00 60 09 08 00 60 09 
  1495)    14705.6  Rx       12C  8  00 00 88 90 00 00 00 00 
  1496)    14729.1  Rx       310  8  83 00 02 00 00 00 00 00 
  1497)    14739.2  Rx       50E  8  00 00 00 00 00 00 00 00 
  1498)    14749.2  Rx       19F  8  F4 59 00 00 2D 27 00 00 
  1499)    14755.2  Rx       10B  8  05 0F 01 00 00 00 00 00 
  1500)    14755.4  Rx       12A  8  11 00 00 88 13 02 02 00 
  1501)    14759.2  Rx       50F  8  2C 27 79 00 77 05 22 02 
  1502)    14766.4  Rx       10C  8  00 00 80 00 00 00 00 00 
  1503)    14766.7  Rx       12D  8  30 75 00 00 E0 2E 01 00 
  1504)    14769.5  Rx       1A7  8  00 00 60 09 08 00 60 09 
  1505)    14805.7  Rx       12C  8  00 00 88 90 00 00 00 00 
  1506)    14829.3  Rx       310  8  83 00 02 00 00 00 00 00 
  1507)    14839.5  Rx       50E  8  00 00 00 00 00 00 00 00 
  1508)    14849.2  Rx       19F  8  F6 59 00 00 2D 27 00 00 
  1509)    14855.5  Rx       10B  8  05 0F 01 00 00 00 00 00 
  1510)    14855.8  Rx       12A  8  11 00 00 88 13 02 02 00 
  1511)    14859.3  Rx       50F  8  2D 27 72 00 78 05 23 02 
  1512)    14866.9  Rx       12D  8  30 75 00 00 E0 2E 01 00 
  1513)    14867.1  Rx       10C  8  00 00 80 00 00 00 00 00 
  1514)    14869.4  Rx       1A7  8  00 00 60 09 08 00 60 09 
  1515)    14906.7  Rx       12C  8  00 00 88 90 00 00 00 00 
  1516)    14929.7  Rx       310  8  83 00 02 00 00 00 00 00 
  1517)    14939.6  Rx       50E  8  00 00 00 00 00 00 00 00 
  1518)    14949.5  Rx       19F  8  0E 5A 00 00 2C 27 00 00 
  1519)    14955.5  Rx       10B  8  05 0F 01 00 00 00 00 00 
  1520)    14955.8  Rx       12A  8  11 00 00 88 13 02 02 00 
  1521)    14959.3  Rx       50F  8  2B 27 75 00 75 05 23 02 
  1522)    14967.5  Rx       12D  8  30 75 00 00 E0 2E 01 00 
  1523)    14967.9  Rx       10C  8  00 00 80 00 00 00 00 00 
  1524)    14969.4  Rx       1A7  8  00 00 60 09 08 00 60 09 
  1525)    15006.7  Rx       12C  8  00 00 88 90 00 00 00 00 
  1526)    15029.4  Rx       310  8  83 00 02 00 00 00 00 00 
  1527)    15039.5  Rx       50E  8  00 00 00 00 00 00 00 00 
  1528)    15049.3  Rx       19F  8  06 5A 00 00 2D 27 00 00 
  1529)    15056.1  Rx       12A  8  11 00 00 88 13 02 02 00 
  1530)    15056.4  Rx       10B  8  05 0F 01 00 00 00 00 00 
  1531)    15059.3  Rx       50F  8  2C 27 72 00 74 05 23 02 
  1532)    15067.6  Rx       10C  8  00 00 80 00 00 00 00 00 
  1533)    15068.0  Rx       12D  8  30 75 00 00 E0 2E 01 00 
  1534)    15069.5  Rx       1A7  8  00 00 60 09 08 00 60 09 
  1535)    15107.5  Rx       12C  8  00 00 88 90 00 00 00 00 
  1536)    15129.2  Rx       310  8  83 00 02 00 00 00 00 00 
  1537)    15140.0  Rx       50E  8  00 00 00 00 00 00 00 00 
  1538)    15149.2  Rx       19F  8  06 5A 00 00 2D 27 00 00 
  1539)    15156.8  Rx       10B  8  05 0F 01 00 00 00 00 00 
  1540)    15157.1  Rx       12A  8  11 00 00 88 13 02 02 00 
  1541)    15159.2  Rx       50F  8  2C 27 6A 00 74 05 22 02 
  1542)    15168.2  Rx       10C  8  00 00 80 00 00 00 00 00 
  1543)    15168.6  Rx       12D  8  30 75 00 00 E0 2E 01 00 
  1544)    15169.4  Rx       1A7  8  00 00 60 09 08 00 60 09 
  1545)    15207.6  Rx       12C  8  00 00 88 90 00 00 00 00 
  1546)    15229.3  Rx       310  8  83 00 02 00 00 00 00 00 
  1547)    15239.3  Rx       50E  8  00 00 00 00 00 00 00 00 
  1548)    15249.3  Rx       19F  8  F6 59 00 00 2E 27 00 00 
  1549)    15258.0  Rx       12A  8  11 00 00 88 13 02 02 00 
  1550)    15258.5  Rx       10B  8  05 0F 01 00 00 00 00 00 
  1551)    15259.2  Rx       50F  8  2B 27 6F 00 76 05 22 02 
  1552)    15269.1  Rx       12D  8  30 75 00 00 E0 2E 01 00 
  1553)    15269.7  Rx       10C  8  00 00 80 00 00 00 00 00 
  1554)    15270.1  Rx       1A7  8  00 00 60 09 08 00 60 09 
  1555)    15308.2  Rx       12C  8  00 00 88 90 00 00 00 00 
  1556)    15329.6  Rx       310  8  83 00 02 00 00 00 00 00 
  1557)    15339.5  Rx       50E  8  00 00 00 00 00 00 00 00 
  1558)    15349.4  Rx       19F  8  FA 59 00 00 2E 27 00 00 
  1559)    15358.8  Rx       12A  8  11 00 00 88 13 02 02 00 
  1560)    15359.3  Rx       50F  8  2C 27 73 00 75 05 23 02 
  1561)    15359.6  Rx       10B  8  05 0F 01 00 00 00 00 00 
  1562)    15369.3  Rx       1A7  8  00 00 60 09 08 00 60 09 
  1563)    15370.2  Rx       12D  8  30 75 00 00 E0 2E 01 00 
  1564)    15370.6  Rx       10C  8  00 00 80 00 00 00 00 00 
  1565)    15408.7  Rx       12C  8  00 00 88 90 00 00 00 00 
  1566)    15429.5  Rx       310  8  83 00 02 00 00 00 00 00 
  1567)    15439.4  Rx       50E  8  00 00 00 00 00 00 00 00 
  1568)    15449.3  Rx       19F  8  F5 59 00 00 2E 27 00 00 
  1569)    15459.3  Rx       50F  8  2C 27 66 00 75 05 23 02 
  1570)    15459.5  Rx       10B  8  05 0F 01 00 00 00 00 00 
  1571)    15459.8  Rx       12A  8  11 00 00 88 13 02 02 00 
  1572)    15469.2  Rx       1A7  8  00 00 60 09 08 00 60 09 
  1573)    15470.9  Rx       12D  8  30 75 00 00 E0 2E 01 00 
  1574)    15471.3  Rx       10C  8  00 00 80 00 00 00 00 00 
  1575)    15509.4  Rx       12C  8  00 00 88 90 00 00 00 00 
  1576)    15529.4  Rx       310  8  83 00 02 00 00 00 00 00 
  1577)    15539.4  Rx       50E  8  00 00 00 00 00 00 00 00 
  1578)    15550.4  Rx       19F  8  F2 59 00 00 2D 27 00 00 
  1579)    15559.2  Rx       50F  8  2C 27 71 00 74 05 23 02 
  1580)    15560.7  Rx       10B  8  05 0F 01 00 00 00 00 00 
  1581)    15561.1  Rx       12A  8  11 00 00 88 13 02 02 00 
  1582)    15569.4  Rx       1A7  8  00 00 60 09 08 00 60 09 
  1583)    15571.0  Rx       12D  8  30 75 00 00 E0 2E 01 00 
  1584)    15571.5  Rx       10C  8  00 00 80 00 00 00 00 00 
  1585)    15576.8  Rx   8192A3B  1  00 
  1586)    15579.2  Rx  10000201  8  03 02 02 00 00 00 03 00 
  1587)    15589.5  Rx  10000202  8  00 00 00 00 00 00 00 00 
  1588)    15599.7  Rx  10000203  8  7A 56 00 00 6F 0E 2D 27 
  1589)    15609.5  Rx  10000204  8  FF 26 90 FF 74 05 22 02 
  1590)    15610.4  Rx       12C  8  00 00 88 90 00 00 00 00 
  1591)    15619.5  Rx  10000205  8  00 64 64 64 64 64 00 64 
  1592)    15619.8  Rx  10000206  8  00 00 60 09 60 09 98 08 
  1593)    15619.9  Rx  10000207  8  00 00 00 00 7E 13 00 00 
  1594)    15620.0  Rx  10000208  8  00 00 00 00 00 00 00 00 
  1595)    15629.5  Rx       310  8  83 00 02 00 00 00 00 00 
  1596)    15640.0  Rx       50E  8  00 00 00 00 00 00 00 00 
  1597)    15649.2  Rx       19F  8  FE 59 00 00 2E 27 00 00 
  1598)    15659.2  Rx       50F  8  2C 27 6C 00 75 05 23 02 
  1599)    15661.7  Rx       10B  8  05 0F 01 00 00 00 00 00 
  1600)    15661.9  Rx       12A  8  11 00 00 88 13 02 02 00 
  1601)    15669.4  Rx       1A7  8  00 00 60 09 08 00 60 09 
  1602)    15671.5  Rx       12D  8  30 75 00 00 E0 2E 01 00 
  1603)    15672.6  Rx       10C  8  00 00 80 00 00 00 00 00 
  1604)    15711.3  Rx       12C  8  00 00 88 90 00 00 00 00 
  1605)    15729.6  Rx       310  8  83 00 02 00 00 00 00 00 
  1606)    15739.3  Rx       50E  8  00 00 00 00 00 00 00 00 
  1607)    15749.2  Rx       19F  8  01 5A 00 00 2D 27 00 00 
  1608)    15759.3  Rx       50F  8  2C 27 67 00 74 05 23 02 
  1609)    15761.9  Rx       10B  8  05 0F 01 00 00 00 00 00 
  1610)    15762.2  Rx       12A  8  11 00 00 88 13 02 02 00 
  1611)    15769.3  Rx       1A7  8  00 00 60 09 08 00 60 09 
