;$FILEVERSION=1.1
;$STARTTIME=46001.9452647148
;
;   Start time: 10-12-2025 22:41:10.871
;   Generated by AtomX
;
;   Message Number
;   |         Time Offset (ms)
;   |         |        Type
;   |         |        |        ID (hex)
;   |         |        |        |     Data Length
;   |         |        |        |     |   Data Bytes (hex) ...
;   |         |        |        |     |   |
;---+--   ----+----  --+--  ----+---  +  -+ -- -- -- -- -- -- --
     1)        0.0  Rx       600  8  14 64 35 CB DF DE 33 FD 
     2)      100.7  Rx       503  8  04 42 1B E8 01 15 18 C1 
     3)      202.9  Rx       234  8  14 10 11 14 00 00 00 00 
     4)      303.6  Rx       508  8  03 92 39 0C 84 62 1C DA 
     5)      404.5  Rx       650  8  0F 71 3B 64 00 00 00 00 
     6)      505.1  Rx       50F  8  71 64 AB CF 1F AF 4F A1 
     7)      606.0  Rx         4  8  FE 00 00 00 00 00 00 00 
     8)      807.3  Rx       230  8  E2 44 54 98 8F 49 50 61 
     9)      907.9  Rx       600  8  0D 95 54 BA 90 F7 69 3F 
    10)     1008.4  Rx         2  8  00 3E 00 00 00 00 00 00 
    11)     1109.3  Rx        91  8  78 2F B8 3F 00 00 00 00 
    12)     1210.0  Rx  10000209  4  40 1A C8 05 
    13)     1310.7  Rx       310  8  B1 01 17 E5 00 00 00 00 
    14)     1411.3  Rx       10A  8  4F AA 60 70 98 D5 79 19 
    15)     1514.7  Rx       187  8  1D 99 16 44 17 EC 61 00 
    16)     1615.2  Rx         5  8  00 00 00 00 96 00 00 00 
    17)     1716.1  Rx       7D9  8  00 5C E9 82 4A 72 75 5C 
    18)     1816.6  Rx       50F  8  49 AE 04 95 72 BC 8F 6B 
    19)     1917.5  Rx       509  8  5F 38 AA C3 01 00 00 00 
    20)     2018.1  Rx       631  8  47 4D 22 B5 FC F5 08 89 
    21)     2118.7  Rx       12A  8  9D 09 2B E0 EF B9 03 00 
    22)     2219.3  Rx       7DB  8  00 B0 D1 74 73 44 7B 74 
    23)     2319.8  Rx       10C  8  79 3F 0D EC 05 00 00 00 
    24)     2420.4  Rx  10000207  8  2A A0 07 6F BA EC FF 3C 
    25)     2521.1  Rx  10000201  8  6B EF D3 75 55 00 9D 00 
    26)     2621.9  Rx         7  8  00 00 00 00 80 35 00 00 
    27)     2823.3  Rx       674  8  2D 00 00 00 00 00 00 00 
    28)     2924.2  Rx  10000211  8  F6 56 94 36 A9 5F 56 A6 
    29)     3025.0  Rx         4  8  D5 00 00 00 00 00 00 00 
    30)     3125.7  Rx  10000207  8  87 FD E8 29 13 6B 3B 7C 
    31)     3327.4  Rx       371  8  D3 60 00 00 00 00 00 00 
    32)     3428.1  Rx        91  8  E9 8A 2C D6 00 00 00 00 
    33)     3529.0  Rx       501  8  BB 79 B4 EA 22 24 A7 93 
    34)     3629.5  Rx       230  8  4B BA 9F AF 60 39 0B CC 
    35)     3730.1  Rx        52  8  5C CD 8E 6D 03 F8 18 00 
    36)     3831.1  Rx       157  8  45 26 F8 3A 2C A7 44 B5 
    37)     3931.6  Rx       507  8  27 F1 E1 E6 F7 F1 32 F4 
    38)     4032.4  Rx         3  8  00 00 00 00 00 36 00 00 
    39)     4133.3  Rx       631  8  F3 EF FA F3 28 0F D4 21 
    40)     4233.8  Rx  10000209  4  80 8D 5B 00 
    41)     4334.7  Rx       234  8  01 03 0A 1C 00 00 00 00 
    42)     4435.2  Rx         4  8  AA 00 00 00 00 00 00 00 
    43)     4536.2  Rx       509  8  BC BB 88 15 03 00 00 00 
    44)     4637.0  Rx       12A  8  67 0A 96 8C 1C 6C 00 00 
    45)     4737.8  Rx         4  8  75 00 00 00 00 00 00 00 
    46)     4838.2  Rx       644  8  02 BA C8 0E E3 56 6A DE 
    47)     4938.7  Rx       4CD  8  57 DB 2B 3C 24 61 57 A5 
    48)     5039.6  Rx       64F  8  ED 7C 15 BD FB 32 5C A6 
    49)     5140.5  Rx       12E  8  C4 E1 B3 2C 78 94 2F 6F 
    50)     5241.4  Rx       177  8  00 00 00 00 A0 7E C5 BE 
    51)     5342.4  Rx       177  8  00 00 00 00 6A EE BD ED 
    52)     5443.1  Rx       680  8  00 00 00 00 00 00 00 00 
    53)     5543.9  Rx       154  8  BA D3 63 12 0D 84 00 00 
    54)     5644.5  Rx       7B4  8  D4 00 00 00 00 00 00 00 
    55)     5745.3  Rx       642  8  FC 0C B6 C3 28 8B BE 35 
    56)     5846.1  Rx       7C5  8  00 B8 9A C8 C2 87 12 F1 
    57)     5947.0  Rx         1  8  00 00 00 00 73 00 00 00 
    58)     6047.5  Rx       170  8  4F 9C 12 84 21 01 24 F7 
    59)     6148.2  Rx       230  8  92 57 CB AF B3 2B EB 51 
    60)     6248.8  Rx         3  8  00 00 00 00 80 17 00 00 
    61)     6349.7  Rx       234  8  0B 1A 02 14 00 00 00 00 
    62)     6450.5  Rx       240  8  02 44 44 00 00 00 00 00 
    63)     6551.2  Rx  10000203  8  E8 03 C0 2B 14 05 54 24 
    64)     6651.9  Rx       10B  8  0B 08 10 00 00 00 00 00 
    65)     6752.8  Rx        91  8  BD BF EB 65 00 00 00 00 
    66)     6853.5  Rx  10000203  8  F8 2A 24 5E E2 04 88 45 
    67)     6954.1  Rx       652  8  B3 69 0B 96 34 8D 00 00 
    68)     7054.6  Rx       645  8  A2 66 08 CD F8 5A 00 00 
    69)     7155.1  Rx       645  8  97 2C A5 7A 63 C7 00 00 
    70)     7255.7  Rx       10C  8  46 0C 6A A3 01 00 00 00 
    71)     7356.6  Rx       341  8  82 AA 5A 14 1A 34 05 00 
    72)     7457.1  Rx  10000204  8  D8 27 7C 15 A8 48 08 39 
    73)     7558.2  Rx        8F  8  01 00 00 00 00 00 00 00 
    74)     7659.1  Rx       651  8  CD BC 40 CA F8 00 00 00 
    75)     7760.0  Rx       65B  8  01 02 00 00 C4 08 00 00 
    76)     7860.7  Rx       666  8  17 15 79 52 14 84 75 F7 
    77)     7961.3  Rx       505  8  61 E2 19 8D CB 69 AB 3B 
    78)     8062.1  Rx        81  8  1A 12 7B 00 00 00 00 00 
    79)     8162.8  Rx       234  8  1D 18 1E 07 00 00 00 00 
    80)     8263.7  Rx        8F  8  00 00 00 00 00 00 00 00 
    81)     8364.4  Rx       645  8  B1 FE 8A 7E EF 98 00 00 
    82)     8464.9  Rx         1  8  00 00 00 00 6A 00 00 00 
    83)     8565.6  Rx       175  8  10 D5 97 D7 02 C9 00 00 
    84)     8666.5  Rx       7D9  8  00 88 3F 48 2B CF E1 BD 
    85)     8767.2  Rx       7D8  8  00 40 C2 3E BC 75 5E 8E 
    86)     8868.0  Rx       130  8  1F 66 C6 06 54 21 16 00 
    87)     8968.6  Rx       500  8  74 47 24 18 3F A0 EB 1E 
    88)     9069.4  Rx         5  8  00 00 00 00 00 00 00 00 
    89)     9271.0  Rx         1  8  00 00 00 00 8C 00 00 00 
    90)     9371.7  Rx       7D9  8  00 02 7A 2F D0 1A 0B 39 
    91)     9674.2  Rx         0  8  48 00 00 00 00 00 00 00 
    92)     9774.9  Rx       154  8  36 DB 7A 33 35 50 00 00 
    93)     9875.6  Rx        8F  8  00 00 00 00 00 00 00 00 
    94)    10076.9  Rx        8F  8  00 00 00 00 00 00 00 00 
    95)    10177.6  Rx       7DB  8  00 E0 62 A7 FF 34 0C E0 
    96)    10278.5  Rx       4CD  8  64 54 8D A8 1A 14 BB C7 
    97)    10379.3  Rx        A0  8  02 02 00 00 00 00 00 00 
    98)    10480.2  Rx       12D  8  7F BE C0 64 AA D7 D2 EE 
    99)    10580.7  Rx       500  8  9F 33 80 6A FE 14 FC 1A 
   100)    10681.2  Rx       50E  8  C6 16 72 11 00 00 00 00 
   101)    10782.1  Rx         7  8  00 00 00 00 80 16 00 00 
   102)    10883.0  Rx       157  8  D3 B2 B1 EB A4 08 40 1A 
   103)    10983.8  Rx        81  8  32 25 50 00 00 00 00 00 
   104)    11084.3  Rx       70F  8  00 F0 79 36 BE 4B B2 B6 
   105)    11285.6  Rx       10A  8  06 21 01 19 16 0A 48 18 
   106)    11386.1  Rx       50F  8  C1 8A 08 1B B8 3F 27 2B 
   107)    11486.7  Rx         4  8  0E 00 00 00 00 00 00 00 
   108)    11587.5  Rx       503  8  74 13 32 B5 65 2F 05 AF 
   109)    11788.4  Rx       240  8  52 0D B9 00 00 00 00 00 
   110)    11990.1  Rx       177  8  00 00 00 00 28 CC E9 22 
   111)    12090.8  Rx       130  8  B1 1D 37 41 81 6E 62 00 
   112)    12191.5  Rx       50A  8  FC 49 4E 7D AF 04 00 00 
   113)    12292.3  Rx       19F  8  AF B2 FF 3A 19 8B BE 5B 
   114)    12392.9  Rx  10000201  8  06 07 07 4A D3 00 DE 00 
   115)    12493.8  Rx       179  8  1C 6C 9D C7 D5 4D 23 1C 
   116)    12594.6  Rx       50E  8  33 C0 69 46 00 00 00 00 
   117)    12695.6  Rx       7C5  8  00 E0 09 79 AC 73 AB BE 
   118)    12796.4  Rx       7D8  8  00 A8 13 C5 B9 60 BB A6 
   119)    12897.3  Rx         7  8  00 00 00 00 80 28 00 00 
   120)    12998.0  Rx  10000210  0   
   121)    13098.6  Rx  10000207  8  72 C4 8B E4 B0 5C 5C 73 
   122)    13198.8  Rx  10000212  8  00 00 00 00 00 00 00 00 
   123)    13299.3  Rx       240  8  F7 DE 0E 00 00 00 00 00 
   124)    13400.1  Rx       651  8  D0 24 5C BF 5C 00 00 00 
   125)    13601.7  Rx       680  8  01 00 00 00 00 00 00 00 
   126)    13702.1  Rx       12B  8  72 0B 89 0D 58 00 00 00 
   127)    13802.8  Rx       10C  8  D9 18 4E 83 01 00 00 00 
   128)    13903.7  Rx       4CD  8  D6 49 F7 16 96 24 2F 05 
   129)    14004.1  Rx       130  8  5E 8C BB 10 DB 0B 3E 00 
   130)    14104.3  Rx       675  8  00 68 97 43 95 19 8A F8 
   131)    14204.8  Rx       674  8  EC 00 00 00 00 00 00 00 
   132)    14305.2  Rx  10000201  8  1C 32 53 A2 F2 00 4B 00 
   133)    14405.5  Rx        81  8  28 26 07 00 00 00 00 00 
   134)    14505.9  Rx  10000203  8  50 5F F8 2A C6 02 3C 0F 
   135)    14606.6  Rx         5  8  00 00 00 00 C3 00 00 00 
   136)    14807.3  Rx       641  8  00 84 60 9E 11 D6 2C 67 
   137)    14907.6  Rx       641  8  00 18 E0 2B DB 34 C5 CF 
   138)    15008.3  Rx       50A  8  F5 4F 7D 01 3C 03 00 00 
   139)    15108.7  Rx       10C  8  F6 36 0B 70 02 00 00 00 
   140)    15209.0  Rx         1  8  00 00 00 00 79 00 00 00 
   141)    15309.2  Rx       170  8  80 7B 15 EC 9A 42 A4 C4 
   142)    15409.6  Rx       12E  8  8C 1F A6 DD A5 8E 02 D2 
   143)    15509.9  Rx  10000203  8  A4 38 54 0B 52 08 90 4C 
   144)    15710.8  Rx       674  8  1E 00 00 00 00 00 00 00 
   145)    15811.2  Rx       674  8  D8 00 00 00 00 00 00 00 
   146)    15911.6  Rx       501  8  58 C1 A8 C3 72 CA 10 8A 
   147)    16011.9  Rx       371  8  0A A1 01 00 00 00 00 00 
   148)    16112.6  Rx       341  8  DF 06 E2 1B 1E 8C 3E 00 
   149)    16213.1  Rx       651  8  49 0B E4 9B 81 00 00 00 
   150)    16313.5  Rx       505  8  29 4C 40 BA 4E C8 39 06 
   151)    16414.0  Rx       187  8  80 B2 9C 29 50 1C 7A 00 
   152)    16514.2  Rx       502  8  D2 50 76 E5 98 27 E9 D2 
   153)    16614.6  Rx         7  8  00 00 00 00 00 49 00 00 
   154)    16714.9  Rx       371  8  B5 FC 00 00 00 00 00 00 
   155)    16815.3  Rx       341  8  EF 0A 25 09 0A F1 2E 00 
   156)    16915.7  Rx        50  8  48 01 00 00 00 00 00 00 
   157)    17016.1  Rx       641  8  C0 19 EF 2A 33 55 46 02 
   158)    17116.7  Rx       170  8  EB 08 05 BF 8E AA CF AF 
   159)    17217.0  Rx       176  8  61 D0 93 00 4E 89 21 64 
   160)    17317.6  Rx       176  8  45 6A 1E 00 E7 67 4C 31 
   161)    17418.2  Rx       170  8  02 CF 0F C0 34 D7 B3 72 
   162)    17519.0  Rx       652  8  3F AD 9A 2D F4 53 00 00 
   163)    17619.7  Rx       501  8  33 B4 E4 ED B5 21 CA E2 
   164)    17720.1  Rx       631  8  6A 59 D1 6C 98 7C 29 B0 
   165)    17821.1  Rx       310  8  32 03 5F 0C 00 00 00 00 
   166)    17921.7  Rx         3  8  00 00 00 00 80 57 00 00 
   167)    18022.1  Rx       64B  8  34 0E 00 00 21 0C 00 00 
   168)    18122.7  Rx       505  8  BE 90 7D CC F0 11 D7 94 
   169)    18223.4  Rx       10B  8  0D 0C 1B 00 00 00 00 00 
   170)    18323.8  Rx  10000204  8  90 01 84 03 40 38 BC 34 
   171)    18424.1  Rx       506  8  AF 47 6E 55 E9 D2 A4 23 
   172)    18524.6  Rx       7D8  8  00 10 6D 6B DE 16 FE 69 
   173)    18625.1  Rx       188  8  1A A0 7C D0 0F A4 C3 8E 
   174)    18725.5  Rx       652  8  A0 18 43 6E 8C 48 00 00 
   175)    18826.1  Rx       12C  8  1D 5D CD 8E 2C 90 37 0B 
   176)    18926.5  Rx       641  8  00 1C D7 B0 66 95 99 70 
   177)    19027.1  Rx       650  8  1A FF 03 FA 00 00 00 00 
   178)    19127.9  Rx  10000203  8  7C 2E 4C 1D 50 05 50 2D 
   179)    19228.6  Rx       10C  8  EF 1D EF FD 0A 00 00 00 
   180)    19329.3  Rx       157  8  B0 C7 31 73 B8 34 EF 20 
   181)    19430.1  Rx       506  8  61 61 B7 F9 EF 30 DB D0 
   182)    19530.6  Rx        51  8  BE 01 00 00 1E 66 00 00 
   183)    19631.0  Rx         4  8  A6 00 00 00 00 00 00 00 
   184)    19731.4  Rx       645  8  0F 3C 27 2F 89 EB 00 00 
   185)    19831.8  Rx       600  8  A1 3F 2D 53 40 F8 95 48 
   186)    19932.1  Rx       642  8  76 E4 6A 6C B1 98 F5 75 
   187)    20032.5  Rx         4  8  2C 00 00 00 00 00 00 00 
   188)    20133.0  Rx  10000212  8  00 00 00 00 00 00 00 00 
   189)    20233.8  Rx       234  8  1F 1F 0E 01 00 00 00 00 
   190)    20334.1  Rx       65B  8  FA 06 00 00 69 00 00 00 
   191)    20434.4  Rx       7B4  8  7B 00 00 00 00 00 00 00 
   192)    20534.7  Rx       230  8  8F 95 34 A3 0D 79 E7 47 
   193)    20635.2  Rx       233  8  14 0E E8 41 96 EF BA 0B 
   194)    20735.6  Rx        50  8  11 02 00 00 00 00 00 00 
   195)    20836.3  Rx       179  8  64 34 B0 F7 CE CE 3D CF 
   196)    20936.7  Rx       666  8  F6 75 8F 46 0F 30 BA F7 
   197)    21037.3  Rx       666  8  F8 C0 2D B6 FE D3 10 82 
   198)    21137.7  Rx       645  8  12 7D 48 7B 6D 01 00 00 
   199)    21238.2  Rx         5  8  00 00 00 00 94 00 00 00 
   200)    21338.6  Rx       10A  8  94 2C 82 A2 7E CA 13 0D 
   201)    21439.2  Rx       7C5  8  00 E8 CB 2A A7 C3 84 C9 
   202)    21539.8  Rx       361  8  29 1B CB 5F 3F D8 32 00 
   203)    21640.2  Rx         1  8  00 00 00 00 66 00 00 00 
   204)    21740.6  Rx       505  8  B4 3B 2A CC 2C 7E B9 0D 
   205)    21841.0  Rx       173  8  01 9D 39 82 00 00 00 00 
   206)    21941.4  Rx       652  8  76 8D 2A 73 CD 7D 00 00 
   207)    22041.9  Rx       361  8  B6 50 85 31 44 CB 9C 01 
   208)    22142.5  Rx       644  8  42 8A 71 F2 83 0A EB B2 
   209)    22243.1  Rx        52  8  33 50 DB E7 96 C4 16 00 
   210)    22343.8  Rx         3  8  00 00 00 00 80 05 00 00 
   211)    22444.1  Rx       62B  8  96 04 00 00 A2 06 00 00 
   212)    22544.5  Rx       176  8  60 85 E3 00 4B B4 54 C5 
   213)    22644.9  Rx       12F  8  2D A0 6A A0 A6 37 DE 13 
   214)    22745.7  Rx       4CE  8  01 DB 00 00 00 00 00 00 
   215)    22846.0  Rx       64F  8  05 96 5E 57 78 7A 54 00 
   216)    22946.7  Rx       240  8  C3 D5 04 00 00 00 00 00 
   217)    23047.2  Rx       501  8  A8 A8 8E 0A 8C 63 02 65 
   218)    23248.1  Rx         3  8  00 00 00 00 80 5E 00 00 
   219)    23348.6  Rx       666  8  29 37 81 6E 6C F0 C3 81 
   220)    23449.0  Rx       235  8  D5 03 00 00 00 00 00 00 
   221)    23551.0  Rx       507  8  5B 2D 69 0F B5 8A 79 49 
   222)    23651.5  Rx         0  8  7F 00 00 00 00 00 00 00 
   223)    23752.1  Rx       7CC  8  1B 00 00 00 00 00 00 00 
   224)    23853.0  Rx       234  8  0B 18 0E 10 00 00 00 00 
   225)    23953.6  Rx  10000204  8  A8 2F 80 25 28 23 00 4B 
   226)    24053.9  Rx       666  8  EE CE 36 16 8A 29 D5 16 
   227)    24154.4  Rx       631  8  B2 7A 18 F1 FE 41 E9 8E 
   228)    24254.7  Rx       450  8  98 00 00 00 00 00 00 00 
   229)    24355.1  Rx       675  8  00 20 44 4C C7 CF 9E 49 
   230)    24455.7  Rx       176  8  A2 11 9A 00 0E 81 A9 7E 
   231)    24556.3  Rx       170  8  77 29 65 89 89 D2 AF C5 
   232)    24657.2  Rx       179  8  F2 DD C6 2A 6B 0F FB 5A 
   233)    24757.9  Rx         2  8  80 7A 00 00 00 00 00 00 
   234)    24858.5  Rx       64F  8  83 FF CD C9 7F 7C C6 E9 
   235)    24959.2  Rx       236  8  1F B1 E7 71 E0 1F B8 06 
   236)    25059.7  Rx       508  8  9E 9F 1C 15 60 09 45 93 
   237)    25160.3  Rx       642  8  58 7F 77 33 2B 9E 21 F8 
   238)    25260.8  Rx         2  8  80 76 00 00 00 00 00 00 
   239)    25361.4  Rx         4  8  3A 00 00 00 00 00 00 00 
   240)    25462.2  Rx       12A  8  60 3D C2 B8 3A 3D 01 00 
   241)    25562.8  Rx       178  8  02 D7 35 4A 3D 11 CC 18 
   242)    25663.4  Rx  10000212  8  00 00 00 00 00 00 00 00 
   243)    25764.1  Rx       12C  8  09 BA E7 3C 99 B5 26 39 
   244)    25865.0  Rx       50A  8  A7 D8 A9 BB EE 01 00 00 
   245)    25965.7  Rx       153  8  59 03 00 00 00 00 00 00 
   246)    26066.5  Rx       509  8  54 D2 A3 E0 01 00 00 00 
   247)    26167.2  Rx        81  8  00 26 2F 00 00 00 00 00 
   248)    26267.8  Rx       236  8  33 70 F5 21 2A B2 9A C7 
   249)    26568.9  Rx       12C  8  4F D9 D4 BC 89 A7 2D 19 
   250)    26669.6  Rx       170  8  EC D2 F4 04 5B 9E AC B4 
   251)    26770.2  Rx         2  8  80 30 00 00 00 00 00 00 
   252)    26870.7  Rx  10000210  0   
   253)    26970.9  Rx       7DA  8  00 80 BF 24 71 7A 5A 34 
   254)    27071.7  Rx       236  8  09 28 77 82 9E 53 1E 64 
   255)    27172.2  Rx       64F  8  50 82 44 87 19 DF 80 88 
   256)    27272.5  Rx       668  8  70 78 5B 8A 00 00 00 00 
   257)    27373.3  Rx       65B  8  7F 0C 00 00 2E 09 00 00 
   258)    27474.0  Rx  10000211  8  65 E0 5C 71 41 1F 5F DE 
   259)    27574.2  Rx        81  8  31 11 14 00 00 00 00 00 
   260)    27675.1  Rx       12F  8  0A 5F 56 35 B5 43 76 BC 
   261)    27775.5  Rx       310  8  AE 01 C8 E8 00 00 00 00 
   262)    27876.0  Rx       179  8  48 F5 AC 42 1A B6 41 DB 
   263)    27976.7  Rx         7  8  00 00 00 00 80 46 00 00 
   264)    28077.3  Rx  10000211  8  34 D7 93 F7 61 B3 F1 D2 
   265)    28178.0  Rx       501  8  3D 11 A4 0C 6A 41 07 29 
   266)    28278.5  Rx       652  8  31 37 B6 1F 22 2B 00 00 
   267)    28479.3  Rx       600  8  7F 42 4D B8 3B 71 32 15 
   268)    28579.8  Rx         3  8  00 00 00 00 00 32 00 00 
   269)    28680.4  Rx       12D  8  EA 08 9F 5C 16 A6 12 80 
   270)    28780.6  Rx        8E  8  5E 71 3E A8 00 00 00 00 
   271)    28881.0  Rx         6  8  00 63 00 00 00 00 00 00 
   272)    28981.6  Rx       64B  8  82 02 00 00 C5 0B 00 00 
   273)    29082.3  Rx       177  8  00 00 00 00 61 15 A4 D6 
   274)    29183.0  Rx       230  8  BB 49 B2 86 B5 FB 0A B9 
   275)    29283.7  Rx       7B4  8  3E 00 00 00 00 00 00 00 
   276)    29384.2  Rx       236  8  B2 59 AD F9 04 2D 7B 99 
   277)    29484.7  Rx        52  8  54 7C 1C 70 3F E4 09 00 
   278)    29585.3  Rx        81  8  31 15 65 00 00 00 00 00 
   279)    29685.9  Rx       177  8  00 00 00 00 92 28 68 59 
   280)    29786.5  Rx       173  8  01 F3 2A 39 00 00 00 00 
   281)    29887.0  Rx       7DA  8  00 80 95 41 3C 0F F4 BC 
   282)    29987.6  Rx       450  8  78 00 00 00 00 00 00 00 
   283)    30188.4  Rx       4CE  8  06 07 00 00 00 00 00 00 
   284)    30288.6  Rx       12F  8  2B 65 42 BF 00 27 C4 06 
   285)    30389.3  Rx       7DB  8  00 78 EA 5B 80 30 43 F4 
   286)    30489.7  Rx       503  8  E8 07 E0 A5 1F A0 7B 38 
   287)    30590.0  Rx       12B  8  E6 07 32 00 D2 03 00 00 
   288)    30690.6  Rx       310  8  52 00 A8 A4 00 00 00 00 
   289)    30791.1  Rx  10000210  0   
   290)    30891.8  Rx       508  8  42 30 FD 0B 97 8E 8D A9 
   291)    30992.2  Rx       652  8  60 48 5A BC AC 74 00 00 
   292)    31193.2  Rx       235  8  1B 02 00 00 00 00 00 00 
   293)    31293.6  Rx       310  8  5C 03 64 E2 00 00 00 00 
   294)    31394.1  Rx  10000204  8  78 50 C4 09 18 47 DC 1E 
   295)    31494.5  Rx       153  8  E2 00 00 00 00 00 00 00 
   296)    31594.8  Rx       19F  8  66 AC 4B D1 04 DC CE D7 
   297)    31695.1  Rx       12E  8  71 5E 44 EE FF E5 D2 2A 
   298)    31795.8  Rx         6  8  80 73 00 00 00 00 00 00 
   299)    31896.2  Rx       509  8  35 E4 73 62 03 00 00 00 
   300)    31996.5  Rx       236  8  6E D3 CC 01 4E D1 DD A8 
   301)    32097.3  Rx       12D  8  10 E6 BD DA 14 81 A2 51 
   302)    32197.9  Rx       508  8  42 3C 42 19 D3 BC 0A 16 
   303)    32298.3  Rx       642  8  E7 27 C9 1B D6 A6 60 35 
   304)    32399.5  Rx       505  8  96 46 F2 D6 94 58 29 7B 
   305)    32499.8  Rx       236  8  D5 DA 73 5B 59 FD 21 46 
   306)    32600.1  Rx        8E  8  60 14 FA 3D 00 00 00 00 
   307)    32700.4  Rx       7C2  8  00 D4 7E BD F6 55 AC 1A 
   308)    32800.7  Rx        A0  8  00 01 00 00 00 00 00 00 
   309)    32901.3  Rx       157  8  AA 33 EB 2A 66 42 86 FB 
   310)    33001.7  Rx       12B  8  14 07 4A 01 79 02 00 00 
   311)    33102.6  Rx       505  8  8E 4C 0D BD 87 80 B3 89 
   312)    33203.2  Rx       675  8  00 C8 EF FB 2D 0B F2 B2 
   313)    33303.6  Rx       341  8  34 94 4A 71 60 F8 10 00 
   314)    33404.1  Rx       645  8  EF F2 3F E8 EC AB 00 00 
   315)    33504.5  Rx   8192A3B  1  3A 
   316)    33605.2  Rx       154  8  FE BA 46 3E 01 A9 00 00 
   317)    33705.7  Rx       10A  8  40 FB E1 2E DC C1 35 0C 
   318)    33806.2  Rx         1  8  00 00 00 00 89 00 00 00 
   319)    33906.5  Rx       7B4  8  F8 00 00 00 00 00 00 00 
   320)    34007.0  Rx       642  8  58 7F 0D C4 F1 59 DF 58 
   321)    34107.5  Rx       179  8  57 3D 91 A7 0E 02 65 E4 
   322)    34208.2  Rx       178  8  71 8D 14 42 5E DF DE 77 
   323)    34308.5  Rx       7C5  8  00 F0 71 30 A5 67 7A 29 
   324)    34408.9  Rx       341  8  88 5D 36 60 2C 2F 00 00 
   325)    34610.0  Rx       64F  8  C7 D2 1B CD 63 51 E1 EB 
   326)    34710.5  Rx       12A  8  62 A2 10 E0 9C 83 01 00 
   327)    34811.2  Rx         3  8  00 00 00 00 80 13 00 00 
   328)    34912.0  Rx       65B  8  4A 07 00 00 7F 0B 00 00 
   329)    35012.7  Rx       234  8  1E 02 0D 0D 00 00 00 00 
   330)    35113.3  Rx       668  8  03 9D 34 0C 00 00 00 00 
   331)    35214.1  Rx  10000208  8  00 00 00 00 00 00 00 00 
   332)    35314.4  Rx         0  8  45 00 00 00 00 00 00 00 
   333)    35414.8  Rx       506  8  7F 87 D6 84 0C F8 4A A2 
   334)    35515.6  Rx        51  8  3B 43 00 00 04 80 00 00 
   335)    35615.8  Rx       50F  8  A7 07 87 1F 6D 2B 1D 4E 
   336)    35716.3  Rx       10B  8  0E 1F 0B 00 00 00 00 00 
   337)    36118.3  Rx       230  8  AD D3 C8 6A 09 B8 34 40 
   338)    36419.5  Rx       600  8  E1 A9 29 01 64 8E C7 6C 
   339)    36520.1  Rx       64F  8  D6 E6 BC 6D 71 CB 9F 7D 
   340)    36620.6  Rx       10A  8  8F 7C 61 17 39 6B 04 1C 
   341)    36721.0  Rx       64B  8  45 09 00 00 A6 0A 00 00 
   342)    36821.4  Rx       12E  8  5C BD C6 FA 0B CE 44 2F 
   343)    36921.8  Rx       12E  8  F5 83 CA E7 A9 3B 93 34 
   344)    37022.1  Rx  10000212  8  00 00 00 00 00 00 00 00 
   345)    37122.8  Rx       7B4  8  5B 00 00 00 00 00 00 00 
   346)    37223.2  Rx       600  8  1A 5D 2B 31 B1 D3 90 F8 
   347)    37323.8  Rx       7CC  8  C2 00 00 00 00 00 00 00 
   348)    37424.4  Rx       507  8  E7 36 A4 B9 44 DC F7 77 
   349)    37524.9  Rx       509  8  11 F9 FF BD 03 00 00 00 
   350)    37625.6  Rx       341  8  75 4B 1D 44 4A 46 06 00 
   351)    37726.0  Rx       361  8  16 E8 1A 11 C1 AA 5C 00 
   352)    37826.4  Rx         4  8  55 00 00 00 00 00 00 00 
   353)    37926.8  Rx       7D7  8  00 E0 37 DB B8 8F 4D 6B 
   354)    38027.5  Rx       188  8  CA 1B 46 EF 2E 33 41 6A 
   355)    38128.2  Rx       12E  8  44 D1 BB F7 13 F3 50 33 
   356)    38228.7  Rx  10000211  8  9D 71 36 1B F7 7C 03 FD 
   357)    38329.4  Rx       310  8  C9 03 5E B3 00 00 00 00 
   358)    38429.8  Rx  10000210  0   
   359)    38530.6  Rx       240  8  EE 7C E4 00 00 00 00 00 
   360)    38631.0  Rx       12C  8  5D 47 FD 30 07 05 27 23 
   361)    38731.8  Rx       130  8  06 27 FC 81 86 CA D1 00 
   362)    38832.5  Rx       500  8  C8 9B 67 13 6A B2 37 D1 
   363)    39033.4  Rx        52  8  7D 55 B9 6A 3E 1B 09 00 
   364)    39134.1  Rx  10000211  8  39 2D 31 9F BB FA 41 F6 
   365)    39234.5  Rx  10000201  8  16 8B 24 3F 33 00 47 00 
   366)    39334.9  Rx       12D  8  B0 9C FE D8 BB 40 C2 60 
   367)    39435.6  Rx       7D7  8  00 B8 03 C6 D8 E1 5E 35 
   368)    39535.9  Rx       507  8  61 08 E5 C8 85 FE 16 9D 
   369)    39636.6  Rx       233  8  EB 73 BB 20 16 0B D0 3E 
   370)    39737.3  Rx         6  8  80 15 00 00 00 00 00 00 
   371)    39837.8  Rx       507  8  E0 1C FD 71 7A 8C 65 28 
   372)    40038.8  Rx       507  8  66 36 1A F2 26 8C 71 5E 
   373)    40139.5  Rx       178  8  C4 0E AB 58 51 37 73 E6 
   374)    40240.1  Rx       361  8  DD 24 8A E7 38 0F 9B 01 
   375)    40340.9  Rx       10B  8  07 14 1D 00 00 00 00 00 
   376)    40441.3  Rx       173  8  00 17 40 4E 00 00 00 00 
   377)    40742.2  Rx       450  8  8A 00 00 00 00 00 00 00 
   378)    40842.9  Rx       188  8  E3 94 8F 2D DE F9 30 77 
   379)    40943.1  Rx  10000212  8  00 00 00 00 00 00 00 00 
   380)    41043.7  Rx       508  8  3B 22 20 11 3D 4F C7 DF 
   381)    41144.0  Rx       651  8  34 7B 80 39 E1 00 00 00 
   382)    41244.3  Rx  10000208  8  00 00 00 00 00 00 00 00 
   383)    41344.7  Rx       64F  8  B5 D7 CF 42 D6 BA 0E F4 
   384)    41545.6  Rx  10000209  4  C0 29 CD 02 
   385)    41646.0  Rx         3  8  00 00 00 00 80 0B 00 00 
   386)    41746.4  Rx       668  8  5F B0 10 BF 00 00 00 00 
   387)    41947.6  Rx       65B  8  56 01 00 00 0C 09 00 00 
   388)    42048.0  Rx       500  8  8F F0 83 A1 D6 AB AB 05 
   389)    42148.6  Rx       7B4  8  80 00 00 00 00 00 00 00 
   390)    42249.4  Rx       234  8  02 1C 08 10 00 00 00 00 
   391)    42350.2  Rx  10000211  8  F3 42 07 D7 9A 2D BA FB 
   392)    42450.6  Rx       10B  8  0D 18 0D 00 00 00 00 00 
   393)    42551.1  Rx  10000208  8  00 00 00 00 00 00 00 00 
   394)    42651.7  Rx       130  8  49 06 4A 42 16 D8 A4 00 
   395)    42752.2  Rx       233  8  FD 09 D2 35 02 64 F5 D6 
   396)    42852.6  Rx       310  8  6B 02 24 55 00 00 00 00 
   397)    42953.1  Rx       631  8  29 12 1D 9C 59 97 E8 F1 
   398)    43053.8  Rx       233  8  8C B6 16 10 BF 36 96 65 
   399)    43154.5  Rx       507  8  5B E2 7A C0 D0 4D A3 A8 
   400)    43254.9  Rx       4CD  8  D5 A7 C3 FE E9 94 1B 05 
   401)    43355.2  Rx       371  8  07 ED 01 00 00 00 00 00 
   402)    43455.7  Rx        8E  8  E7 B1 4C 28 00 00 00 00 
   403)    43556.1  Rx       178  8  2B FC AB 23 DA A2 52 9F 
   404)    43656.5  Rx       7DA  8  00 DC ED 9C A1 6A 72 4D 
   405)    43756.8  Rx       7DB  8  00 40 58 CC B2 90 CD 9A 
   406)    43957.9  Rx         0  8  43 00 00 00 00 00 00 00 
   407)    44058.6  Rx       7CC  8  1D 00 00 00 00 00 00 00 
   408)    44159.3  Rx       235  8  10 04 00 00 00 00 00 00 
   409)    44360.5  Rx       503  8  4D 40 B9 2B 33 B2 06 EE 
   410)    44461.0  Rx       50F  8  4D 3F 25 EC 2D 4C 85 6E 
   411)    44561.8  Rx       666  8  96 E3 63 D2 12 E7 6F 92 
   412)    44662.7  Rx       652  8  A1 B7 2A 60 81 E5 00 00 
   413)    44763.0  Rx       177  8  00 00 00 00 98 A8 2A 66 
   414)    44863.6  Rx       187  8  47 90 23 8D 30 A6 52 00 
   415)    44964.1  Rx       12F  8  BA 21 84 9F F9 74 EC 8C 
   416)    45064.4  Rx  10000204  8  FC 53 BC 4D A8 16 CC 42 
   417)    45165.2  Rx       508  8  B0 1A D1 19 E8 1D 1A B4 
   418)    45265.8  Rx       666  8  FF 40 D0 87 1F 70 AE 75 
   419)    45366.5  Rx       236  8  F5 55 21 13 B1 90 54 71 
   420)    45467.3  Rx       12F  8  5D 9F 2A 7E 73 73 CD B0 
   421)    45568.0  Rx       178  8  04 E5 1A D9 0B 4A 9C 21 
   422)    45668.6  Rx       7D6  8  33 00 00 00 00 00 00 00 
   423)    45769.2  Rx       7DB  8  00 60 47 3A B1 AF 51 F9 
   424)    45870.0  Rx       361  8  20 CC AC D3 6E CE 41 00 
   425)    45970.6  Rx  10000211  8  05 13 BE 04 6C 07 24 38 
   426)    46071.4  Rx         2  8  00 7E 00 00 00 00 00 00 
   427)    46172.1  Rx       675  8  00 18 26 79 57 AE 56 6B 
   428)    46272.8  Rx       7D7  8  00 EA EF 44 8E 70 18 18 
