;$FILEVERSION=1.1
;$STARTTIME=46001.9489434137
;
;   Start time: 10-12-2025 22:46:28.710
;   Generated by AtomX
;
;   Message Number
;   |         Time Offset (ms)
;   |         |        Type
;   |         |        |        ID (hex)
;   |         |        |        |     Data Length
;   |         |        |        |     |   Data Bytes (hex) ...
;   |         |        |        |     |   |
;---+--   ----+----  --+--  ----+---  +  -+ -- -- -- -- -- -- --
     1)        0.0  Rx         1  8  00 00 00 00 FA 00 00 00 
     2)      100.6  Rx       680  8  03 00 00 00 00 00 00 00 
     3)      202.1  Rx       230  8  D4 C5 F4 7F 5B 08 9C 55 
     4)      302.4  Rx       674  8  F1 00 00 00 00 00 00 00 
     5)      503.5  Rx  10000209  4  00 E1 F5 05 
     6)      604.2  Rx       680  8  02 00 00 00 00 00 00 00 
     7)      704.8  Rx       652  8  13 26 F0 69 DF 46 00 00 
     8)      805.2  Rx       666  8  C6 69 C7 AA 88 FF 06 2D 
     9)      905.9  Rx       50F  8  F4 7D 05 63 A3 CF 27 2C 
    10)     1006.4  Rx       641  8  00 48 20 C1 7A 84 AE 85 
    11)     1107.0  Rx         2  8  00 70 00 00 00 00 00 00 
    12)     1207.7  Rx       7D9  8  00 A0 A0 AC DD 5D A7 D7 
    13)     1308.5  Rx       502  8  29 4A 5A BD 3A 0A 37 ED 
    14)     1409.2  Rx  10000210  0   
    15)     1610.9  Rx       600  8  58 2B 64 03 2F 99 78 68 
    16)     1711.7  Rx        A0  8  03 05 00 00 00 00 00 00 
    17)     1812.4  Rx         5  8  00 00 00 00 7D 00 00 00 
    18)     1912.9  Rx       508  8  88 BB D4 06 D1 FD FA C1 
    19)     2013.8  Rx       642  8  D9 15 11 BA 1C 6C C0 85 
    20)     2114.4  Rx        50  8  31 00 00 00 00 00 00 00 
    21)     2214.7  Rx       153  8  7C 01 00 00 00 00 00 00 
    22)     2315.2  Rx       341  8  7D 6E A1 63 66 05 1E 00 
    23)     2415.7  Rx       450  8  6C 00 00 00 00 00 00 00 
    24)     2516.1  Rx       153  8  EA 02 00 00 00 00 00 00 
    25)     2616.7  Rx        52  8  29 FB 4A 83 A6 DD 06 00 
    26)     2717.1  Rx       240  8  29 1F 10 00 00 00 00 00 
    27)     2817.6  Rx        A0  8  01 02 00 00 00 00 00 00 
    28)     2918.1  Rx         5  8  00 00 00 00 EC 00 00 00 
    29)     3018.6  Rx       65B  8  81 0A 00 00 E1 09 00 00 
    30)     3119.1  Rx       65B  8  C5 03 00 00 06 0A 00 00 
    31)     3219.5  Rx       675  8  00 B8 B9 EF 5C 4D C4 A2 
    32)     3320.0  Rx  10000211  8  24 49 F1 83 0F DA 95 0A 
    33)     3420.5  Rx       12C  8  13 93 4A CC 34 04 03 34 
    34)     3521.2  Rx        8F  8  01 00 00 00 00 00 00 00 
    35)     3621.9  Rx       644  8  F8 18 86 05 CB 16 69 DB 
    36)     3722.4  Rx       500  8  02 FB 0F 28 45 BC B2 3A 
    37)     3822.8  Rx  10000209  4  40 28 EF 0C 
    38)     3923.1  Rx       12B  8  8E 0B FD 0D A6 00 00 00 
    39)     4023.5  Rx       62B  8  7B 03 00 00 A8 07 00 00 
    40)     4124.2  Rx       650  8  1C F6 31 B7 00 00 00 00 
    41)     4224.9  Rx       236  8  F9 55 0A 74 AC A1 0B 8A 
    42)     4325.2  Rx  10000208  8  00 00 00 00 00 00 00 00 
    43)     4425.8  Rx       341  8  6E 09 E2 02 4C 1D 39 00 
    44)     4526.1  Rx       7C2  8  00 40 1B D2 76 31 17 8A 
    45)     4626.4  Rx       12A  8  7B 3D 6E 31 DA 19 00 00 
    46)     4727.0  Rx       178  8  79 E6 90 EF 37 18 1E 35 
    47)     4827.5  Rx       674  8  74 00 00 00 00 00 00 00 
    48)     4927.7  Rx       187  8  69 0B F0 2B EC 82 34 00 
    49)     5028.2  Rx       7D7  8  00 B0 B9 73 81 3B 2E 3F 
    50)     5128.6  Rx       70F  8  00 68 9E C0 48 51 5B C2 
    51)     5229.0  Rx       12A  8  34 7E 6B 5A A7 14 01 00 
    52)     5329.5  Rx       310  8  38 03 B9 2C 00 00 00 00 
    53)     5429.9  Rx         0  8  00 00 00 00 00 00 00 00 
    54)     5530.5  Rx       645  8  32 A4 0B C1 AA 29 00 00 
    55)     5630.8  Rx       644  8  DD C8 B1 CC F3 60 55 FB 
    56)     5731.6  Rx  10000211  8  D6 A8 25 3B 76 68 5E 8B 
    57)     5832.3  Rx  10000203  8  38 4A 04 10 92 04 88 5E 
    58)     5932.8  Rx       188  8  6A D9 9F 83 E7 C5 13 6D 
    59)     6033.3  Rx       505  8  11 B7 13 1A 5C 26 3C 70 
    60)     6133.7  Rx       50F  8  D2 4E A8 5C 1F 51 CF 11 
    61)     6234.3  Rx  10000209  4  40 F6 D3 04 
    62)     6334.6  Rx        A0  8  02 01 00 00 00 00 00 00 
    63)     6435.5  Rx       7C2  8  00 A0 99 87 0F 02 8B F0 
    64)     6536.2  Rx        52  8  05 74 39 AF C9 0E 1E 00 
    65)     6737.0  Rx       507  8  34 BB 7B 80 2A 80 F2 37 
    66)     6837.4  Rx       175  8  99 AA 07 DB E5 7F 00 00 
    67)     6937.9  Rx       65B  8  CC 08 00 00 E5 06 00 00 
    68)     7038.4  Rx       154  8  48 05 34 24 07 64 00 00 
    69)     7138.7  Rx       7C5  8  00 5E 1E B8 D8 DB 70 27 
    70)     7239.4  Rx       50E  8  4D AC 01 75 00 00 00 00 
    71)     7339.7  Rx       666  8  2A 10 08 36 6F AE 5E 2F 
    72)     7541.1  Rx       70F  8  00 58 10 96 E6 6E B3 6B 
    73)     7641.8  Rx       680  8  02 00 00 00 00 00 00 00 
    74)     7742.6  Rx       642  8  10 5A 51 88 E5 25 FB 53 
    75)     7843.2  Rx       341  8  BE FB 4A 38 16 0D 06 00 
    76)     7943.7  Rx        8F  8  01 00 00 00 00 00 00 00 
    77)     8044.5  Rx       7C5  8  00 58 F3 36 BE E8 D8 EE 
    78)     8144.7  Rx       173  8  00 ED 53 85 00 00 00 00 
    79)     8245.5  Rx       502  8  BB 62 8F C6 E2 5B 2F F9 
    80)     8345.9  Rx       4CD  8  6E 96 9D 10 BC CD 77 5E 
    81)     8446.4  Rx       642  8  5F D8 16 27 06 23 BE E8 
    82)     8546.8  Rx       7DA  8  00 78 E2 64 FC 01 4E 8F 
    83)     8647.6  Rx       668  8  48 3C 9D DB 00 00 00 00 
    84)     8848.6  Rx       188  8  16 46 EE 36 9A C1 A9 37 
    85)     8948.9  Rx       650  8  02 A3 64 92 00 00 00 00 
    86)     9049.6  Rx       187  8  33 C0 29 21 F8 CE 5D 00 
    87)     9150.3  Rx       65B  8  23 00 00 00 26 0B 00 00 
    88)     9251.0  Rx       153  8  16 01 00 00 00 00 00 00 
    89)     9351.4  Rx       50F  8  56 AE 05 DD 89 6E AD BA 
    90)     9452.3  Rx       12D  8  22 56 3F CD A8 16 97 BD 
    91)     9552.8  Rx  10000201  8  05 66 B5 AF 83 00 09 00 
    92)     9653.3  Rx        50  8  69 01 00 00 00 00 00 00 
    93)     9753.9  Rx       508  8  00 17 6D 02 C0 C5 2C 17 
    94)     9854.4  Rx       500  8  9B 7C 5A C5 7A 3F ED 1A 
    95)     9954.8  Rx       240  8  D6 A0 A1 00 00 00 00 00 
    96)    10055.4  Rx         3  8  00 00 00 00 80 6E 00 00 
    97)    10155.8  Rx       7C5  8  00 90 1C 5B C3 FE F4 72 
    98)    10256.4  Rx       668  8  DA F0 ED 03 00 00 00 00 
    99)    10356.8  Rx       506  8  6A C5 B9 60 05 E6 33 83 
   100)    10457.1  Rx       157  8  91 42 C7 34 3E 15 18 7A 
   101)    10557.5  Rx         7  8  00 00 00 00 80 57 00 00 
   102)    10658.3  Rx       7C5  8  00 BC 39 BB C7 6B 93 64 
   103)    10758.6  Rx       505  8  03 72 74 1A 26 6E 1F F2 
   104)    10859.0  Rx       680  8  00 00 00 00 00 00 00 00 
   105)    11059.7  Rx       50A  8  61 98 02 A8 8D 04 00 00 
   106)    11160.5  Rx        8F  8  00 00 00 00 00 00 00 00 
   107)    11260.9  Rx  10000211  8  3F 39 30 BF 81 D3 F4 2E 
   108)    11361.5  Rx        91  8  A0 85 01 31 00 00 00 00 
   109)    11461.9  Rx       641  8  00 DA 85 C4 37 10 8D 18 
   110)    11562.7  Rx       650  8  0D 76 76 88 00 00 00 00 
   111)    11663.5  Rx       170  8  BA 6E F9 31 4D AA 9D 8F 
   112)    11763.9  Rx       651  8  83 B8 EE 87 2B 00 00 00 
   113)    11864.2  Rx         2  8  00 5C 00 00 00 00 00 00 
   114)    11965.1  Rx       600  8  F6 28 A0 5B E6 C2 C1 69 
   115)    12065.6  Rx       503  8  5E A8 D4 29 60 F8 1C 59 
   116)    12166.3  Rx       651  8  16 F4 C4 F8 EF 00 00 00 
   117)    12267.0  Rx       600  8  6A 50 B8 6F 24 3B 82 4D 
   118)    12367.8  Rx        50  8  AA 02 00 00 00 00 00 00 
   119)    12468.5  Rx         7  8  00 00 00 00 80 6F 00 00 
   120)    12568.9  Rx       310  8  F3 03 9F 94 00 00 00 00 
   121)    12669.7  Rx       130  8  45 C6 9F 31 B8 6A C7 00 
   122)    12770.2  Rx       644  8  BD BA C3 8E 75 E7 24 EF 
   123)    12870.8  Rx  10000210  0   
   124)    12971.3  Rx        81  8  3E 00 55 00 00 00 00 00 
   125)    13071.8  Rx       361  8  67 BA AB 6D 71 5A A3 00 
   126)    13172.3  Rx       668  8  A1 6D 2E B0 00 00 00 00 
   127)    13373.2  Rx       7C2  8  00 88 A5 98 AD F9 3B 98 
   128)    13473.9  Rx  10000203  8  C0 12 20 1C 04 01 50 2D 
   129)    13574.3  Rx       310  8  82 03 EF 39 00 00 00 00 
   130)    13775.5  Rx       12B  8  BD 0F D6 0E 05 01 00 00 
   131)    13876.0  Rx  10000209  4  C0 40 31 0A 
   132)    13976.8  Rx       12D  8  00 09 E9 81 1D 30 C2 74 
   133)    14077.2  Rx       310  8  5A 03 2C 09 00 00 00 00 
   134)    14177.8  Rx         1  8  00 00 00 00 E0 00 00 00 
   135)    14479.2  Rx       65B  8  55 0F 00 00 F6 00 00 00 
   136)    14579.8  Rx       236  8  95 D9 AE 8E 9A 5B FE 6D 
   137)    14680.4  Rx       176  8  AF 76 69 00 34 A4 9D EA 
   138)    14780.8  Rx       500  8  42 15 E6 93 4D 39 DD 24 
   139)    14881.3  Rx         5  8  00 00 00 00 BA 00 00 00 
   140)    14981.6  Rx       70F  8  00 56 5E 25 B0 1B 90 27 
   141)    15081.8  Rx       7D7  8  00 B0 9E AF FC 71 A4 CE 
   142)    15283.3  Rx       177  8  00 00 00 00 AF C7 93 DE 
   143)    15383.9  Rx       12A  8  84 72 99 7F B2 63 01 00 
   144)    15484.6  Rx  10000207  8  00 1A D1 97 F3 FB DA 09 
   145)    15585.4  Rx       178  8  6C A2 E3 3F 59 BD C1 C4 
   146)    15685.8  Rx       187  8  E9 FA E0 1A DB FB DB 00 
   147)    15786.4  Rx       12D  8  7E 89 43 77 09 F4 63 CC 
   148)    15886.7  Rx        A0  8  00 04 00 00 00 00 00 00 
   149)    15987.1  Rx       179  8  97 6E 22 4E 91 3F B5 F8 
   150)    16087.8  Rx        81  8  1F 17 59 00 00 00 00 00 
   151)    16188.6  Rx       502  8  84 07 06 BC 14 FE EB B7 
   152)    16289.0  Rx       7DB  8  00 98 04 20 70 00 1A D1 
   153)    16389.4  Rx       64B  8  D1 03 00 00 17 0D 00 00 
   154)    16490.1  Rx       157  8  9E 75 F6 1C 7C 36 33 6C 
   155)    16590.4  Rx        51  8  09 02 00 00 B4 A5 00 00 
   156)    16690.7  Rx       501  8  B1 17 52 F4 F0 DF F1 76 
   157)    16891.8  Rx       501  8  59 C6 78 AE 4A 5E D4 A6 
   158)    16992.2  Rx  10000201  8  2E EC E3 55 71 00 07 00 
   159)    17092.7  Rx       341  8  E4 BD F9 7D 2E 1C 2D 00 
   160)    17193.0  Rx       12A  8  7A 34 8D 4E A1 24 00 00 
   161)    17293.7  Rx       645  8  6F D5 3B F0 B3 47 00 00 
   162)    17394.0  Rx         6  8  00 06 00 00 00 00 00 00 
   163)    17494.4  Rx       230  8  16 77 E9 DB 02 DC 24 A6 
   164)    17595.2  Rx       50A  8  26 C7 CF 01 30 01 00 00 
   165)    17695.9  Rx         2  8  80 69 00 00 00 00 00 00 
   166)    17796.2  Rx       666  8  0F C8 40 35 42 CC 52 32 
   167)    17896.5  Rx  10000209  4  C0 F3 5E 01 
   168)    17996.8  Rx         3  8  00 00 00 00 80 2F 00 00 
   169)    18097.2  Rx       176  8  97 E0 3A 00 96 22 6A 1D 
   170)    18197.4  Rx       674  8  FE 00 00 00 00 00 00 00 
   171)    18297.8  Rx       179  8  49 87 F7 3D 70 3D 7C 10 
   172)    18498.6  Rx       130  8  1B A5 F2 33 69 CC 0A 00 
   173)    18599.2  Rx       154  8  AC AA 3D 1B 3A 23 00 00 
   174)    18700.0  Rx       7DB  8  00 48 93 6C 61 2E F5 0A 
   175)    18800.5  Rx       64B  8  1C 0C 00 00 D1 07 00 00 
   176)    18900.9  Rx       50E  8  C1 83 A0 58 00 00 00 00 
   177)    19001.6  Rx       10C  8  79 3B 3D EE 08 00 00 00 
   178)    19101.8  Rx       187  8  E6 54 BC 1E B2 11 7C 00 
   179)    19202.6  Rx       12B  8  A4 0E 94 14 58 02 00 00 
   180)    19302.8  Rx       157  8  A0 08 3D 59 3D 3B 37 EC 
   181)    19403.1  Rx       170  8  F3 C7 C7 66 11 1C 70 DB 
   182)    19504.1  Rx       236  8  7B 98 8D 16 94 AD F9 40 
   183)    19604.5  Rx       500  8  81 BD 96 93 E6 85 4F A4 
   184)    19705.2  Rx       680  8  00 00 00 00 00 00 00 00 
   185)    19805.9  Rx       173  8  00 39 31 74 00 00 00 00 
   186)    20007.1  Rx       7C5  8  00 78 C2 86 D4 2E 0D F1 
   187)    20308.4  Rx  10000207  8  C7 EB 99 6E 9A 4C F4 F6 
   188)    20408.8  Rx       50E  8  E1 22 0F 59 00 00 00 00 
   189)    20509.5  Rx       7D6  8  84 00 00 00 00 00 00 00 
   190)    20610.0  Rx       70F  8  00 70 2E 6A 53 9F 78 DF 
   191)    20710.4  Rx       674  8  BD 00 00 00 00 00 00 00 
   192)    20810.7  Rx       12A  8  33 B8 1F E2 3D E3 02 00 
   193)    20911.5  Rx       7D8  8  40 11 F5 E6 C1 E0 A6 01 
   194)    21012.0  Rx         2  8  80 05 00 00 00 00 00 00 
   195)    21112.9  Rx       651  8  06 B0 1D 84 67 00 00 00 
   196)    21213.4  Rx       680  8  02 00 00 00 00 00 00 00 
   197)    21314.1  Rx  10000201  8  90 E7 C2 FC 41 00 F3 00 
   198)    21414.6  Rx       7C5  8  00 A8 A0 9D AA 36 6A 4B 
   199)    21515.5  Rx         3  8  00 00 00 00 80 3A 00 00 
   200)    21616.2  Rx         4  8  48 00 00 00 00 00 00 00 
   201)    21716.6  Rx       450  8  13 00 00 00 00 00 00 00 
   202)    21817.2  Rx       7DA  8  00 10 73 D1 34 47 BA F8 
   203)    21917.9  Rx       644  8  B5 45 7C 0B 3E F0 CF 09 
   204)    22018.3  Rx       10A  8  16 BA 37 6E 82 99 54 19 
   205)    22118.9  Rx       19F  8  55 A2 B7 7B 0F DA 28 F5 
   206)    22219.6  Rx         4  8  D0 00 00 00 00 00 00 00 
   207)    22320.2  Rx       12A  8  95 E8 87 62 77 7E 00 00 
   208)    22420.6  Rx       341  8  19 80 C7 57 28 EC 3A 00 
   209)    22521.2  Rx       500  8  EA 2D F6 4F FE 98 86 C2 
   210)    22622.0  Rx       50E  8  2F 43 A1 46 00 00 00 00 
   211)    22722.8  Rx       10A  8  89 84 97 7B CE D5 5E 0D 
   212)    22823.4  Rx       7D7  8  00 70 3A 6D CC A8 D7 7F 
   213)    22924.1  Rx       175  8  12 E4 02 1E 9A E5 00 00 
   214)    23024.9  Rx         5  8  00 00 00 00 82 00 00 00 
   215)    23125.8  Rx       173  8  01 8B E7 15 00 00 00 00 
   216)    23226.3  Rx        A0  8  00 06 00 00 00 00 00 00 
   217)    23327.1  Rx       12A  8  AB F6 80 81 1F 6C 02 00 
   218)    23428.0  Rx       507  8  84 96 F7 4A 56 9D 9C A2 
   219)    23528.5  Rx       12B  8  A5 0C CA 0E 66 03 00 00 
   220)    23629.0  Rx        52  8  23 6B 21 9F E5 5C 18 00 
   221)    23729.5  Rx       19F  8  18 B8 49 FC CE 42 F1 9B 
   222)    23830.1  Rx         3  8  00 00 00 00 80 7C 00 00 
   223)    23930.8  Rx       642  8  47 A3 EF A5 1D 3F 02 CE 
   224)    24031.1  Rx       7D8  8  00 54 D6 19 7F 9C F7 30 
   225)    24131.8  Rx       450  8  5C 00 00 00 00 00 00 00 
   226)    24232.3  Rx       7D7  8  00 78 A4 9A BA E8 F4 D4 
   227)    24333.1  Rx        52  8  E0 4F 0E 65 4B A0 09 00 
   228)    24433.5  Rx         5  8  00 00 00 00 55 00 00 00 
   229)    24533.9  Rx       230  8  58 72 AC 6F D5 A2 C3 DC 
   230)    24634.4  Rx  10000211  8  01 84 D3 BE 51 7F 8C 42 
   231)    24735.2  Rx       10B  8  00 1C 0D 00 00 00 00 00 
   232)    24835.8  Rx       230  8  EE 00 CD 32 10 E4 B9 9E 
   233)    24936.7  Rx  10000208  8  00 00 00 00 00 00 00 00 
   234)    25037.2  Rx         4  8  9B 00 00 00 00 00 00 00 
   235)    25138.0  Rx       651  8  BD 82 1B 27 C7 00 00 00 
   236)    25238.5  Rx       153  8  B1 02 00 00 00 00 00 00 
   237)    25339.0  Rx       19F  8  1F C7 FE 7C 51 F2 26 0D 
   238)    25439.5  Rx   8192A3B  1  11 
   239)    25539.9  Rx       668  8  59 B7 DF FC 00 00 00 00 
   240)    25640.3  Rx  10000201  8  29 12 7F 9D FA 00 5D 00 
   241)    25740.8  Rx       230  8  88 91 B2 62 0C 5D 0C 47 
   242)    25841.6  Rx         4  8  49 00 00 00 00 00 00 00 
   243)    25942.3  Rx       10C  8  82 3D 31 B4 07 00 00 00 
   244)    26042.6  Rx       650  8  18 F6 88 0D 00 00 00 00 
   245)    26142.9  Rx       503  8  B1 B4 19 ED CD BB 1E E2 
   246)    26243.3  Rx       230  8  D3 D7 BC 06 65 A8 F5 BE 
   247)    26344.2  Rx       501  8  80 C2 A1 1A 73 B3 AF E9 
   248)    26444.8  Rx       1A7  8  76 7D 10 E0 09 00 CE F6 
   249)    26545.1  Rx       7CC  8  18 00 00 00 00 00 00 00 
   250)    26646.1  Rx       505  8  AE 5D EE 1C 29 4A DA C6 
   251)    26746.7  Rx        A0  8  01 06 00 00 00 00 00 00 
   252)    26847.1  Rx       65B  8  D6 08 00 00 87 03 00 00 
   253)    26947.5  Rx       188  8  67 16 7B 72 D0 E7 54 9E 
   254)    27048.2  Rx       233  8  DB 05 B5 3E 4E 07 40 17 
   255)    27148.6  Rx       178  8  EC 90 BA E8 10 41 68 40 
   256)    27249.2  Rx       7D8  8  00 70 2B A4 7A 6C AE 81 
   257)    27349.5  Rx       680  8  01 00 00 00 00 00 00 00 
   258)    27449.8  Rx       154  8  FC D4 51 2E 1B 9D 00 00 
   259)    27550.2  Rx         6  8  00 5F 00 00 00 00 00 00 
   260)    27650.6  Rx       7D9  8  00 18 86 72 FD 8A AD 6C 
   261)    27750.9  Rx       500  8  1E 20 E3 84 21 0F B7 BD 
   262)    27851.4  Rx       7D8  8  00 E0 EB E6 A7 29 96 E6 
   263)    27951.9  Rx  10000207  8  C7 2C 81 E6 86 F8 42 8F 
   264)    28052.3  Rx       7D8  8  00 C4 86 8B E5 6D B4 59 
   265)    28152.6  Rx       644  8  C3 5A 94 4F 66 23 2E 47 
   266)    28253.2  Rx       177  8  00 00 00 00 69 A4 C6 A3 
   267)    28353.9  Rx         7  8  00 00 00 00 00 17 00 00 
   268)    28454.4  Rx       4CD  8  B3 32 13 24 CC 5C B0 5F 
   269)    28655.2  Rx       12E  8  F6 3C 36 C4 D4 D6 AF 86 
   270)    28755.8  Rx         1  8  00 00 00 00 35 00 00 00 
   271)    28856.2  Rx       509  8  33 D1 F0 37 01 00 00 00 
   272)    28956.8  Rx  10000207  8  8F 31 B4 2C 0D 93 D6 A1 
   273)    29057.7  Rx       173  8  01 FF 58 E4 00 00 00 00 
   274)    29158.1  Rx       173  8  01 2B CD 37 00 00 00 00 
   275)    29258.4  Rx  10000212  8  00 00 00 00 00 00 00 00 
   276)    29459.1  Rx       341  8  73 87 33 2D 54 54 08 00 
   277)    29560.3  Rx        81  8  6D 15 26 00 00 00 00 00 
   278)    29660.9  Rx       236  8  DF A6 76 25 79 33 AE 6A 
   279)    29761.6  Rx       7D8  8  00 20 BA 50 3D BC 97 FE 
   280)    29861.9  Rx       450  8  87 00 00 00 00 00 00 00 
   281)    29962.5  Rx       12E  8  9D 9D 9C 4A E4 A2 46 6D 
   282)    30063.1  Rx       177  8  00 00 00 00 C9 15 88 E4 
   283)    30163.7  Rx       157  8  C7 5E 50 9D BC 2E FA 3B 
   284)    30264.0  Rx       4CE  8  03 DB 00 00 00 00 00 00 
   285)    30364.4  Rx  10000210  0   
   286)    30464.8  Rx  10000212  8  00 00 00 00 00 00 00 00 
   287)    30565.3  Rx         0  8  5F 00 00 00 00 00 00 00 
   288)    30665.7  Rx       235  8  0D 04 00 00 00 00 00 00 
   289)    30765.9  Rx         5  8  00 00 00 00 B9 00 00 00 
   290)    30866.5  Rx  10000201  8  82 3F 1B C3 DA 00 DD 00 
   291)    30966.9  Rx       7DB  8  00 88 62 81 F4 8D 60 F3 
   292)    31067.6  Rx        8F  8  01 00 00 00 00 00 00 00 
   293)    31167.9  Rx  10000203  8  FC 21 28 23 4C 04 68 5B 
   294)    31268.5  Rx       65B  8  29 03 00 00 E3 03 00 00 
   295)    31369.4  Rx       176  8  3A 0E 33 00 68 7A D1 58 
   296)    31469.8  Rx       130  8  54 DA EA 6F F1 6B C0 00 
   297)    31570.1  Rx       641  8  00 53 F9 F9 94 F4 D9 0E 
   298)    31670.4  Rx       505  8  85 77 92 F8 38 91 FD AB 
   299)    31770.8  Rx       12B  8  1B 14 E8 11 1B 00 00 00 
   300)    31972.1  Rx       4CD  8  C1 CB 97 05 EF 07 6C A4 
   301)    32072.8  Rx       668  8  65 F8 7B DB 00 00 00 00 
   302)    32173.3  Rx       188  8  AF BC BE CD 52 E9 15 47 
   303)    32273.9  Rx         4  8  DD 00 00 00 00 00 00 00 
   304)    32374.5  Rx        51  8  09 51 00 00 0A F0 00 00 
   305)    32474.7  Rx       501  8  C4 F0 2A 7E 5C 03 FE 8C 
   306)    32575.3  Rx       173  8  00 58 48 62 00 00 00 00 
   307)    32675.7  Rx       631  8  CF 14 41 05 0C 75 AF 06 
   308)    32776.0  Rx       234  8  10 1D 14 03 00 00 00 00 
   309)    32876.6  Rx       230  8  F4 83 1B D7 EA E8 BA C2 
   310)    32976.9  Rx       130  8  93 C6 2C 1F AB 5B BB 00 
   311)    33077.3  Rx       12A  8  83 86 54 CD FB 7E 02 00 
   312)    33177.7  Rx       641  8  00 48 E6 5E 17 5C BD A3 
   313)    33278.1  Rx       7D9  8  00 D8 44 94 38 3B A3 FD 
   314)    33378.7  Rx       175  8  41 A9 10 42 EC DD 00 00 
   315)    33479.2  Rx       341  8  64 71 51 6A 74 B4 2F 00 
   316)    33579.8  Rx       509  8  79 3C BB 91 02 00 00 00 
   317)    33680.6  Rx        A0  8  00 05 00 00 00 00 00 00 
   318)    33780.9  Rx        8F  8  00 00 00 00 00 00 00 00 
   319)    33881.3  Rx       631  8  C9 AB A0 50 B1 60 F7 B1 
   320)    33981.7  Rx        81  8  19 26 29 00 00 00 00 00 
   321)    34082.0  Rx  10000212  8  00 00 00 00 00 00 00 00 
   322)    34182.4  Rx        80  8  55 55 02 02 2C 02 25 17 
   323)    34283.1  Rx       173  8  00 A8 BA 19 00 00 00 00 
   324)    34383.9  Rx  10000207  8  EB 92 5E 35 89 40 38 95 
   325)    34484.2  Rx       50F  8  01 A8 02 27 36 A7 CC 93 
   326)    34584.8  Rx  10000212  8  00 00 00 00 00 00 00 00 
   327)    34685.2  Rx       12C  8  1F 76 B0 39 C1 5D 31 05 
   328)    34786.0  Rx  10000209  4  00 B4 C4 04 
   329)    34886.7  Rx       50A  8  76 DC 1E BF 45 02 00 00 
   330)    34987.0  Rx  10000207  8  0D 8E 34 EA E9 8F 05 17 
   331)    35087.7  Rx       234  8  1C 04 0B 1B 00 00 00 00 
   332)    35188.1  Rx        50  8  BF 01 00 00 00 00 00 00 
   333)    35288.8  Rx        8E  8  6D DE F2 20 00 00 00 00 
   334)    35389.1  Rx  10000209  4  C0 DD 91 07 
   335)    35489.5  Rx  10000207  8  39 4E 53 02 6F 0B 27 39 
   336)    35590.7  Rx       507  8  AE 7E 92 3E 61 61 47 67 
   337)    35691.0  Rx       506  8  45 58 B3 6C 67 E7 C4 32 
   338)    35791.4  Rx        50  8  D5 03 00 00 00 00 00 00 
   339)    35892.1  Rx       508  8  CC 1D FB 07 FB 84 64 F5 
   340)    35992.7  Rx       674  8  A9 00 00 00 00 00 00 00 
   341)    36193.4  Rx       7B4  8  7F 00 00 00 00 00 00 00 
   342)    36294.1  Rx         0  8  F5 00 00 00 00 00 00 00 
   343)    36394.4  Rx       234  8  1C 06 1B 1D 00 00 00 00 
   344)    36494.9  Rx        50  8  BA 00 00 00 00 00 00 00 
   345)    36595.4  Rx       666  8  4F 59 F6 D2 88 50 17 CE 
   346)    36696.1  Rx       19F  8  B0 27 CD 51 C7 03 76 D9 
   347)    36796.8  Rx       666  8  A9 3A 56 B9 F3 FF F7 4A 
   348)    36897.4  Rx         2  8  00 24 00 00 00 00 00 00 
   349)    36997.9  Rx       310  8  F6 01 F3 06 00 00 00 00 
   350)    37198.8  Rx         4  8  64 00 00 00 00 00 00 00 
   351)    37299.6  Rx        80  8  4B 79 03 02 A9 09 05 04 
   352)    37400.4  Rx       7C2  8  00 90 46 A7 BC 26 FB F8 
   353)    37501.0  Rx       675  8  00 C0 F0 32 EF 07 4C B9 
   354)    37601.4  Rx         1  8  00 00 00 00 3D 00 00 00 
   355)    37802.5  Rx       10A  8  91 26 49 C2 80 52 26 09 
   356)    37903.0  Rx  10000204  8  04 5B B8 24 AC 58 68 10 
   357)    38003.9  Rx       187  8  88 15 BE A6 5D 75 E6 00 
   358)    38104.6  Rx       19F  8  17 D3 1D 0A 3E E1 38 A6 
   359)    38205.2  Rx       154  8  EA 52 53 2F 04 A7 00 00 
   360)    38305.6  Rx        8F  8  00 00 00 00 00 00 00 00 
   361)    38406.2  Rx       7D6  8  49 00 00 00 00 00 00 00 
   362)    38506.6  Rx       12A  8  80 3C 3F 0F AA DC 00 00 
   363)    38607.1  Rx       50F  8  60 59 2B 87 4E A7 04 DC 
   364)    38707.5  Rx       310  8  FB 01 8A EE 00 00 00 00 
   365)    38807.9  Rx       12E  8  C9 07 0B C1 0C 5B 45 84 
   366)    38908.5  Rx         0  8  82 00 00 00 00 00 00 00 
   367)    39008.8  Rx       674  8  FC 00 00 00 00 00 00 00 
   368)    39109.2  Rx         2  8  80 40 00 00 00 00 00 00 
   369)    39209.8  Rx       50A  8  67 61 2E C7 57 04 00 00 
   370)    39310.5  Rx         2  8  80 2D 00 00 00 00 00 00 
   371)    39410.9  Rx       503  8  DB 10 E2 3F 0C 84 17 D9 
   372)    39511.6  Rx        91  8  2F 16 B9 B2 00 00 00 00 
   373)    39612.6  Rx       230  8  28 C6 69 FE C2 27 10 48 
   374)    39713.3  Rx       7DA  8  00 28 A8 4A A8 DA 65 8D 
   375)    39813.5  Rx       641  8  00 D4 A3 BF A0 34 34 24 
   376)    39913.8  Rx       230  8  4A EC F3 58 F9 93 DF 07 
   377)    40014.6  Rx       235  8  FB 00 00 00 00 00 00 00 
   378)    40115.2  Rx        52  8  EB C6 E9 4E 29 0D 0E 00 
   379)    40216.0  Rx       187  8  BB 4B 98 69 D7 36 EB 00 
   380)    40316.8  Rx       7CC  8  C2 00 00 00 00 00 00 00 
   381)    40417.6  Rx       10A  8  89 50 66 96 B5 FB 67 0C 
   382)    40518.1  Rx       235  8  13 03 00 00 00 00 00 00 
   383)    40618.9  Rx         5  8  00 00 00 00 8D 00 00 00 
   384)    40719.5  Rx         0  8  29 00 00 00 00 00 00 00 
   385)    40819.9  Rx       50E  8  1B C8 A9 56 00 00 00 00 
   386)    40920.3  Rx       12E  8  68 8D 3F 4F F4 F5 1C D0 
   387)    41021.0  Rx       644  8  3E F1 53 C2 2D 87 42 29 
   388)    41121.5  Rx       4CD  8  E6 62 3B 9C 90 76 69 AD 
   389)    41322.2  Rx       175  8  DD AC DC 95 E2 B8 00 00 
   390)    41422.9  Rx  10000209  4  C0 A7 23 06 
   391)    41523.4  Rx       505  8  44 95 8D 3D E4 31 0E 44 
   392)    41623.8  Rx       175  8  90 E0 45 45 19 4A 00 00 
   393)    41724.2  Rx       10B  8  06 0D 08 00 00 00 00 00 
   394)    41824.5  Rx       64B  8  90 01 00 00 6D 07 00 00 
   395)    41924.9  Rx       10A  8  DC E1 56 19 19 49 09 10 
   396)    42025.3  Rx       176  8  F8 F0 99 00 CA 81 E7 BC 
   397)    42126.0  Rx         7  8  00 00 00 00 80 56 00 00 
   398)    42226.3  Rx       310  8  58 00 B7 8B 00 00 00 00 
   399)    42327.1  Rx       361  8  8C E3 AC 38 AE 5F 52 00 
   400)    42427.5  Rx       503  8  98 58 1F B9 36 7E 61 5C 
   401)    42528.1  Rx       233  8  8A DF C7 2A 8B 6A 9D 61 
   402)    42628.4  Rx       450  8  BD 00 00 00 00 00 00 00 
   403)    42728.8  Rx         4  8  CA 00 00 00 00 00 00 00 
   404)    42829.7  Rx       234  8  1D 0B 16 07 00 00 00 00 
   405)    42930.1  Rx        81  8  55 15 09 00 00 00 00 00 
   406)    43030.4  Rx        50  8  63 01 00 00 00 00 00 00 
   407)    43130.9  Rx         1  8  00 00 00 00 DF 00 00 00 
   408)    43231.5  Rx       130  8  34 F5 41 04 8C 24 6B 00 
   409)    43331.9  Rx       650  8  08 C5 58 10 00 00 00 00 
   410)    43432.2  Rx         4  8  A3 00 00 00 00 00 00 00 
   411)    43532.7  Rx       12F  8  17 E7 E9 15 F5 B6 17 4F 
   412)    43633.3  Rx        52  8  8B 54 AE C0 EB 3E 12 00 
   413)    43733.9  Rx        81  8  2A 35 26 00 00 00 00 00 
   414)    43834.1  Rx       64B  8  ED 0A 00 00 4E 0C 00 00 
   415)    43934.8  Rx       12F  8  D8 96 5E BA E7 FA B3 F9 
   416)    44035.5  Rx       310  8  9A 02 A3 A5 00 00 00 00 
   417)    44136.0  Rx       4CE  8  07 3A 00 00 00 00 00 00 
   418)    44337.2  Rx       4CD  8  A5 E1 6B 6A 76 8D 7B DB 
   419)    44438.0  Rx       234  8  10 0E 1E 13 00 00 00 00 
   420)    44538.2  Rx       176  8  F7 A9 47 00 47 F6 83 77 
   421)    44639.0  Rx       341  8  4E AC 1B 28 56 F2 16 00 
   422)    44739.6  Rx        50  8  D1 03 00 00 00 00 00 00 
   423)    44840.0  Rx  10000201  8  51 1D D8 64 72 00 97 00 
   424)    45041.1  Rx         1  8  00 00 00 00 2E 00 00 00 
   425)    45141.7  Rx       12C  8  71 8A F3 D6 78 11 04 29 
   426)    45242.1  Rx        50  8  7E 02 00 00 00 00 00 00 
   427)    45342.9  Rx         3  8  00 00 00 00 80 61 00 00 
   428)    45443.6  Rx  10000210  0   
   429)    45544.0  Rx       680  8  02 00 00 00 00 00 00 00 
   430)    45644.6  Rx  10000207  8  2F 35 17 19 96 C3 01 0D 
   431)    45845.6  Rx       310  8  37 00 2E BC 00 00 00 00 
   432)    46046.5  Rx       502  8  8A AC E9 5A 96 97 AE 91 
   433)    46147.1  Rx       7C5  8  00 F0 8B 67 EA D1 7E 34 
