;$FILEVERSION=1.1
;$STARTTIME=46001.9167902256
;
;   Start time: 10-12-2025 22:00:10.675
;   Generated by AtomX
;
;   Message Number
;   |         Time Offset (ms)
;   |         |        Type
;   |         |        |        ID (hex)
;   |         |        |        |     Data Length
;   |         |        |        |     |   Data Bytes (hex) ...
;   |         |        |        |     |   |
;---+--   ----+----  --+--  ----+---  +  -+ -- -- -- -- -- -- --
     1)        0.0  Rx       506  8  F3 17 79 9C F7 48 A8 A6 
     2)      101.1  Rx       70F  8  00 92 C0 54 01 38 86 2C 
     3)      202.8  Rx       12B  8  4F 18 8E 11 15 01 00 00 
     4)      303.4  Rx       651  8  99 98 FB 46 A0 00 00 00 
     5)      404.1  Rx       153  8  F3 02 00 00 00 00 00 00 
     6)      505.0  Rx       12A  8  88 F3 58 28 8C 1B 03 00 
     7)      605.8  Rx        8F  8  01 00 00 00 00 00 00 00 
     8)      706.6  Rx       177  8  00 00 00 00 9E FB 73 79 
     9)      807.3  Rx       501  8  E0 62 B0 41 A3 E8 00 A2 
    10)      908.3  Rx       19F  8  06 C6 95 BF E8 D7 0C 56 
    11)     1008.9  Rx  10000212  8  00 00 00 00 00 00 00 00 
    12)     1109.7  Rx        50  8  6E 03 00 00 00 00 00 00 
    13)     1210.9  Rx       179  8  C7 79 5B 5D 41 68 0F 2D 
    14)     1311.8  Rx       644  8  CB 49 07 94 61 60 25 BB 
    15)     1414.9  Rx        51  8  FD 1F 00 00 84 08 00 00 
    16)     1515.6  Rx        51  8  40 A1 00 00 38 43 00 00 
    17)     1616.2  Rx       642  8  4A DB C1 F2 8D 51 E8 03 
    18)     1716.9  Rx       178  8  92 03 06 D8 BD 79 FB 71 
    19)     1817.8  Rx       177  8  00 00 00 00 3D 31 55 D1 
    20)     1918.4  Rx       176  8  B2 A9 EF 00 6F 08 AC 72 
    21)     2019.3  Rx       642  8  25 1C 1C 67 95 0B 78 DC 
    22)     2119.7  Rx       668  8  C7 45 A9 7C 00 00 00 00 
    23)     2220.3  Rx         5  8  00 00 00 00 3F 00 00 00 
    24)     2321.1  Rx         6  8  00 68 00 00 00 00 00 00 
    25)     2421.7  Rx        8E  8  EB DC FF 97 00 00 00 00 
    26)     2522.3  Rx       642  8  51 45 D6 61 30 76 3A E7 
    27)     2623.3  Rx       7D6  8  BC 00 00 00 00 00 00 00 
    28)     2723.9  Rx       674  8  7A 00 00 00 00 00 00 00 
    29)     2824.6  Rx        91  8  35 CB E7 DD 00 00 00 00 
    30)     2925.0  Rx       157  8  5C 33 68 E2 D8 18 7B 18 
    31)     3025.5  Rx       668  8  84 AE F1 06 00 00 00 00 
    32)     3126.4  Rx       4CE  8  00 67 00 00 00 00 00 00 
    33)     3227.1  Rx        50  8  E8 00 00 00 00 00 00 00 
    34)     3328.0  Rx       642  8  87 27 2B 9F 10 01 4B 94 
    35)     3428.7  Rx       4CE  8  01 46 00 00 00 00 00 00 
    36)     3529.7  Rx        51  8  AF E3 00 00 80 44 00 00 
    37)     3630.3  Rx       642  8  37 FF F6 C2 66 A6 BF CF 
    38)     3731.4  Rx        81  8  1F 11 6C 00 00 00 00 00 
    39)     3832.3  Rx       157  8  CB DE AF 7D 08 41 44 81 
    40)     3932.9  Rx  10000207  8  A1 03 1D 7A 0C 7A EA 8B 
    41)     4033.6  Rx       234  8  08 07 07 15 00 00 00 00 
    42)     4134.4  Rx         0  8  82 00 00 00 00 00 00 00 
    43)     4234.9  Rx       507  8  41 F2 79 8A 63 E1 34 C7 
    44)     4335.7  Rx       10A  8  8F 01 55 8B FC 1B 25 19 
    45)     4436.7  Rx       177  8  00 00 00 00 4F 8B E5 94 
    46)     4537.6  Rx         7  8  00 00 00 00 00 61 00 00 
    47)     4638.3  Rx  10000209  4  C0 4D C1 03 
    48)     4739.2  Rx  10000204  8  6C 39 EC 13 58 4D C4 22 
    49)     4839.7  Rx         3  8  00 00 00 00 00 20 00 00 
    50)     4940.6  Rx       62B  8  74 04 00 00 84 06 00 00 
    51)     5041.5  Rx       652  8  B7 92 EC 73 28 CA 00 00 
    52)     5142.4  Rx  10000208  8  00 00 00 00 00 00 00 00 
    53)     5243.2  Rx       179  8  2C 34 9C 8F 90 90 40 68 
    54)     5343.7  Rx       12F  8  20 5D 61 85 B8 B4 F8 13 
    55)     5544.9  Rx         2  8  00 5B 00 00 00 00 00 00 
    56)     5645.6  Rx  10000204  8  A0 0F 74 59 44 48 14 1E 
    57)     5746.6  Rx       240  8  A9 32 62 00 00 00 00 00 
    58)     5847.2  Rx       170  8  77 33 D9 C3 B5 6D 41 D4 
    59)     5947.7  Rx        8E  8  E4 0E 39 87 00 00 00 00 
    60)     6048.6  Rx        A0  8  03 03 00 00 00 00 00 00 
    61)     6149.1  Rx       7C5  8  00 2C CC 09 69 26 C4 44 
    62)     6249.9  Rx       7DB  8  00 35 DA 8A 98 2D 39 11 
    63)     6350.5  Rx       4CE  8  07 12 00 00 00 00 00 00 
    64)     6451.2  Rx       240  8  68 E0 93 00 00 00 00 00 
    65)     6551.9  Rx       234  8  1F 15 12 1C 00 00 00 00 
    66)     6653.0  Rx       644  8  DE E2 0D 11 43 0F FB B5 
    67)     6753.5  Rx       7D9  8  00 C0 54 38 05 00 EF 90 
    68)     6854.0  Rx  10000201  8  DF 9C D8 A0 58 00 28 00 
    69)     6954.9  Rx       177  8  00 00 00 00 00 CE 36 87 
    70)     7055.6  Rx       7DA  8  00 54 1B CC 50 A4 B5 47 
    71)     7156.1  Rx       4CD  8  E2 2B CE 7C 45 96 74 B3 
    72)     7256.7  Rx        81  8  3E 21 35 00 00 00 00 00 
    73)     7357.4  Rx  10000204  8  88 45 60 09 68 29 70 30 
    74)     7458.5  Rx  10000209  4  00 D4 65 0C 
    75)     7559.2  Rx       70F  8  00 A8 91 BA 96 BF B4 93 
    76)     7660.0  Rx       651  8  7A B2 1C 18 6D 00 00 00 
    77)     7761.0  Rx       4CE  8  04 54 00 00 00 00 00 00 
    78)     7861.8  Rx         0  8  5D 00 00 00 00 00 00 00 
    79)     7962.3  Rx       503  8  0C EE 4F F4 0A AE 05 FD 
    80)     8062.7  Rx       7D7  8  00 F0 0A 60 E8 78 FD 35 
    81)     8163.4  Rx       500  8  6A CF 0D DF 4B F1 9C D3 
    82)     8264.1  Rx         1  8  00 00 00 00 55 00 00 00 
    83)     8365.1  Rx       644  8  64 60 36 71 94 C0 C1 25 
    84)     8473.0  Rx       235  8  2B 04 00 00 00 00 00 00 
    85)     8576.3  Rx       7DB  8  00 78 3B 10 DA 78 07 B3 
    86)     8777.6  Rx       674  8  88 00 00 00 00 00 00 00 
    87)     8978.6  Rx       501  8  C6 56 2E 9C 05 B5 29 5A 
    88)     9079.5  Rx       153  8  0C 00 00 00 00 00 00 00 
    89)     9180.3  Rx  10000204  8  5C 44 7C 15 44 61 08 20 
    90)     9281.1  Rx       10C  8  31 2C DB 7A 02 00 00 00 
    91)     9382.0  Rx       64B  8  CA 03 00 00 B3 0D 00 00 
    92)     9482.5  Rx       12E  8  10 B7 D0 89 2A 54 F5 3E 
    93)     9583.1  Rx       130  8  B0 A6 CE B1 2D AE 47 00 
    94)     9683.8  Rx       157  8  38 CA 9E 5E 94 87 7A 8A 
    95)     9784.8  Rx       371  8  6C 79 01 00 00 00 00 00 
    96)     9885.7  Rx       680  8  01 00 00 00 00 00 00 00 
    97)     9986.4  Rx       7B4  8  22 00 00 00 00 00 00 00 
    98)    10087.4  Rx       631  8  0F 3E C5 CC 38 D5 1E 8C 
    99)    10188.2  Rx       130  8  DD 1F AB 6E 63 44 9E 00 
   100)    10289.1  Rx       50F  8  B5 94 DA F4 E4 C6 CF 94 
   101)    10389.9  Rx       501  8  21 1D 8E 2A 8C A3 27 6B 
   102)    10490.4  Rx       130  8  7C CF 46 C0 4B CF E1 00 
   103)    10591.3  Rx       235  8  5C 01 00 00 00 00 00 00 
   104)    10792.5  Rx       644  8  F2 3E 8C 4B C9 C6 24 ED 
   105)    10892.9  Rx       650  8  11 40 00 B3 00 00 00 00 
   106)    10993.3  Rx       666  8  38 0F 87 C2 1B 72 FF BE 
   107)    11094.2  Rx  10000207  8  56 33 37 B6 0E DD 21 F9 
   108)    11194.9  Rx       645  8  72 80 8B B7 FA 11 00 00 
   109)    11296.0  Rx       668  8  E4 36 2F 13 00 00 00 00 
   110)    11396.6  Rx       675  8  00 98 48 AB 31 67 6D B0 
   111)    11497.6  Rx       65B  8  7A 09 00 00 40 0B 00 00 
   112)    11599.1  Rx   8192A3B  1  04 
   113)    11699.9  Rx       361  8  0A 28 9C DE 0A 40 51 01 
   114)    11800.3  Rx  10000201  8  85 A5 39 91 AC 00 D9 00 
   115)    11901.0  Rx       154  8  5E 3E 77 21 06 14 00 00 
   116)    12001.5  Rx        A0  8  00 05 00 00 00 00 00 00 
   117)    12102.0  Rx  10000203  8  E8 35 C4 09 66 03 48 3F 
   118)    12203.0  Rx       7B4  8  EA 00 00 00 00 00 00 00 
   119)    12303.8  Rx       10C  8  91 24 E6 F5 0D 00 00 00 
   120)    12404.5  Rx       7D8  8  00 FC 9E A9 80 6C FF 2E 
   121)    12505.0  Rx       12A  8  9D 33 DC 14 D1 DA 00 00 
   122)    12605.5  Rx       675  8  00 60 C2 32 04 BE 3D 3F 
   123)    12706.9  Rx         7  8  00 00 00 00 80 43 00 00 
   124)    12807.4  Rx       680  8  02 00 00 00 00 00 00 00 
   125)    12908.2  Rx       236  8  9A 7B 3A FE 29 D8 BE 12 
   126)    13008.8  Rx       641  8  00 7B 29 A6 EF C6 40 19 
   127)    13109.3  Rx       176  8  A4 A5 02 00 33 DB BE 73 
   128)    13310.4  Rx       12E  8  02 CF 92 93 B8 7A 6B 09 
   129)    13410.9  Rx         7  8  00 00 00 00 80 56 00 00 
   130)    13511.5  Rx       157  8  F5 7B F3 10 75 C5 70 62 
   131)    13612.2  Rx       130  8  D1 81 AC A4 37 26 3B 00 
   132)    13713.0  Rx       450  8  60 00 00 00 00 00 00 00 
   133)    13813.8  Rx       12E  8  9B 94 2D 98 60 A0 28 4A 
   134)    13914.8  Rx       7D9  8  00 7C D0 DA 0D 0F C6 47 
   135)    14015.4  Rx  10000204  8  D4 30 4C 04 84 35 58 4D 
   136)    14116.2  Rx       12F  8  4E D5 72 2D 6F 9A B9 91 
   137)    14216.7  Rx       188  8  C7 00 90 B4 9E A8 3D 52 
   138)    14317.2  Rx  10000212  8  00 00 00 00 00 00 00 00 
   139)    14418.0  Rx       4CD  8  1F D0 EE 52 5D 9A 95 FC 
   140)    14619.4  Rx       4CD  8  71 41 EE 2B 96 19 5A 16 
   141)    14720.0  Rx       70F  8  00 70 A7 3D 11 30 2A 42 
   142)    14820.7  Rx       7C2  8  00 70 35 0F 3C 68 E4 BE 
   143)    14921.6  Rx       170  8  CA 9B 2E 3D D6 6B 2A 45 
   144)    15022.5  Rx       674  8  43 00 00 00 00 00 00 00 
   145)    15123.5  Rx         1  8  00 00 00 00 77 00 00 00 
   146)    15224.3  Rx       62B  8  66 0E 00 00 CE 03 00 00 
   147)    15324.7  Rx       176  8  FD 76 75 00 7A 4A A5 DF 
   148)    15425.2  Rx       70F  8  00 FA F2 7B 9C 7A 58 2E 
   149)    15525.6  Rx       503  8  A3 40 1D 1B B8 E3 F6 E6 
   150)    15626.4  Rx       501  8  87 41 2B A1 05 5E 6F 85 
   151)    15727.1  Rx       12F  8  A4 B8 0E 74 D5 D4 E8 74 
   152)    15827.7  Rx       187  8  57 10 19 74 5C CB 14 00 
   153)    15928.4  Rx       130  8  53 2F 43 76 89 A9 5A 00 
   154)    16029.2  Rx       7C2  8  00 68 CE 5B B5 A7 3F 8E 
   155)    16130.0  Rx       153  8  64 02 00 00 00 00 00 00 
   156)    16231.6  Rx       12C  8  B9 18 23 04 A4 E3 06 3A 
   157)    16332.4  Rx       233  8  77 AB 18 5F 0B F9 69 F6 
   158)    16433.2  Rx       50A  8  C2 99 05 46 B9 00 00 00 
   159)    16634.5  Rx        50  8  75 03 00 00 00 00 00 00 
   160)    16735.5  Rx       176  8  A0 96 DA 00 2F 87 AE 8D 
   161)    16836.2  Rx       233  8  2F BD DD 1B 22 66 2A DB 
   162)    16936.8  Rx         3  8  00 00 00 00 00 3F 00 00 
   163)    17137.8  Rx       675  8  00 64 F6 6A 65 1E 46 5A 
   164)    17238.3  Rx       502  8  C9 A6 94 CF 88 D4 6D 55 
   165)    17339.3  Rx       7C2  8  00 78 8D 9D B7 F2 D2 4A 
   166)    17440.1  Rx       652  8  82 6F 8B FE 7F AC 00 00 
   167)    17541.0  Rx       7D9  8  00 A8 5B 69 FE CC C1 82 
   168)    17742.5  Rx       7B4  8  55 00 00 00 00 00 00 00 
   169)    17843.4  Rx         4  8  57 00 00 00 00 00 00 00 
   170)    18044.4  Rx       341  8  C6 5D 18 3B 28 A2 0B 00 
   171)    18145.2  Rx       7D6  8  02 00 00 00 00 00 00 00 
   172)    18246.1  Rx       507  8  B1 6A 88 00 A8 C1 ED 50 
   173)    18347.1  Rx       65B  8  A9 0E 00 00 20 07 00 00 
   174)    18448.0  Rx       500  8  7E ED A7 71 87 9F 30 FF 
   175)    18549.0  Rx       675  8  00 50 76 DA F2 98 6D 6A 
   176)    18651.1  Rx       675  8  00 DC 9D 15 61 F1 BF 4D 
   177)    18751.8  Rx       503  8  DD DB 46 03 AA 47 10 C8 
   178)    18852.4  Rx  10000201  8  E0 42 93 70 AC 00 74 00 
   179)    18953.1  Rx       361  8  7D 8E 23 30 19 9E 86 01 
   180)    19053.9  Rx       341  8  A4 8C B3 06 12 E0 19 00 
   181)    19255.3  Rx       50A  8  91 24 14 D2 60 05 00 00 
   182)    19356.0  Rx       505  8  7D E1 C1 4D AE E4 4E 22 
   183)    19456.6  Rx       62B  8  D9 07 00 00 E8 05 00 00 
   184)    19557.3  Rx       235  8  5C 03 00 00 00 00 00 00 
   185)    19658.4  Rx        A0  8  01 00 00 00 00 00 00 00 
   186)    19759.3  Rx  10000210  0   
   187)    19859.8  Rx       7D7  8  00 18 5E 1B EC 4A 27 BB 
   188)    19960.5  Rx  10000210  0   
   189)    20061.2  Rx       508  8  A1 D8 F9 14 ED 20 D1 42 
   190)    20161.9  Rx        51  8  B5 4D 00 00 12 55 00 00 
   191)    20262.9  Rx       502  8  70 EB E2 79 C5 B8 79 3A 
   192)    20363.4  Rx       12D  8  3E AB 9B 92 B7 D1 44 C2 
   193)    20464.2  Rx       645  8  35 3F CE 70 64 C5 00 00 
   194)    20564.8  Rx       12F  8  C0 8C 8F FE 34 64 9B 44 
   195)    20665.5  Rx       50F  8  C5 8B C3 A5 95 4B 05 4B 
   196)    20766.5  Rx       508  8  F6 34 49 00 DB D0 31 74 
   197)    20867.1  Rx       450  8  DA 00 00 00 00 00 00 00 
   198)    20967.9  Rx       502  8  DB 17 0F 15 A7 29 64 F1 
   199)    21068.7  Rx       509  8  44 6B C5 9C 03 00 00 00 
   200)    21169.3  Rx       502  8  86 B4 E3 ED A0 2A BE EB 
   201)    21270.0  Rx       644  8  D5 F8 74 B1 84 9B 7A 65 
   202)    21471.7  Rx       50F  8  C5 C6 FC AD 3F 1F F2 C3 
   203)    21572.2  Rx       64B  8  2C 0C 00 00 76 07 00 00 
   204)    21672.9  Rx       170  8  16 54 0C 36 35 9A DF 6C 
   205)    21773.5  Rx         7  8  00 00 00 00 00 4F 00 00 
   206)    21874.1  Rx       12D  8  AC C8 D3 06 5F A9 C4 EE 
   207)    21975.3  Rx       70F  8  00 D4 2F 84 98 F2 9F 6F 
   208)    22076.0  Rx       666  8  19 3D 1C 6D 59 7B BB 45 
   209)    22176.7  Rx       70F  8  00 CC 71 8C 48 6D AF 42 
   210)    22277.7  Rx       341  8  84 A5 6A 2B 2C B3 28 00 
   211)    22378.5  Rx       12F  8  AA BD DC 1F C5 4E 38 32 
   212)    22479.8  Rx       19F  8  40 BC AF 65 D6 7E F7 2A 
   213)    22580.9  Rx       361  8  64 5E 66 06 E2 8D A6 00 
   214)    22681.6  Rx       7DA  8  00 48 46 38 98 7A 3B F1 
   215)    22782.2  Rx       157  8  6B 92 8A 97 8C 32 40 2D 
   216)    22882.9  Rx        81  8  3C 21 14 00 00 00 00 00 
   217)    22983.6  Rx         4  8  7D 00 00 00 00 00 00 00 
   218)    23084.3  Rx       64F  8  44 B5 A9 89 52 8B BC BC 
   219)    23184.9  Rx  10000207  8  FB FD F6 1E 49 C8 BD 5F 
   220)    23285.6  Rx       505  8  81 CB B7 25 8E 14 5A D5 
   221)    23386.7  Rx       7D6  8  F3 00 00 00 00 00 00 00 
   222)    23487.6  Rx         1  8  00 00 00 00 7D 00 00 00 
   223)    23588.2  Rx       64B  8  C3 01 00 00 34 0D 00 00 
   224)    23688.9  Rx       600  8  2A 00 95 2C AF CD B5 B4 
   225)    23789.7  Rx       361  8  78 BC 8B 31 2A 01 5E 01 
   226)    23890.8  Rx       7CC  8  BB 00 00 00 00 00 00 00 
   227)    23991.2  Rx       10C  8  98 2C DA EF 04 00 00 00 
   228)    24092.5  Rx       651  8  F4 C9 01 AD 07 00 00 00 
   229)    24193.3  Rx       4CD  8  97 C4 9D 7D 26 E4 E0 0C 
   230)    24293.7  Rx         6  8  00 1A 00 00 00 00 00 00 
   231)    24395.1  Rx  10000201  8  2C C1 EC 37 4A 00 A0 00 
   232)    24495.9  Rx       644  8  53 B8 E2 01 A4 F5 CC 73 
   233)    24596.7  Rx         7  8  00 00 00 00 00 22 00 00 
   234)    24697.8  Rx       500  8  5C 0F 83 B3 76 D9 9E 49 
   235)    24798.3  Rx       7B4  8  0E 00 00 00 00 00 00 00 
   236)    24898.6  Rx       64F  8  6E EB AF 7D 82 C5 3F 17 
   237)    24999.3  Rx        51  8  D5 06 00 00 76 B1 00 00 
   238)    25102.3  Rx       503  8  14 FE C8 4A 0F 61 6E 00 
   239)    25207.2  Rx       175  8  A7 DE C2 25 69 7C 00 00 
   240)    25308.0  Rx       642  8  48 4A 90 60 40 38 14 BE 
   241)    25408.8  Rx       240  8  81 E8 1D 00 00 00 00 00 
   242)    25509.6  Rx       7D8  8  00 D4 A6 D9 D5 FC B9 67 
   243)    25610.1  Rx        91  8  B0 E3 15 32 00 00 00 00 
   244)    25710.9  Rx       361  8  44 6F 36 97 B1 7B 57 01 
   245)    25811.7  Rx       631  8  11 90 92 88 C5 39 65 C6 
   246)    25912.5  Rx       7DA  8  00 6C F5 3B BA 3F 53 43 
   247)    26013.4  Rx  10000211  8  11 06 2A AB 1A 44 80 33 
   248)    26114.0  Rx       4CD  8  41 5E FB B6 0C 91 0C C9 
   249)    26214.8  Rx       7B4  8  4B 00 00 00 00 00 00 00 
   250)    26315.6  Rx       157  8  FB DE 2E CC AB 56 1D 59 
   251)    26416.3  Rx  10000209  4  00 C6 3E 05 
   252)    26516.9  Rx       12B  8  39 05 42 05 83 00 00 00 
   253)    26617.6  Rx       7D7  8  00 88 82 18 5F DA D1 B3 
   254)    26718.1  Rx       507  8  2B 20 D7 EC 08 93 D7 6A 
   255)    26919.3  Rx        91  8  83 CE B4 06 00 00 00 00 
   256)    27020.4  Rx       645  8  FB 90 D3 EF C0 65 00 00 
   257)    27121.0  Rx       234  8  03 14 19 14 00 00 00 00 
   258)    27221.5  Rx       12C  8  DA B2 45 FB E8 A5 07 3D 
   259)    27322.0  Rx       7D6  8  17 00 00 00 00 00 00 00 
   260)    27422.5  Rx         2  8  00 50 00 00 00 00 00 00 
   261)    27523.2  Rx         5  8  00 00 00 00 96 00 00 00 
   262)    27623.7  Rx       12D  8  83 B1 7A 49 E3 BB 44 B1 
   263)    27724.6  Rx       642  8  B8 7A F3 95 4C 1F DC EE 
   264)    27825.3  Rx        81  8  7A 22 4E 00 00 00 00 00 
   265)    27926.0  Rx  10000203  8  5C 44 D4 30 7C 01 94 5C 
   266)    28127.8  Rx       240  8  77 DB 47 00 00 00 00 00 
   267)    28228.4  Rx       507  8  33 D3 F4 2B 4E B3 81 08 
   268)    28329.3  Rx       235  8  C6 03 00 00 00 00 00 00 
   269)    28430.0  Rx       230  8  7A C8 1E 3D B9 36 95 EF 
   270)    28531.0  Rx       501  8  CD A6 86 0D A6 37 5B 49 
   271)    28631.5  Rx         7  8  00 00 00 00 80 48 00 00 
   272)    28732.1  Rx         0  8  55 00 00 00 00 00 00 00 
   273)    28832.8  Rx       65B  8  21 02 00 00 A2 0E 00 00 
   274)    28934.2  Rx       508  8  F9 51 F8 1D 1B D4 1A F3 
   275)    29034.7  Rx       179  8  15 A3 80 21 67 D5 2D 3B 
   276)    29135.6  Rx       674  8  72 00 00 00 00 00 00 00 
   277)    29236.4  Rx       70F  8  00 10 A9 1E 6E 79 B4 73 
   278)    29337.6  Rx       666  8  00 AC 38 82 1E AF 2C C1 
   279)    29438.5  Rx       508  8  D9 C4 85 09 19 AD EC 9A 
   280)    29539.2  Rx       12D  8  9E 39 F7 08 87 00 A1 3E 
   281)    29639.9  Rx       235  8  C6 02 00 00 00 00 00 00 
   282)    29741.1  Rx       680  8  03 00 00 00 00 00 00 00 
   283)    29841.8  Rx       12F  8  98 52 84 F7 8C 48 66 99 
   284)    30043.1  Rx       7DB  8  00 10 04 E5 05 FF ED F1 
   285)    30143.6  Rx  10000208  8  00 00 00 00 00 00 00 00 
   286)    30244.4  Rx        52  8  18 3C FD 4F 46 A4 06 00 
   287)    30345.2  Rx       7C2  8  00 34 80 F1 85 87 8F 5C 
   288)    30445.9  Rx  10000210  0   
   289)    30546.4  Rx        52  8  E6 2D 38 85 00 D7 01 00 
   290)    30647.1  Rx       507  8  46 A7 6B 91 E7 0C 9B D7 
   291)    30747.6  Rx       130  8  0E F0 8C 68 2F 9C 65 00 
   292)    30949.0  Rx       7D9  8  00 F8 EC 44 E2 1A 41 C8 
   293)    31049.7  Rx       341  8  3D 32 59 40 06 F9 22 00 
   294)    31150.5  Rx       175  8  1B 8E 9E 0E F4 D8 00 00 
   295)    31251.2  Rx  10000208  8  00 00 00 00 00 00 00 00 
   296)    31352.1  Rx       641  8  80 AA DB AB A8 80 F9 0D 
   297)    31452.5  Rx       631  8  29 BD 44 59 91 5B CC AB 
   298)    31553.3  Rx  10000210  0   
   299)    31654.0  Rx       50A  8  FE E9 FE 9C 41 05 00 00 
   300)    31755.0  Rx       7C2  8  00 B8 90 82 3A 83 4C CE 
   301)    31855.6  Rx       10A  8  CA 22 6E 53 64 29 3B 1D 
   302)    31956.5  Rx       450  8  35 00 00 00 00 00 00 00 
   303)    32057.0  Rx       70F  8  00 B8 8F 9B 3A 7F C5 C6 
   304)    32157.7  Rx       230  8  53 9A FE 16 8A 8F 06 16 
   305)    32258.1  Rx       7D7  8  00 F8 46 47 A2 33 06 53 
   306)    32358.8  Rx       12F  8  69 84 EA 9B 12 E7 48 41 
   307)    32459.9  Rx        8E  8  A3 63 63 E5 00 00 00 00 
   308)    32561.0  Rx       508  8  8A F7 4F 16 30 E6 D1 62 
   309)    32662.0  Rx       64B  8  F8 0A 00 00 4C 02 00 00 
   310)    32762.6  Rx       7DB  8  40 F5 A1 50 2A B4 23 07 
   311)    32863.2  Rx       176  8  FF 0F 17 00 C5 44 77 4F 
   312)    32964.1  Rx        51  8  87 02 00 00 B9 49 00 00 
   313)    33065.1  Rx       154  8  AA AA 25 1A 27 5D 00 00 
   314)    33166.1  Rx       641  8  00 18 E6 D0 D7 D2 5D 4C 
   315)    33266.6  Rx       170  8  B4 D5 1B BD 0E 8F 19 28 
   316)    33367.2  Rx  10000212  8  00 00 00 00 00 00 00 00 
   317)    33468.0  Rx       508  8  D1 34 D9 06 D5 11 80 AB 
   318)    33568.7  Rx       506  8  6A DA 9B 62 B8 72 E2 63 
   319)    33669.4  Rx       650  8  0E AF C3 5E 00 00 00 00 
   320)    33770.0  Rx       675  8  00 38 91 B2 3F F7 66 93 
   321)    33870.5  Rx       507  8  56 53 B6 FE 52 39 C9 6D 
   322)    33971.3  Rx       65B  8  AC 09 00 00 81 0A 00 00 
   323)    34071.9  Rx       7DA  8  00 D8 5B 8E DA 37 F8 BA 
   324)    34172.7  Rx        A0  8  01 03 00 00 00 00 00 00 
   325)    34273.3  Rx  10000208  8  00 00 00 00 00 00 00 00 
   326)    34374.4  Rx  10000211  8  F1 87 D7 D3 01 C3 8F 1E 
   327)    34475.0  Rx       177  8  00 00 00 00 10 F6 12 80 
   328)    34575.8  Rx  10000206  8  82 4F 43 20 3D 2C 5E 36 
   329)    34776.8  Rx       4CD  8  02 FB 99 A0 CE 94 81 E7 
   330)    34877.8  Rx       450  8  66 00 00 00 00 00 00 00 
   331)    34978.6  Rx       507  8  56 71 A0 95 A0 72 58 28 
   332)    35078.9  Rx        81  8  12 02 09 00 00 00 00 00 
   333)    35179.7  Rx        8E  8  A2 2B BE 97 00 00 00 00 
   334)    35280.9  Rx         2  8  80 10 00 00 00 00 00 00 
   335)    35381.8  Rx       7CC  8  9C 00 00 00 00 00 00 00 
   336)    35482.7  Rx       509  8  30 DD 45 9F 01 00 00 00 
   337)    35583.3  Rx       188  8  C8 02 BF 83 F1 7E 79 22 
   338)    35784.7  Rx       50F  8  C0 4E BB 19 56 87 54 0B 
   339)    35885.2  Rx       506  8  56 D9 1F 85 DF 60 F8 09 
   340)    35985.8  Rx       177  8  00 00 00 00 13 57 06 DB 
   341)    36086.5  Rx         5  8  00 00 00 00 17 00 00 00 
   342)    36187.1  Rx       177  8  00 00 00 00 D8 E8 13 C5 
   343)    36288.1  Rx       507  8  27 C9 E7 24 A1 87 8E 78 
   344)    36388.8  Rx       7D7  8  00 A8 9B B5 5C 26 C9 C8 
   345)    36489.3  Rx       235  8  C5 00 00 00 00 00 00 00 
   346)    36690.9  Rx  10000209  4  40 11 8B 05 
   347)    36892.1  Rx       64F  8  FC 12 F3 4B 8F 61 16 5D 
   348)    36993.0  Rx       12E  8  7D E1 A6 7A 95 82 A9 FE 
   349)    37093.8  Rx       652  8  9C 4D 17 0B BB 05 00 00 
   350)    37194.7  Rx       10A  8  85 52 F9 85 26 15 48 14 
   351)    37295.2  Rx       236  8  CA 12 A4 51 E1 B8 37 97 
   352)    37396.0  Rx       50F  8  DD A3 51 76 14 90 09 74 
   353)    37496.7  Rx       7CC  8  92 00 00 00 00 00 00 00 
   354)    37597.5  Rx       641  8  00 08 65 B1 5C 82 26 F3 
   355)    37699.3  Rx       7C5  8  00 62 6B 06 98 89 C6 2C 
   356)    37800.0  Rx       233  8  36 89 8D 48 65 00 D9 B3 
   357)    37900.9  Rx       12B  8  49 15 BA 08 94 03 00 00 
   358)    38001.3  Rx       175  8  44 36 BF 9A 18 9A 00 00 
   359)    38102.1  Rx       7C5  8  00 58 0F F7 7A B6 D2 E0 
   360)    38202.7  Rx       10C  8  21 0C AE 24 06 00 00 00 
   361)    38303.3  Rx       240  8  6F C1 08 00 00 00 00 00 
   362)    38403.9  Rx       7D8  8  00 E8 3D BA CC 0A BC C5 
   363)    38605.0  Rx       65B  8  3E 0F 00 00 D3 07 00 00 
   364)    38705.6  Rx       7D7  8  00 40 F7 BE FD 47 9E 6B 
   365)    38806.2  Rx       65B  8  46 05 00 00 7D 0E 00 00 
   366)    38906.8  Rx  10000211  8  64 D0 E8 3B C2 E6 EE 35 
   367)    39007.7  Rx       502  8  EB 17 06 33 FF E3 76 CA 
   368)    39108.4  Rx       4CE  8  02 4A 00 00 00 00 00 00 
   369)    39310.4  Rx       4CD  8  7E 0D 6E 65 FE 87 EA 85 
   370)    39410.9  Rx       652  8  4C A0 F9 16 52 A5 00 00 
   371)    39612.0  Rx       641  8  00 88 18 40 B0 10 50 C6 
   372)    39712.9  Rx       4CE  8  03 26 00 00 00 00 00 00 
   373)    39813.9  Rx        50  8  AC 00 00 00 00 00 00 00 
   374)    39915.0  Rx  10000203  8  38 18 FC 3A 86 01 1C 0C 
   375)    40016.0  Rx        52  8  69 1C C7 0E EF C2 09 00 
   376)    40116.8  Rx  10000203  8  60 3B 24 13 B8 01 44 16 
   377)    40217.7  Rx        52  8  5A 72 6A 69 D1 E3 0E 00 
   378)    40318.7  Rx       668  8  D4 13 D9 3A 00 00 00 00 
   379)    40419.4  Rx       502  8  DD FE F1 74 5C AF E4 C4 
   380)    40520.0  Rx       50F  8  26 74 C9 95 04 E0 A5 28 
   381)    40721.2  Rx       501  8  7C 00 BC 1D 14 97 67 DA 
   382)    40822.1  Rx  10000208  8  00 00 00 00 00 00 00 00 
   383)    40922.6  Rx       12B  8  8A 02 10 01 D3 03 00 00 
   384)    41124.2  Rx       310  8  4A 02 75 A9 00 00 00 00 
   385)    41224.7  Rx       500  8  5E F9 0C DF 6C BF 4C 10 
   386)    41325.4  Rx       10A  8  58 21 EB AA 26 8D 19 11 
   387)    41426.1  Rx       234  8  0C 05 17 0E 00 00 00 00 
   388)    41527.0  Rx       233  8  4E E8 0E 12 E8 97 49 AE 
   389)    41627.9  Rx       50A  8  67 02 C4 0C BC 02 00 00 
   390)    41728.9  Rx       675  8  00 8C EB CA 19 98 B9 7B 
   391)    41829.8  Rx       500  8  7C 43 2B 95 B1 A6 2D 71 
   392)    41930.6  Rx       233  8  F5 88 19 7B 0D 08 7C 7F 
   393)    42031.4  Rx       12B  8  88 0D 7D 0B 61 03 00 00 
   394)    42132.2  Rx       170  8  9C 15 C3 AD D4 ED D9 2D 
   395)    42233.1  Rx        81  8  36 25 2B 00 00 00 00 00 
   396)    42333.6  Rx       500  8  E8 E3 18 8C 4F 7F E4 9E 
   397)    42434.4  Rx       12C  8  E5 0A 62 C7 0A EF 0D 34 
   398)    42535.0  Rx       188  8  85 57 F2 C1 7D 85 87 AF 
   399)    42635.6  Rx        81  8  24 14 7D 00 00 00 00 00 
   400)    42736.7  Rx  10000211  8  2F 13 19 AC 3E 06 47 E3 
   401)    42938.2  Rx       188  8  A8 76 B4 F6 BF B6 22 7F 
   402)    43038.7  Rx       7DA  8  00 56 DD 0C 32 31 20 3D 
   403)    43139.3  Rx       12F  8  68 27 E9 7A B8 15 B0 6A 
   404)    43240.3  Rx       341  8  1D EE 48 31 32 4A 16 00 
   405)    43341.0  Rx        52  8  98 02 79 9B F2 06 09 00 
   406)    43441.6  Rx        50  8  B7 02 00 00 00 00 00 00 
   407)    43541.9  Rx       680  8  01 00 00 00 00 00 00 00 
   408)    43642.3  Rx       361  8  A6 B1 6E 02 6C 06 BF 00 
   409)    43743.1  Rx       153  8  43 01 00 00 00 00 00 00 
   410)    43844.0  Rx  10000212  8  00 00 00 00 00 00 00 00 
   411)    43944.8  Rx       12C  8  F5 B7 53 12 C4 D4 36 22 
   412)    44045.2  Rx       7DA  8  00 28 E7 33 C1 B2 78 2A 
   413)    44145.6  Rx         7  8  00 00 00 00 80 59 00 00 
   414)    44246.3  Rx       50E  8  98 7F 77 13 00 00 00 00 
   415)    44346.9  Rx       502  8  C3 7D 89 18 2E B3 4E 9C 
   416)    44447.7  Rx       50F  8  6D C0 9C BA 78 33 FD E1 
   417)    44548.4  Rx       64B  8  03 07 00 00 CA 08 00 00 
   418)    44649.1  Rx       680  8  00 00 00 00 00 00 00 00 
   419)    44749.6  Rx         5  8  00 00 00 00 79 00 00 00 
   420)    44950.7  Rx       170  8  DA 24 92 E0 51 5D E6 DA 
   421)    45051.5  Rx  10000208  8  00 00 00 00 00 00 00 00 
   422)    45152.4  Rx         6  8  80 13 00 00 00 00 00 00 
   423)    45253.1  Rx       652  8  E6 30 FD BA 70 27 00 00 
   424)    45353.8  Rx       19F  8  F2 88 C8 C8 64 A9 72 77 
   425)    45555.1  Rx       12E  8  10 D6 85 D3 5D 4C 31 9B 
   426)    45655.7  Rx       179  8  9B 9A D7 57 87 20 1E 16 
   427)    45756.3  Rx       645  8  3B FE A0 A4 68 53 00 00 
   428)    45856.8  Rx        91  8  E6 AB 25 60 00 00 00 00 
   429)    46158.6  Rx       642  8  DE A5 17 E7 48 62 62 E7 
   430)    46259.5  Rx       240  8  C2 DD E3 00 00 00 00 00 
   431)    46360.5  Rx       642  8  2E C8 04 B3 BD B4 C3 AC 
   432)    46461.2  Rx       233  8  8E E8 74 65 4A 0E 10 C1 
