;$FILEVERSION=1.1
;$STARTTIME=1764746567.7884509563
;
;   Start time: 2025-12-03 12:52:47.787
;   Generated by AtomX
;
;   Message Number
;   |         Time Offset (ms)
;   |         |        Type
;   |         |        |        ID (hex)
;   |         |        |        |     Data Length
;   |         |        |        |     |   Data Bytes (hex) ...
;   |         |        |        |     |   |
;---+--   ----+----  --+--  ----+---  +  -+ -- -- -- -- -- -- --
     1)        0.0  Rx        310  8  01 00 02 00 00 00 00 00
     2)       10.0  Rx        50E  8  00 02 00 00 00 00 00 00
     3)       20.0  Rx        19F  8  00 00 00 00 48 1F 00 00
     4)       30.0  Rx        50F  8  48 1F 07 00 04 00 56 00
     5)       40.0  Rx        1A7  8  00 00 8C 0A 00 00 8C 0A
     6)      100.0  Rx        310  8  01 00 02 00 00 00 00 00
     7)      110.0  Rx        50E  8  00 02 00 00 00 00 00 00
     8)      119.9  Rx        19F  8  00 00 00 00 47 1F 00 00
     9)      130.0  Rx        50F  8  48 1F 0E 00 04 00 56 00
    10)      139.9  Rx        1A7  8  00 00 8C 0A 00 00 8C 0A
    11)      200.0  Rx        310  8  01 00 02 00 00 00 00 00
    12)      210.0  Rx        50E  8  00 02 00 00 00 00 00 00
    13)      219.9  Rx        19F  8  00 00 00 00 48 1F 00 00
    14)      230.0  Rx        50F  8  48 1F 08 00 04 00 56 00
    15)      239.9  Rx        1A7  8  00 00 8C 0A 00 00 8C 0A
    16)      300.0  Rx        310  8  01 00 02 00 00 00 00 00
    17)      310.0  Rx        50E  8  00 02 00 00 00 00 00 00
    18)      319.9  Rx        19F  8  00 00 00 00 48 1F 00 00
    19)      330.0  Rx        50F  8  48 1F 11 00 03 00 56 00
    20)      339.9  Rx        1A7  8  00 00 8C 0A 00 00 8C 0A
    21)      399.9  Rx        310  8  01 00 02 00 00 00 00 00
    22)      410.0  Rx        50E  8  00 02 00 00 00 00 00 00
    23)      420.0  Rx        19F  8  00 00 00 00 48 1F 00 00
    24)      430.0  Rx        50F  8  48 1F 0B 00 04 00 56 00
    25)      440.0  Rx        1A7  8  00 00 8C 0A 00 00 8C 0A
    26)      490.1  Rx   10000201  8  01 00 02 00 00 00 00 00
    27)      500.0  Rx        310  8  01 00 02 00 00 00 00 00
    28)      509.9  Rx        50E  8  00 00 00 00 00 00 00 00
    29)      519.9  Rx        19F  8  00 00 00 00 48 1F 00 00
    30)      530.0  Rx        50F  8  48 1F 0B 00 04 00 56 00
    31)      540.0  Rx        1A7  8  00 00 8C 0A 00 00 8C 0A
    32)      550.1  Rx   10000202  8  00 00 00 00 00 00 00 00
    33)      560.0  Rx   10000203  8  00 00 01 00 18 01 73 1E
    34)      570.0  Rx   10000204  8  78 1C F5 FF 04 00 56 00
    35)      580.1  Rx   10000205  8  01 00 64 64 64 64 00 00
    36)      580.3  Rx   10000206  8  00 00 8C 0A 8C 0A 8C 0A
    37)      580.9  Rx   10000207  8  00 00 00 00 D7 14 00 00
    38)      581.2  Rx   10000208  8  00 00 00 00 00 00 00 00
    39)      600.0  Rx        310  8  01 00 02 00 00 00 00 00
    40)      610.0  Rx        50E  8  00 00 00 00 00 00 00 00
    41)      620.0  Rx        19F  8  00 00 00 00 48 1F 00 00
    42)      630.0  Rx        50F  8  46 1F 1C 00 CB 00 56 00
    43)      639.9  Rx        1A7  8  00 00 8C 0A 08 00 8C 0A
    44)      699.9  Rx        310  8  01 00 02 00 00 00 00 00
    45)      710.1  Rx        50E  8  00 00 00 00 00 00 00 00
    46)      720.0  Rx        19F  8  00 00 00 00 3B 1F 00 00
    47)      729.9  Rx        50F  8  3A 1F 26 01 08 00 6C 00
    48)      740.0  Rx        1A7  8  00 00 8C 0A 08 00 8C 0A
    49)      800.0  Rx        310  8  01 00 02 00 00 00 00 00
    50)      810.0  Rx        50E  8  00 00 00 00 00 00 00 00
    51)      819.9  Rx        19F  8  00 00 00 00 31 1F 00 00
    52)      830.0  Rx        50F  8  3F 1F D9 00 0B 00 79 00
    53)      839.9  Rx        1A7  8  00 00 8C 0A 08 00 8C 0A
    54)      900.0  Rx        310  8  01 00 02 00 00 00 00 00
    55)      909.9  Rx        50E  8  00 00 00 00 00 00 00 00
    56)      920.0  Rx        19F  8  00 00 00 00 49 1F 00 00
    57)      930.0  Rx        50F  8  49 1F 4D 00 17 01 00 01
    58)      940.0  Rx        1A7  8  00 00 8C 0A 08 00 8C 0A
    59)     1000.0  Rx        310  8  01 00 02 00 00 00 00 00
    60)     1009.9  Rx        50E  8  00 00 00 00 00 00 00 00
    61)     1020.0  Rx        19F  8  00 00 00 00 42 1F 00 00
    62)     1029.9  Rx        50F  8  42 1F 4A 00 4B 02 87 01
    63)     1040.0  Rx        1A7  8  00 00 8C 0A 08 00 8C 0A
    64)     1100.0  Rx        310  8  01 00 02 00 00 00 00 00
    65)     1110.0  Rx        50E  8  00 00 00 00 00 00 00 00
    66)     1120.0  Rx        19F  8  00 00 00 00 43 1F 00 00
    67)     1130.0  Rx        50F  8  42 1F 6B 00 1C 03 D0 01
    68)     1140.0  Rx        1A7  8  00 00 8C 0A 08 00 8C 0A
    69)     1200.0  Rx        310  8  01 00 02 00 00 00 00 00
    70)     1210.0  Rx        50E  8  00 00 00 00 00 00 00 00
    71)     1219.9  Rx        19F  8  00 00 00 00 42 1F 00 00
    72)     1229.9  Rx        50F  8  40 1F 8D 00 B7 03 F7 01
    73)     1240.0  Rx        1A7  8  00 00 8C 0A 08 00 8C 0A
    74)     1300.0  Rx        310  8  01 00 02 00 00 00 00 00
    75)     1310.0  Rx        50E  8  00 00 00 00 00 00 00 00
    76)     1320.0  Rx        19F  8  00 00 00 00 41 1F 00 00
    77)     1329.9  Rx        50F  8  40 1F 56 00 2B 04 0D 02
    78)     1339.9  Rx        1A7  8  00 00 8C 0A 08 00 8C 0A
    79)     1350.0  Rx        644  8  13 0A 00 00 02 00 00 00
    80)     1360.0  Rx        645  8  05 00 00 00 00 00 00 00
    81)     1400.0  Rx        310  8  01 00 02 00 00 00 00 00
    82)     1410.0  Rx        50E  8  00 00 00 00 00 00 00 00
    83)     1420.0  Rx        19F  8  00 00 00 00 44 1F 00 00
    84)     1430.0  Rx        50F  8  42 1F 82 00 80 04 18 02
    85)     1440.0  Rx        1A7  8  00 00 8C 0A 08 00 8C 0A
    86)     1490.0  Rx   10000201  8  03 02 02 00 00 00 03 00
    87)     1500.0  Rx        310  8  01 00 02 00 00 00 00 00
    88)     1509.9  Rx        50E  8  00 00 00 00 00 00 00 00
    89)     1520.0  Rx        19F  8  00 00 00 00 3F 1F 00 00
    90)     1530.0  Rx        50F  8  40 1F 84 00 BF 04 1E 02
    91)     1539.9  Rx        1A7  8  00 00 8C 0A 08 00 8C 0A
    92)     1550.0  Rx   10000202  8  00 00 00 00 00 00 00 00
    93)     1560.0  Rx   10000203  8  14 00 01 00 5D 06 E9 1E
    94)     1570.1  Rx   10000204  8  F6 1D AE FF D3 04 20 02
    95)     1580.2  Rx   10000205  8  01 00 64 64 64 64 00 00
    96)     1580.5  Rx   10000206  8  00 00 8C 0A 8C 0A 8C 0A
    97)     1580.8  Rx   10000207  8  00 00 00 00 B0 14 00 00
    98)     1581.1  Rx   10000208  8  00 00 00 00 00 00 00 00
    99)     1600.0  Rx        310  8  01 00 02 00 00 00 00 00
   100)     1610.0  Rx        50E  8  00 00 00 00 00 00 00 00
   101)     1620.0  Rx        19F  8  00 00 00 00 40 1F 00 00
   102)     1629.9  Rx        50F  8  40 1F 95 00 F0 04 21 02
   103)     1639.9  Rx        1A7  8  00 00 8C 0A 08 00 8C 0A
   104)     1700.0  Rx        310  8  01 00 02 00 00 00 00 00
   105)     1710.0  Rx        50E  8  00 00 00 00 00 00 00 00
   106)     1720.0  Rx        19F  8  00 00 00 00 3E 1F 00 00
   107)     1729.9  Rx        50F  8  3E 1F 8D 00 11 05 23 02
   108)     1740.0  Rx        1A7  8  00 00 8C 0A 08 00 8C 0A
   109)     1800.0  Rx        310  8  01 00 02 00 00 00 00 00
   110)     1810.0  Rx        50E  8  00 00 00 00 00 00 00 00
   111)     1820.0  Rx        19F  8  00 00 00 00 41 1F 00 00
   112)     1829.9  Rx        50F  8  40 1F 92 00 2B 05 24 02
   113)     1840.0  Rx        1A7  8  00 00 8C 0A 08 00 8C 0A
   114)     1899.9  Rx        310  8  01 00 02 00 00 00 00 00
   115)     1910.0  Rx        50E  8  00 00 00 00 00 00 00 00
   116)     1920.0  Rx        19F  8  00 00 00 00 41 1F 00 00
   117)     1929.9  Rx        50F  8  41 1F 8F 00 3F 05 25 02
   118)     1940.0  Rx        1A7  8  00 00 8C 0A 08 00 8C 0A
   119)     1999.9  Rx        310  8  01 00 02 00 00 00 00 00
   120)     2009.9  Rx        50E  8  00 00 00 00 00 00 00 00
   121)     2020.0  Rx        19F  8  00 00 00 00 42 1F 00 00
   122)     2029.9  Rx        50F  8  41 1F 94 00 4C 05 25 02
   123)     2040.0  Rx        1A7  8  00 00 8C 0A 08 00 8C 0A
   124)     2099.9  Rx        310  8  01 00 02 00 00 00 00 00
   125)     2109.9  Rx        50E  8  00 00 00 00 00 00 00 00
   126)     2120.0  Rx        19F  8  00 00 00 00 40 1F 00 00
   127)     2130.0  Rx        50F  8  40 1F 90 00 58 05 25 02
   128)     2140.0  Rx        1A7  8  00 00 8C 0A 08 00 8C 0A
   129)     2199.9  Rx        310  8  01 00 02 00 00 00 00 00
   130)     2210.0  Rx        50E  8  00 00 00 00 00 00 00 00
   131)     2220.0  Rx        19F  8  00 00 00 00 3E 1F 00 00
   132)     2229.8  Rx        50F  8  3F 1F 92 00 5E 05 25 02
   133)     2240.0  Rx        1A7  8  00 00 8C 0A 08 00 8C 0A
   134)     2299.9  Rx        310  8  01 00 02 00 00 00 00 00
   135)     2310.0  Rx        50E  8  00 00 00 00 00 00 00 00
   136)     2319.9  Rx        19F  8  00 00 00 00 3E 1F 00 00
   137)     2329.9  Rx        50F  8  3F 1F 93 00 65 05 26 02
   138)     2340.0  Rx        1A7  8  00 00 8C 0A 08 00 8C 0A
   139)     2400.0  Rx        310  8  01 00 02 00 00 00 00 00
   140)     2410.0  Rx        50E  8  00 00 00 00 00 00 00 00
   141)     2419.9  Rx        19F  8  00 00 00 00 3E 1F 00 00
   142)     2430.0  Rx        50F  8  3F 1F 8F 00 69 05 26 02
   143)     2439.9  Rx        1A7  8  00 00 8C 0A 08 00 8C 0A
   144)     2490.0  Rx   10000201  8  03 02 02 00 00 00 03 00
   145)     2500.0  Rx        310  8  01 00 02 00 00 00 00 00
   146)     2509.9  Rx        50E  8  00 00 00 00 00 00 00 00
   147)     2519.9  Rx        19F  8  00 00 00 00 3D 1F 00 00
   148)     2529.9  Rx        50F  8  3E 1F 8B 00 6C 05 26 02
   149)     2539.9  Rx        1A7  8  00 00 8C 0A 08 00 8C 0A
   150)     2550.0  Rx   10000202  8  00 00 00 00 00 00 00 00
   151)     2560.0  Rx   10000203  8  08 00 01 00 5C 09 1A 1F
   152)     2569.9  Rx   10000204  8  9E 1E 8A FF 6D 05 26 02
   153)     2580.0  Rx   10000205  8  03 00 63 64 64 64 00 00
   154)     2580.3  Rx   10000206  8  00 00 8C 0A 8C 0A 8C 0A
   155)     2580.6  Rx   10000207  8  00 00 00 00 2C 15 00 00
   156)     2580.9  Rx   10000208  8  00 00 00 00 00 00 00 00
   157)     2600.0  Rx        310  8  01 00 02 00 00 00 00 00
   158)     2609.9  Rx        50E  8  00 00 00 00 00 00 00 00
   159)     2619.9  Rx        19F  8  00 00 00 00 3E 1F 00 00
   160)     2629.9  Rx        50F  8  3E 1F 93 00 6E 05 26 02
   161)     2640.0  Rx        1A7  8  00 00 8C 0A 08 00 8C 0A
   162)     2699.9  Rx        310  8  01 00 02 00 00 00 00 00
   163)     2710.0  Rx        50E  8  00 00 00 00 00 00 00 00
   164)     2719.8  Rx        19F  8  00 00 00 00 3F 1F 00 00
   165)     2729.9  Rx        50F  8  3E 1F 94 00 71 05 27 02
   166)     2739.9  Rx        1A7  8  00 00 8C 0A 08 00 8C 0A
   167)     2799.9  Rx        310  8  01 00 02 00 00 00 00 00
   168)     2809.9  Rx        50E  8  00 00 00 00 00 00 00 00
   169)     2819.9  Rx        19F  8  00 00 00 00 3D 1F 00 00
   170)     2829.9  Rx        50F  8  3E 1F 93 00 72 05 27 02
   171)     2839.9  Rx        1A7  8  00 00 8C 0A 08 00 8C 0A
   172)     2900.0  Rx        310  8  01 00 02 00 00 00 00 00
   173)     2910.0  Rx        50E  8  00 00 00 00 00 00 00 00
   174)     2919.9  Rx        19F  8  00 00 00 00 3E 1F 00 00
   175)     2929.9  Rx        50F  8  3F 1F 94 00 72 05 27 02
   176)     2940.0  Rx        1A7  8  00 00 8C 0A 08 00 8C 0A
   177)     2999.9  Rx        310  8  01 00 02 00 00 00 00 00
   178)     3010.0  Rx        50E  8  00 00 00 00 00 00 00 00
   179)     3020.0  Rx        19F  8  00 00 00 00 3F 1F 00 00
   180)     3029.9  Rx        50F  8  3E 1F 91 00 74 05 27 02
   181)     3039.9  Rx        1A7  8  00 00 8C 0A 08 00 8C 0A
   182)     3099.9  Rx        310  8  01 00 02 00 00 00 00 00
   183)     3109.9  Rx        50E  8  00 00 00 00 00 00 00 00
   184)     3119.9  Rx        19F  8  00 00 00 00 3E 1F 00 00
   185)     3129.9  Rx        50F  8  3E 1F 9C 00 74 05 27 02
   186)     3139.9  Rx        1A7  8  00 00 8C 0A 08 00 8C 0A
   187)     3200.0  Rx        310  8  01 00 02 00 00 00 00 00
   188)     3209.9  Rx        50E  8  00 00 00 00 00 00 00 00
   189)     3219.9  Rx        19F  8  00 00 00 00 3E 1F 00 00
   190)     3229.8  Rx        50F  8  3F 1F 90 00 74 05 27 02
   191)     3239.9  Rx        1A7  8  00 00 8C 0A 08 00 8C 0A
   192)     3299.9  Rx        310  8  01 00 02 00 00 00 00 00
   193)     3309.9  Rx        50E  8  00 00 00 00 00 00 00 00
   194)     3319.9  Rx        19F  8  00 00 00 00 3E 1F 00 00
   195)     3329.9  Rx        50F  8  3E 1F 92 00 74 05 27 02
   196)     3339.9  Rx        1A7  8  00 00 8C 0A 08 00 8C 0A
   197)     3399.9  Rx        310  8  01 00 02 00 00 00 00 00
   198)     3409.8  Rx        50E  8  00 00 00 00 00 00 00 00
   199)     3419.9  Rx        19F  8  00 00 00 00 3E 1F 00 00
   200)     3429.8  Rx        50F  8  3E 1F 94 00 75 05 27 02
   201)     3439.9  Rx        1A7  8  00 00 8C 0A 08 00 8C 0A
   202)     3489.9  Rx   10000201  8  03 02 02 00 00 00 03 00
   203)     3499.9  Rx        310  8  01 00 02 00 00 00 00 00
   204)     3509.9  Rx        50E  8  00 00 00 00 00 00 00 00
   205)     3519.9  Rx        19F  8  00 00 00 00 3F 1F 00 00
   206)     3529.8  Rx        50F  8  3E 1F 97 00 75 05 27 02
   207)     3539.9  Rx        1A7  8  00 00 8C 0A 08 00 8C 0A
   208)     3549.9  Rx   10000202  8  00 00 00 00 00 00 00 00
   209)     3559.9  Rx   10000203  8  3F 00 01 00 A7 0A 2E 1F
   210)     3569.9  Rx   10000204  8  E6 1E 79 FF 75 05 27 02
   211)     3579.9  Rx   10000205  8  03 00 63 64 64 64 00 00
   212)     3580.2  Rx   10000206  8  00 00 8C 0A 8C 0A 8C 0A
   213)     3580.5  Rx   10000207  8  00 00 00 00 B2 14 00 00
   214)     3580.8  Rx   10000208  8  00 00 00 00 00 00 00 00
   215)     3599.9  Rx        310  8  01 00 02 00 00 00 00 00
   216)     3609.9  Rx        50E  8  00 00 00 00 00 00 00 00
   217)     3619.9  Rx        19F  8  00 00 00 00 3F 1F 00 00
   218)     3629.8  Rx        50F  8  3D 1F 93 00 75 05 27 02
   219)     3639.8  Rx        1A7  8  00 00 8C 0A 08 00 8C 0A
   220)     3699.9  Rx        310  8  01 00 02 00 00 00 00 00
   221)     3709.8  Rx        50E  8  00 00 00 00 00 00 00 00
   222)     3719.9  Rx        19F  8  00 00 00 00 3E 1F 00 00
   223)     3729.8  Rx        50F  8  3E 1F 95 00 75 05 27 02
   224)     3739.9  Rx        1A7  8  00 00 8C 0A 08 00 8C 0A
   225)     3799.9  Rx        310  8  01 00 02 00 00 00 00 00
   226)     3809.8  Rx        50E  8  00 00 00 00 00 00 00 00
   227)     3819.8  Rx        19F  8  00 00 00 00 3E 1F 00 00
   228)     3829.8  Rx        50F  8  3E 1F 99 00 76 05 27 02
   229)     3839.7  Rx        1A7  8  00 00 8C 0A 08 00 8C 0A
   230)     3899.9  Rx        310  8  01 00 02 00 00 00 00 00
   231)     3909.9  Rx        50E  8  00 00 00 00 00 00 00 00
   232)     3919.8  Rx        19F  8  00 00 00 00 3E 1F 00 00
   233)     3929.8  Rx        50F  8  3D 1F 94 00 76 05 27 02
   234)     3939.8  Rx        1A7  8  00 00 8C 0A 08 00 8C 0A
   235)     3999.9  Rx        310  8  01 00 02 00 00 00 00 00
