;$FILEVERSION=1.1
;$STARTTIME=46001.9353688928
;
;   Start time: 10-12-2025 22:26:55.872
;   Generated by AtomX
;
;   Message Number
;   |         Time Offset (ms)
;   |         |        Type
;   |         |        |        ID (hex)
;   |         |        |        |     Data Length
;   |         |        |        |     |   Data Bytes (hex) ...
;   |         |        |        |     |   |
;---+--   ----+----  --+--  ----+---  +  -+ -- -- -- -- -- -- --
     1)        0.0  Rx        91  8  7A 75 63 B6 00 00 00 00 
     2)      100.8  Rx       173  8  00 7C F5 02 00 00 00 00 
     3)      203.7  Rx       652  8  32 A2 31 CA 3F 99 00 00 
     4)      304.6  Rx       50A  8  E6 6F 1C 20 BF 00 00 00 
     5)      405.2  Rx       178  8  CE FB DF 8C 91 A1 85 A3 
     6)      505.8  Rx       7C2  8  00 90 A7 D2 C7 C0 45 21 
     7)      606.6  Rx       651  8  69 50 23 4E 10 00 00 00 
     8)      707.3  Rx       645  8  F4 F2 11 35 AA 82 00 00 
     9)      808.3  Rx       170  8  E8 CC 7F 80 23 5F 45 3E 
    10)      909.1  Rx       7C5  8  00 70 9A 67 8B 3D FB 91 
    11)     1009.8  Rx       600  8  02 A4 5C C8 E6 05 24 5C 
    12)     1110.4  Rx       157  8  AB BA F2 9D 5D FF 7F 3B 
    13)     1211.1  Rx         2  8  80 7B 00 00 00 00 00 00 
    14)     1311.7  Rx       641  8  00 24 93 46 13 8A 2F 50 
    15)     1414.0  Rx       64B  8  5D 0F 00 00 59 05 00 00 
    16)     1514.8  Rx  10000212  8  00 00 00 00 00 00 00 00 
    17)     1615.3  Rx        50  8  24 02 00 00 00 00 00 00 
    18)     1816.5  Rx       235  8  3D 00 00 00 00 00 00 00 
    19)     1917.9  Rx        8F  8  01 00 00 00 00 00 00 00 
    20)     2018.4  Rx         0  8  07 00 00 00 00 00 00 00 
    21)     2119.0  Rx        81  8  44 25 3C 00 00 00 00 00 
    22)     2219.7  Rx       50A  8  29 2E E0 3B 0D 07 00 00 
    23)     2320.0  Rx       175  8  56 8B 2E F8 1F B0 00 00 
    24)     2420.9  Rx       10C  8  29 28 62 29 09 00 00 00 
    25)     2521.5  Rx       7DB  8  00 68 47 92 BC 81 1E BE 
    26)     2622.0  Rx       7DA  8  00 4C 7C AF 4D 94 F1 70 
    27)     2722.6  Rx       173  8  00 42 BF 2F 00 00 00 00 
    28)     2823.4  Rx       10C  8  A4 05 1D A6 05 00 00 00 
    29)     2924.0  Rx       642  8  A2 4C B4 08 01 A2 42 FE 
    30)     3024.7  Rx       10C  8  F5 36 A3 16 07 00 00 00 
    31)     3125.4  Rx       235  8  D8 01 00 00 00 00 00 00 
    32)     3226.0  Rx       310  8  D7 02 70 07 00 00 00 00 
    33)     3326.6  Rx       179  8  70 9E B3 45 D2 6B 0E 7A 
    34)     3427.3  Rx       506  8  09 6E CE 4B 6A 3E 3B 4A 
    35)     3527.7  Rx       645  8  EE A9 27 0B B6 7D 00 00 
    36)     3628.0  Rx       7D9  8  00 6A EB 4B 5B E3 99 0D 
    37)     3728.6  Rx       12C  8  0E 97 FC C6 81 BE 2D 11 
    38)     3929.9  Rx       371  8  F8 68 00 00 00 00 00 00 
    39)     4030.8  Rx       7DA  8  00 40 E4 BB C0 47 06 8A 
    40)     4131.6  Rx       651  8  28 AB 35 75 09 00 00 00 
    41)     4232.7  Rx        91  8  1E EE 58 49 00 00 00 00 
    42)     4333.5  Rx         7  8  00 00 00 00 00 23 00 00 
    43)     4434.4  Rx       650  8  0F 40 87 B7 00 00 00 00 
    44)     4535.4  Rx       187  8  1C 09 31 AF AB FC 63 00 
    45)     4636.2  Rx       19F  8  8E 69 77 04 5F 39 C5 8B 
    46)     4737.0  Rx       235  8  08 04 00 00 00 00 00 00 
    47)     4837.7  Rx        91  8  EE 4E 9F 63 00 00 00 00 
    48)     4938.3  Rx       680  8  02 00 00 00 00 00 00 00 
    49)     5039.1  Rx        8E  8  64 4A A2 00 00 00 00 00 
    50)     5139.5  Rx       645  8  D4 12 28 D2 A1 14 00 00 
    51)     5240.5  Rx       508  8  1F C8 A5 06 76 28 9A AE 
    52)     5341.6  Rx        A0  8  02 05 00 00 00 00 00 00 
    53)     5442.2  Rx       12B  8  42 10 D0 0D 86 03 00 00 
    54)     5542.7  Rx       236  8  1A 93 C0 14 D1 EF 6C 70 
    55)     5643.6  Rx       153  8  C8 03 00 00 00 00 00 00 
    56)     5844.8  Rx       507  8  2A 8B 66 94 F8 65 80 29 
    57)     5945.5  Rx       187  8  D1 BE 91 9F 82 A4 57 00 
    58)     6046.2  Rx       12B  8  C9 18 CF 08 94 00 00 00 
    59)     6147.0  Rx  10000207  8  BD 9A EE 95 66 AF 0F 26 
    60)     6449.0  Rx       64B  8  15 08 00 00 81 00 00 00 
    61)     6549.4  Rx       4CD  8  76 14 F2 FC FE 69 90 98 
    62)     6650.4  Rx       645  8  02 5F B2 29 F2 43 00 00 
    63)     6751.4  Rx  10000203  8  04 5B 04 10 56 04 90 1A 
    64)     6953.0  Rx  10000203  8  EC 2C 18 47 32 00 C4 09 
    65)     7053.7  Rx       153  8  14 02 00 00 00 00 00 00 
    66)     7154.5  Rx  10000212  8  00 00 00 00 00 00 00 00 
    67)     7254.9  Rx       503  8  A9 B1 73 9C 11 86 2E 91 
    68)     7355.9  Rx       12E  8  85 92 59 30 CC A9 4B 35 
    69)     7456.8  Rx       503  8  F1 42 51 D9 05 BA 71 C8 
    70)     7557.6  Rx        91  8  81 27 E8 CF 00 00 00 00 
    71)     7658.3  Rx       668  8  0B 8D 8F EF 00 00 00 00 
    72)     7758.8  Rx        80  8  C6 52 0A 01 8B 12 3E 12 
    73)     7859.7  Rx       12C  8  25 E1 2F A1 13 CE 0B 31 
    74)     7960.6  Rx       674  8  EC 00 00 00 00 00 00 00 
    75)     8061.5  Rx       240  8  6F 9F BF 00 00 00 00 00 
    76)     8162.3  Rx       4CE  8  00 95 00 00 00 00 00 00 
    77)     8262.8  Rx       7CC  8  89 00 00 00 00 00 00 00 
    78)     8363.4  Rx       7D8  8  00 E8 34 B2 2B 89 7C 8D 
    79)     8564.4  Rx       503  8  00 38 70 9A 96 9D 98 BA 
    80)     8665.0  Rx  10000209  4  40 E4 59 04 
    81)     8765.9  Rx       10A  8  47 BC 87 A9 C9 52 30 1C 
    82)     8866.5  Rx       7DB  8  00 54 D9 02 80 A1 22 46 
    83)     8967.3  Rx        91  8  3D 80 B4 FC 00 00 00 00 
    84)     9068.1  Rx       668  8  32 68 25 D3 00 00 00 00 
    85)     9168.7  Rx       188  8  DD E1 CC 43 39 17 31 DB 
    86)     9269.3  Rx       680  8  01 00 00 00 00 00 00 00 
    87)     9369.9  Rx        8E  8  07 86 1A 1E 00 00 00 00 
    88)     9475.7  Rx  10000201  8  91 92 A6 7E 63 00 E3 00 
    89)     9576.4  Rx         4  8  BA 00 00 00 00 00 00 00 
    90)     9677.2  Rx       153  8  E3 03 00 00 00 00 00 00 
    91)     9777.8  Rx       175  8  CA 16 4E 0B 44 1D 00 00 
    92)     9878.5  Rx       64B  8  62 00 00 00 AC 0C 00 00 
    93)     9979.4  Rx  10000201  8  44 98 02 44 D6 00 24 00 
    94)    10080.4  Rx       65B  8  07 0E 00 00 A5 0D 00 00 
    95)    10181.2  Rx       501  8  28 C7 42 5B 40 1A 3D E5 
    96)    10281.7  Rx       170  8  4F C1 AE 67 B9 6F F8 5D 
    97)    10382.5  Rx         5  8  00 00 00 00 87 00 00 00 
    98)    10483.1  Rx       176  8  08 82 63 00 03 C5 95 05 
    99)    10583.7  Rx       7C2  8  00 98 77 B7 9F E6 7B 4B 
   100)    10684.6  Rx       235  8  29 04 00 00 00 00 00 00 
   101)    10785.1  Rx  10000206  8  3F 72 36 C6 98 40 A7 EA 
   102)    10886.2  Rx       50A  8  C7 FF D5 7F 97 00 00 00 
   103)    10986.8  Rx       502  8  34 19 AA 4B E3 83 6C AF 
   104)    11087.6  Rx       153  8  4C 03 00 00 00 00 00 00 
   105)    11188.6  Rx         6  8  00 04 00 00 00 00 00 00 
   106)    11289.4  Rx       506  8  DB FA B1 58 97 50 BF BF 
   107)    11490.6  Rx       507  8  0C 11 8F 62 68 0E B8 57 
   108)    11591.1  Rx        8F  8  00 00 00 00 00 00 00 00 
   109)    11691.9  Rx       641  8  00 80 88 A8 68 0E 6C D9 
   110)    11893.3  Rx       361  8  08 32 7C E7 91 F0 5C 01 
   111)    11994.2  Rx         3  8  00 00 00 00 80 2D 00 00 
   112)    12094.7  Rx       508  8  A0 18 A3 17 8D AF 0E 70 
   113)    12296.6  Rx       7B4  8  A2 00 00 00 00 00 00 00 
   114)    12397.3  Rx       509  8  93 48 0A 22 00 00 00 00 
   115)    12498.0  Rx       153  8  C5 03 00 00 00 00 00 00 
   116)    12598.6  Rx       177  8  00 00 00 00 C4 E5 56 99 
   117)    12699.4  Rx        51  8  8F AE 00 00 2D 2E 00 00 
   118)    12800.0  Rx       70F  8  00 A0 4F A3 92 CC 9A AF 
   119)    12900.6  Rx       12F  8  94 0C 28 08 92 03 F5 11 
   120)    13001.2  Rx       240  8  C3 90 78 00 00 00 00 00 
   121)    13102.1  Rx        8F  8  01 00 00 00 00 00 00 00 
   122)    13303.2  Rx       361  8  1A C7 8F C6 02 A8 EE 01 
   123)    13403.8  Rx       450  8  AA 00 00 00 00 00 00 00 
   124)    13504.7  Rx       7CC  8  E0 00 00 00 00 00 00 00 
   125)    13605.3  Rx       509  8  D3 63 07 DC 01 00 00 00 
   126)    13706.6  Rx       506  8  03 D0 B8 4C 02 9B 4C 24 
   127)    13807.3  Rx       188  8  CD 66 D3 03 09 88 9E A5 
   128)    13908.3  Rx        81  8  54 16 6A 00 00 00 00 00 
   129)    14008.7  Rx  10000210  0   
   130)    14210.3  Rx         2  8  00 4F 00 00 00 00 00 00 
   131)    14311.2  Rx       12A  8  8D DB 41 54 FE C1 00 00 
   132)    14411.5  Rx  10000204  8  40 38 24 5E 2C 1A FC 53 
   133)    14512.4  Rx        91  8  14 CB 21 67 00 00 00 00 
   134)    14613.2  Rx       502  8  2B 63 38 91 EA DF A3 EF 
   135)    14714.0  Rx       7DB  8  00 F8 3D 39 91 CF 01 82 
   136)    14914.9  Rx         7  8  00 00 00 00 00 3A 00 00 
   137)    15015.7  Rx       645  8  A7 E1 E4 DD 96 1A 00 00 
   138)    15116.3  Rx        80  8  4C 07 13 01 4A 0A 11 0F 
   139)    15317.6  Rx       631  8  2A A0 1F 47 18 C9 6E FE 
   140)    15418.1  Rx  10000210  0   
   141)    15519.0  Rx       507  8  4E 66 01 CA 26 00 BA 02 
   142)    15619.6  Rx       675  8  00 50 00 66 4B 53 D7 7E 
   143)    15720.4  Rx       130  8  CD 78 03 52 AF 0F 96 00 
   144)    15821.1  Rx       154  8  F8 9F 28 0D 0D 74 00 00 
   145)    15921.7  Rx       188  8  C5 68 3F D6 BB 60 8B AD 
   146)    16022.4  Rx       668  8  6E 86 3F 9A 00 00 00 00 
   147)    16122.8  Rx       187  8  D1 97 65 C4 DF 0E 4C 00 
   148)    16223.8  Rx       361  8  44 DA 95 A3 7D 39 96 01 
   149)    16324.5  Rx  10000207  8  91 45 F0 B4 FB 46 46 49 
   150)    16425.2  Rx       7D8  8  00 88 B1 8D 64 B0 DF F7 
   151)    16525.6  Rx       642  8  7C 3B C4 14 8C B0 68 6A 
   152)    16626.1  Rx       4CE  8  04 54 00 00 00 00 00 00 
   153)    16727.0  Rx  10000210  0   
   154)    16827.7  Rx         6  8  00 3C 00 00 00 00 00 00 
   155)    16928.6  Rx       12B  8  E2 09 41 07 38 02 00 00 
   156)    17029.2  Rx       188  8  A9 C5 F7 A3 EB DB 62 67 
   157)    17130.0  Rx       450  8  50 00 00 00 00 00 00 00 
   158)    17230.6  Rx       188  8  FC 20 9A 55 87 68 1C A5 
   159)    17331.4  Rx       64F  8  25 1F C2 DB BA D3 2C 44 
   160)    17431.7  Rx       130  8  14 29 92 C4 A3 CC 49 00 
   161)    17532.4  Rx  10000209  4  80 6E 51 06 
   162)    17632.9  Rx        50  8  76 02 00 00 00 00 00 00 
   163)    17733.5  Rx       154  8  2E 8D 55 19 1E 4E 00 00 
   164)    17834.0  Rx       7D8  8  00 78 D1 DA 82 30 20 90 
   165)    17934.5  Rx       12F  8  95 2D D8 E2 06 B2 94 7C 
   166)    18135.8  Rx       230  8  DD E6 C8 95 83 A8 26 0A 
   167)    18337.4  Rx       65B  8  46 01 00 00 04 05 00 00 
   168)    18438.3  Rx       175  8  75 C6 BA AC 23 3D 00 00 
   169)    18539.2  Rx       176  8  5F E4 47 00 40 C7 BD 6D 
   170)    18639.6  Rx       154  8  8E 05 4D 22 04 D6 00 00 
   171)    18740.2  Rx       642  8  FC 03 B3 B8 0C 37 20 CC 
   172)    18840.7  Rx        91  8  D1 BC D3 46 00 00 00 00 
   173)    18941.4  Rx       153  8  AD 01 00 00 00 00 00 00 
   174)    19042.1  Rx       650  8  07 53 75 13 00 00 00 00 
   175)    19142.8  Rx       509  8  C8 11 09 F6 00 00 00 00 
   176)    19243.5  Rx       508  8  AE 4E 83 16 04 F5 8C 86 
   177)    19344.1  Rx       341  8  49 68 CF 52 5A 85 3D 00 
   178)    19444.7  Rx       674  8  48 00 00 00 00 00 00 00 
   179)    19549.3  Rx  10000208  8  00 00 00 00 00 00 00 00 
   180)    19649.8  Rx   8192A3B  1  64 
   181)    19750.3  Rx       4CD  8  30 5A 8E D1 78 33 01 7C 
   182)    19851.0  Rx       668  8  36 2D DD DE 00 00 00 00 
   183)    19951.4  Rx        91  8  4E 42 AF 6F 00 00 00 00 
   184)    20052.2  Rx  10000207  8  5C 48 5D E6 6E 34 A8 4F 
   185)    20153.0  Rx       4CE  8  06 94 00 00 00 00 00 00 
   186)    20253.9  Rx       600  8  CB 93 A0 F2 B0 F8 1D 2B 
   187)    20354.5  Rx       644  8  85 F1 44 6C 74 C3 91 12 
   188)    20455.2  Rx         3  8  00 00 00 00 80 6C 00 00 
   189)    20556.1  Rx       642  8  C7 98 C9 02 21 0F D7 79 
   190)    20657.0  Rx  10000209  4  40 31 2C 0D 
   191)    20757.5  Rx       641  8  00 88 BE 87 B4 75 D4 A9 
   192)    20858.2  Rx        52  8  37 3D AF ED 1E 5C 0E 00 
   193)    20959.1  Rx       177  8  00 00 00 00 E4 6F 49 E7 
   194)    21059.6  Rx       12C  8  C9 31 50 27 61 A2 33 35 
   195)    21160.4  Rx       64B  8  FA 0B 00 00 CC 02 00 00 
   196)    21261.2  Rx        50  8  15 03 00 00 00 00 00 00 
   197)    21361.8  Rx       65B  8  F1 00 00 00 1A 03 00 00 
   198)    21462.7  Rx  10000204  8  14 50 D0 52 54 56 34 08 
   199)    21563.6  Rx       508  8  0D 16 31 0D C2 CF EF FC 
   200)    21664.4  Rx         2  8  00 77 00 00 00 00 00 00 
   201)    21765.4  Rx       130  8  6C EE 30 9A C2 3C 82 00 
   202)    21866.5  Rx         5  8  00 00 00 00 58 00 00 00 
   203)    21967.3  Rx       666  8  D5 47 AB 9D CD 73 9B 06 
   204)    22068.3  Rx       644  8  6D 9C CF 88 0E 32 78 1C 
   205)    22168.9  Rx  10000212  8  00 00 00 00 00 00 00 00 
   206)    22270.0  Rx       10C  8  AE 1A D4 54 02 00 00 00 
   207)    22370.6  Rx       652  8  B5 A9 F8 9F 87 99 00 00 
   208)    22471.2  Rx  10000212  8  00 00 00 00 00 00 00 00 
   209)    22571.9  Rx        51  8  0B 0A 00 00 C1 2A 00 00 
   210)    22672.5  Rx       501  8  97 87 BA AA DC 6A 32 35 
   211)    22773.4  Rx       503  8  17 0F 42 C7 F6 56 E4 DA 
   212)    22874.1  Rx       64B  8  BC 0D 00 00 DC 08 00 00 
   213)    22974.9  Rx       240  8  86 C2 90 00 00 00 00 00 
   214)    23075.6  Rx       501  8  F4 96 EC 78 C2 0B D0 9C 
   215)    23176.6  Rx  10000212  8  00 00 00 00 00 00 00 00 
   216)    23277.6  Rx       4CD  8  A8 BD E8 99 1F 07 5E 8B 
   217)    23378.4  Rx  10000208  8  00 00 00 00 00 00 00 00 
   218)    23479.2  Rx       176  8  F0 36 7D 00 DD F1 16 5A 
   219)    23579.8  Rx       642  8  6B 00 7F 64 71 72 02 77 
   220)    23680.7  Rx       4CD  8  05 D4 BA C8 40 CF 2A 6A 
   221)    23781.1  Rx         7  8  00 00 00 00 00 06 00 00 
   222)    23881.8  Rx         3  8  00 00 00 00 80 34 00 00 
   223)    23982.4  Rx       179  8  3E B1 07 8E AF 51 D4 69 
   224)    24083.2  Rx       7CC  8  69 00 00 00 00 00 00 00 
   225)    24183.7  Rx       12B  8  FE 12 03 0F 5A 04 00 00 
   226)    24284.3  Rx       10C  8  86 0C 10 40 0A 00 00 00 
   227)    24384.8  Rx  10000208  8  00 00 00 00 00 00 00 00 
   228)    24485.6  Rx       642  8  DD 99 FC 04 23 05 07 5F 
   229)    24586.5  Rx       505  8  85 AA F4 27 C7 BA 5B F8 
   230)    24687.3  Rx       240  8  5E 89 16 00 00 00 00 00 
   231)    24787.8  Rx        51  8  93 F6 00 00 10 C0 00 00 
   232)    24888.3  Rx       652  8  92 30 3F 7F 71 DD 00 00 
   233)    24988.9  Rx       645  8  E8 9E 05 6F 5D F9 00 00 
   234)    25089.4  Rx         0  8  CF 00 00 00 00 00 00 00 
   235)    25190.0  Rx        81  8  25 14 06 00 00 00 00 00 
   236)    25291.0  Rx       644  8  86 EA C2 44 9E 64 20 72 
   237)    25391.6  Rx       50A  8  72 11 03 D4 CA 05 00 00 
   238)    25492.5  Rx       7D9  8  00 A4 D0 73 96 6D DA 50 
   239)    25593.2  Rx       7C5  8  00 60 E4 1D 09 B5 80 7D 
   240)    25693.9  Rx  10000211  8  1E 2C C8 30 9A 7B AA 96 
   241)    25794.6  Rx       70F  8  00 A0 35 C6 17 B8 7A E5 
   242)    25894.9  Rx       642  8  5B A5 14 5F 7F AA D7 E2 
   243)    25995.9  Rx       10B  8  0F 0C 18 00 00 00 00 00 
   244)    26096.6  Rx       7DB  8  00 08 5E 83 FD 35 35 F5 
   245)    26197.2  Rx  10000204  8  70 49 E8 4E 64 19 C0 2B 
   246)    26298.1  Rx       505  8  00 E6 EB 02 AF A1 F6 B8 
   247)    26398.7  Rx       450  8  98 00 00 00 00 00 00 00 
   248)    26499.4  Rx       175  8  94 4A 11 CB B9 D1 00 00 
   249)    26600.1  Rx  10000204  8  00 4B AC 0D 1C 25 88 13 
   250)    26701.0  Rx  10000207  8  8D E4 7A 10 A3 E5 30 3F 
   251)    26801.6  Rx       7C2  8  00 60 F4 5F 0E 22 04 C8 
   252)    26902.4  Rx       450  8  3D 00 00 00 00 00 00 00 
   253)    27003.1  Rx         5  8  00 00 00 00 48 00 00 00 
   254)    27103.8  Rx       175  8  1D 4C 3A DF 6B F8 00 00 
   255)    27204.3  Rx        A0  8  02 00 00 00 00 00 00 00 
   256)    27305.4  Rx       230  8  6D 29 83 84 AC 07 2C 94 
   257)    27406.2  Rx       505  8  E5 6C 7D 16 51 2E 32 36 
   258)    27506.8  Rx        51  8  F0 D1 00 00 8D 9C 00 00 
   259)    27607.5  Rx        81  8  1D 21 14 00 00 00 00 00 
   260)    27708.3  Rx        51  8  D1 A1 00 00 6A 66 00 00 
   261)    27809.3  Rx       236  8  C8 E6 BE 62 8F 5B AF 24 
   262)    27909.9  Rx       600  8  54 34 10 F9 A6 97 07 AC 
   263)    28010.7  Rx         5  8  00 00 00 00 F1 00 00 00 
   264)    28111.6  Rx       177  8  00 00 00 00 62 A8 15 CB 
   265)    28212.4  Rx        51  8  D0 25 00 00 7E FF 00 00 
   266)    28313.1  Rx  10000209  4  00 1C 4E 0E 
   267)    28413.7  Rx       236  8  08 3F C5 E4 2F 32 16 69 
   268)    28514.5  Rx       240  8  3F 3C C0 00 00 00 00 00 
   269)    28615.4  Rx        81  8  69 13 54 00 00 00 00 00 
   270)    28716.1  Rx       680  8  02 00 00 00 00 00 00 00 
   271)    28816.9  Rx       179  8  A0 E3 3D A0 70 28 64 D6 
   272)    28917.5  Rx       680  8  01 00 00 00 00 00 00 00 
   273)    29018.4  Rx       153  8  57 02 00 00 00 00 00 00 
   274)    29118.9  Rx       188  8  70 B0 2C E6 EF ED E9 F2 
   275)    29219.5  Rx       10B  8  05 00 0B 00 00 00 00 00 
   276)    29320.3  Rx       641  8  00 BC 16 9E CE DC 1D 79 
   277)    29420.8  Rx  10000207  8  73 25 4F E4 4D 2F 59 14 
   278)    29521.3  Rx  10000203  8  FC 21 10 59 38 09 60 22 
   279)    29622.5  Rx       177  8  00 00 00 00 01 0E 53 F6 
   280)    29723.0  Rx       19F  8  19 4C 48 42 C3 24 C8 95 
   281)    29924.2  Rx       507  8  38 13 BB 1D E7 68 57 7B 
   282)    30024.8  Rx       500  8  AE 05 1E DC D8 96 DA D4 
   283)    30125.3  Rx       4CD  8  1C F9 AF B9 57 34 EB 11 
   284)    30226.0  Rx       187  8  43 9E 7B A1 0E 9E F3 00 
   285)    30326.6  Rx       7DB  8  00 58 FF CE 93 B7 E3 E7 
   286)    30427.4  Rx       188  8  67 06 84 8F 28 E9 E4 7E 
   287)    30527.9  Rx       450  8  22 00 00 00 00 00 00 00 
   288)    30628.6  Rx       50F  8  59 8B 9E C0 13 7A 4A 75 
   289)    30729.4  Rx  10000204  8  98 3A 2C 4C A4 06 70 17 
   290)    30829.8  Rx         5  8  00 00 00 00 02 00 00 00 
   291)    30930.3  Rx       500  8  BE E0 DD AC 0A E8 64 7F 
   292)    31031.2  Rx       650  8  17 77 1D 8A 00 00 00 00 
   293)    31132.0  Rx       12F  8  86 81 C7 FC A0 37 7D E6 
   294)    31232.7  Rx       505  8  82 D6 F5 5E A4 C7 B7 38 
   295)    31333.5  Rx       177  8  00 00 00 00 92 FB D2 6C 
   296)    31434.4  Rx       500  8  91 00 A2 A1 14 02 BC CD 
   297)    31535.6  Rx       7C5  8  00 20 3B 63 27 A5 9C ED 
   298)    31636.1  Rx       652  8  51 B4 7D 59 6B 78 00 00 
   299)    31737.1  Rx        52  8  1A 9B 56 4D 43 C7 02 00 
   300)    31837.8  Rx       4CD  8  3D D4 A6 04 4E 63 CF 32 
   301)    31938.6  Rx       674  8  50 00 00 00 00 00 00 00 
   302)    32039.5  Rx       12F  8  B7 65 BD AA BB 35 50 29 
   303)    32140.1  Rx       644  8  37 01 48 0B 0E 19 F4 F9 
   304)    32241.0  Rx       644  8  76 AA D5 06 02 D5 5F AF 
   305)    32442.3  Rx        A0  8  03 06 00 00 00 00 00 00 
   306)    32542.7  Rx       153  8  74 00 00 00 00 00 00 00 
   307)    32643.5  Rx       12F  8  38 37 F8 E6 38 05 CD D6 
   308)    32744.1  Rx       170  8  C1 5D E1 12 45 60 5E AF 
   309)    32844.6  Rx       7DB  8  00 88 3C 5C EF 9C 92 EA 
   310)    32945.5  Rx        81  8  37 17 3D 00 00 00 00 00 
   311)    33046.3  Rx       680  8  02 00 00 00 00 00 00 00 
   312)    33147.0  Rx       10C  8  9F 2B 9C A8 0E 00 00 00 
   313)    33247.9  Rx       7D9  8  00 84 0A 13 45 DA C4 6D 
   314)    33348.9  Rx         5  8  00 00 00 00 E5 00 00 00 
   315)    33449.6  Rx       7C2  8  00 60 91 AA E0 62 65 9B 
   316)    33550.4  Rx       154  8  AE 88 35 16 11 56 00 00 
   317)    33651.1  Rx       50A  8  AC 65 9F 0B DF 01 00 00 
   318)    33751.6  Rx  10000210  0   
   319)    33852.2  Rx         4  8  C4 00 00 00 00 00 00 00 
   320)    33952.8  Rx       50A  8  08 05 CB F1 B0 04 00 00 
   321)    34053.6  Rx       641  8  00 6F 49 4C 50 B5 7F 13 
   322)    34154.4  Rx         5  8  00 00 00 00 1E 00 00 00 
   323)    34255.4  Rx       361  8  AA DA BA 7A 55 A8 97 01 
   324)    34356.1  Rx       450  8  DB 00 00 00 00 00 00 00 
   325)    34456.8  Rx        52  8  5C 12 AC F5 98 71 14 00 
   326)    34557.5  Rx       12A  8  A7 2A 3D A5 5C 4C 01 00 
   327)    34657.9  Rx  10000203  8  0C 30 84 35 60 04 30 11 
   328)    34758.7  Rx       7C2  8  80 FD F3 DF A9 0B 5A 07 
   329)    34859.5  Rx        51  8  4F 77 00 00 D5 90 00 00 
   330)    34960.1  Rx       4CD  8  82 74 51 2E 68 4F 36 00 
   331)    35060.6  Rx       650  8  1F E9 AC CD 00 00 00 00 
   332)    35161.1  Rx       175  8  48 AC 86 1F D6 26 00 00 
   333)    35262.1  Rx       50E  8  F6 06 59 65 00 00 00 00 
   334)    35362.5  Rx       642  8  AC EE BF 8C 9B 87 72 08 
   335)    35463.3  Rx       644  8  4C 8D B2 01 9C 51 82 10 
   336)    35563.9  Rx       4CD  8  50 60 7C 66 51 53 11 24 
   337)    35664.6  Rx  10000208  8  00 00 00 00 00 00 00 00 
   338)    35765.2  Rx  10000207  8  3B 50 80 22 8B 7A B2 8C 
   339)    35866.1  Rx       600  8  14 28 F7 98 F6 B7 14 01 
   340)    35966.7  Rx         2  8  80 04 00 00 00 00 00 00 
   341)    36067.5  Rx        A0  8  03 07 00 00 00 00 00 00 
   342)    36168.1  Rx  10000209  4  80 4F 47 0C 
   343)    36268.9  Rx  10000211  8  1E 67 33 F9 2E 6B AE A7 
   344)    36369.5  Rx       12B  8  67 0D A0 17 A9 03 00 00 
   345)    36470.3  Rx       177  8  00 00 00 00 5C FC 6E D2 
   346)    36571.2  Rx       64F  8  7D 29 96 96 5A 3D 6F 26 
   347)    36672.1  Rx       509  8  80 EA 1B 57 01 00 00 00 
   348)    36772.8  Rx        8E  8  D3 E7 3B 42 00 00 00 00 
   349)    36873.4  Rx  10000212  8  00 00 00 00 00 00 00 00 
   350)    36974.2  Rx       644  8  14 08 FF 93 24 B5 93 08 
   351)    37074.8  Rx       7C5  8  00 68 43 74 DB DA 49 D1 
   352)    37175.8  Rx       361  8  84 63 FA CA 84 A9 F8 00 
   353)    37276.7  Rx       64B  8  C4 0D 00 00 0A 0E 00 00 
   354)    37377.5  Rx       12F  8  03 66 7E 15 DA A6 50 99 
   355)    37478.3  Rx       130  8  6F 71 6A 73 B2 20 5B 00 
   356)    37578.8  Rx       674  8  BA 00 00 00 00 00 00 00 
   357)    37679.9  Rx       236  8  BC 20 7C B6 52 87 F9 0A 
   358)    37780.9  Rx  10000208  8  00 00 00 00 00 00 00 00 
   359)    37881.5  Rx       508  8  06 E2 A2 10 9D D5 5D C3 
   360)    37982.1  Rx         3  8  00 00 00 00 80 7D 00 00 
   361)    38082.8  Rx        51  8  AE 69 00 00 19 66 00 00 
   362)    38183.3  Rx       7DB  8  00 EC 7C F3 83 04 39 64 
   363)    38284.0  Rx  10000212  8  00 00 00 00 00 00 00 00 
   364)    38384.9  Rx       236  8  37 CE 49 55 BB A5 B7 FA 
   365)    38485.6  Rx       50F  8  87 E9 87 3D F6 B3 9E 5D 
   366)    38586.2  Rx        50  8  A4 01 00 00 00 00 00 00 
   367)    38687.2  Rx       7D6  8  56 00 00 00 00 00 00 00 
   368)    38787.6  Rx  10000203  8  E0 15 D8 59 EA 01 D8 40 
   369)    38888.4  Rx       501  8  13 A5 D8 CB 7B E4 6D 47 
   370)    38989.0  Rx       500  8  B6 B1 62 16 65 29 34 60 
   371)    39089.7  Rx        52  8  4E DC C8 E4 52 E3 1D 00 
   372)    39190.5  Rx       153  8  FB 03 00 00 00 00 00 00 
   373)    39291.0  Rx       176  8  2B C2 8A 00 AC 96 54 DF 
   374)    39391.7  Rx       176  8  4A 46 0A 00 9E 40 3B 3B 
   375)    39593.5  Rx       12A  8  DC ED C0 CC 00 74 01 00 
   376)    39696.1  Rx  10000210  0   
   377)    39796.9  Rx       175  8  DC 23 F2 25 F5 E0 00 00 
   378)    39897.6  Rx       508  8  B8 32 AD 1E B5 E4 4B DA 
   379)    39998.3  Rx       361  8  49 3B 33 A3 98 AC F7 00 
   380)    40098.8  Rx       19F  8  DB 8E EE D0 5C 2D 31 EB 
   381)    40199.5  Rx         3  8  00 00 00 00 00 35 00 00 
   382)    40300.2  Rx         5  8  00 00 00 00 21 00 00 00 
   383)    40401.0  Rx         0  8  4C 00 00 00 00 00 00 00 
   384)    40501.8  Rx  10000201  8  5D 19 9A 53 D6 00 90 00 
   385)    40602.5  Rx       173  8  00 B4 18 28 00 00 00 00 
   386)    40703.2  Rx       7CC  8  43 00 00 00 00 00 00 00 
   387)    40804.0  Rx  10000208  8  00 00 00 00 00 00 00 00 
   388)    40904.7  Rx        A0  8  01 04 00 00 00 00 00 00 
   389)    41005.2  Rx       170  8  0D CE 9A 6A 29 0C A2 40 
   390)    41105.9  Rx       361  8  AB A6 37 57 22 B7 E4 00 
   391)    41206.4  Rx         4  8  A9 00 00 00 00 00 00 00 
   392)    41407.4  Rx  10000204  8  1C 57 C4 54 68 29 2C 01 
   393)    41508.0  Rx       7CC  8  14 00 00 00 00 00 00 00 
   394)    41608.7  Rx       12E  8  D7 B3 E6 52 04 08 A8 28 
   395)    41709.5  Rx       10B  8  00 1C 0A 00 00 00 00 00 
   396)    41810.2  Rx         4  8  17 00 00 00 00 00 00 00 
   397)    41911.1  Rx       371  8  62 52 01 00 00 00 00 00 
   398)    42011.7  Rx       12D  8  94 A5 10 18 B5 0E 75 F0 
   399)    42112.6  Rx         6  8  80 6E 00 00 00 00 00 00 
   400)    42213.3  Rx       7C2  8  00 8E 4B 72 75 FE F7 28 
   401)    42314.3  Rx       50A  8  89 01 E1 BB 30 02 00 00 
   402)    42415.1  Rx         7  8  00 00 00 00 00 10 00 00 
   403)    42516.1  Rx       70F  8  00 5C 89 58 0B E4 CD 78 
   404)    42616.8  Rx       179  8  64 D9 9B 76 AD 00 C4 AC 
   405)    42718.0  Rx       50A  8  80 93 09 DD 83 05 00 00 
   406)    42818.5  Rx  10000204  8  B4 46 78 37 18 2E 08 20 
   407)    42918.9  Rx       230  8  3A AB FA 3D 4A 87 4D 93 
   408)    43019.9  Rx       652  8  88 49 3E 61 58 6C 00 00 
   409)    43120.6  Rx        51  8  12 5E 00 00 97 BF 00 00 
   410)    43221.8  Rx  10000204  8  3C 41 B8 24 E4 3E 00 4B 
   411)    43322.5  Rx       70F  8  80 00 07 C3 8D 32 26 0B 
   412)    43423.2  Rx       64B  8  EA 05 00 00 49 04 00 00 
   413)    43523.8  Rx       64B  8  32 0F 00 00 44 02 00 00 
   414)    43624.2  Rx       178  8  71 FE C3 5C D4 3F 97 9F 
   415)    43724.5  Rx       170  8  21 CC 4F 34 D4 3F AA AD 
   416)    43825.2  Rx         0  8  75 00 00 00 00 00 00 00 
   417)    43926.0  Rx        A0  8  02 03 00 00 00 00 00 00 
   418)    44026.8  Rx       10A  8  59 16 BE F9 D3 C4 17 18 
   419)    44127.5  Rx       177  8  00 00 00 00 47 0A CE BB 
   420)    44228.2  Rx       12C  8  33 9B 90 D2 6D 5B 32 12 
   421)    44329.2  Rx       50E  8  42 47 80 4E 00 00 00 00 
   422)    44429.6  Rx       675  8  00 08 DA A4 A3 94 12 40 
   423)    44530.2  Rx       668  8  0D 75 11 D9 00 00 00 00 
   424)    44631.0  Rx       651  8  6F 66 5A 12 16 00 00 00 
   425)    44731.7  Rx       600  8  58 80 D4 E7 04 8C F3 71 
   426)    44832.3  Rx       154  8  56 AB 70 3C 36 31 00 00 
   427)    44932.9  Rx       651  8  38 D1 8E CA FD 00 00 00 
   428)    45033.5  Rx       7CC  8  9E 00 00 00 00 00 00 00 
   429)    45134.4  Rx       178  8  C4 22 C6 81 A7 8D 6D 89 
   430)    45235.1  Rx       506  8  3F 5B 06 90 59 20 48 D7 
   431)    45335.7  Rx       50E  8  80 CD 3C 35 00 00 00 00 
   432)    45436.3  Rx       12A  8  7B F2 47 03 25 26 03 00 
   433)    45537.2  Rx        A0  8  03 04 00 00 00 00 00 00 
   434)    45637.5  Rx       674  8  4D 00 00 00 00 00 00 00 
   435)    45838.7  Rx       7C5  8  00 A8 D8 66 75 E0 A0 5F 
   436)    45939.4  Rx       175  8  E5 D3 E0 F6 58 D4 00 00 
   437)    46040.1  Rx         3  8  00 00 00 00 80 4E 00 00 
   438)    46140.9  Rx       188  8  61 12 59 49 84 E7 46 A2 
   439)    46241.7  Rx       65B  8  30 0F 00 00 48 04 00 00 
   440)    46342.5  Rx       507  8  C8 A6 5A C1 AB 77 58 FB 
   441)    46443.3  Rx       10C  8  E1 17 81 B2 00 00 00 00 
