;$FILEVERSION=1.1
;$STARTTIME=46001.9389380510
;
;   Start time: 10-12-2025 22:32:04.247
;   Generated by AtomX
;
;   Message Number
;   |         Time Offset (ms)
;   |         |        Type
;   |         |        |        ID (hex)
;   |         |        |        |     Data Length
;   |         |        |        |     |   Data Bytes (hex) ...
;   |         |        |        |     |   |
;---+--   ----+----  --+--  ----+---  +  -+ -- -- -- -- -- -- --
     1)        0.0  Rx       600  8  49 B9 87 BF A1 35 5A EC 
     2)      101.6  Rx  10000208  8  00 00 00 00 00 00 00 00 
     3)      205.0  Rx       4CD  8  4F 72 B0 D8 74 60 95 46 
     4)      305.7  Rx       70F  8  00 28 37 43 88 7A DE BF 
     5)      406.3  Rx       62B  8  A2 0E 00 00 D4 01 00 00 
     6)      506.8  Rx       506  8  FF 06 89 E2 72 E7 85 2E 
     7)      608.7  Rx       12A  8  59 55 81 75 4E 00 01 00 
     8)      709.6  Rx       631  8  B2 0E E2 6D E2 64 81 D3 
     9)      810.1  Rx         1  8  00 00 00 00 F1 00 00 00 
    10)      911.2  Rx       508  8  49 30 16 17 83 F1 35 7C 
    11)     1012.0  Rx       153  8  BB 03 00 00 00 00 00 00 
    12)     1112.6  Rx       170  8  56 60 72 88 30 C7 FF 6C 
    13)     1213.3  Rx       7D7  8  00 58 61 9E EB FB 43 F7 
    14)     1314.1  Rx        81  8  55 30 28 00 00 00 00 00 
    15)     1417.2  Rx         3  8  00 00 00 00 80 61 00 00 
    16)     1517.9  Rx  10000212  8  00 00 00 00 00 00 00 00 
    17)     1619.0  Rx  10000201  8  56 83 FB 4E 56 00 4C 00 
    18)     1719.6  Rx       10A  8  15 FE 49 C2 6A 76 09 14 
    19)     1820.7  Rx         4  8  F0 00 00 00 00 00 00 00 
    20)     1921.4  Rx         0  8  8A 00 00 00 00 00 00 00 
    21)     2122.8  Rx       506  8  1B 0D DD C0 AB B9 E6 40 
    22)     2223.5  Rx       341  8  E4 B8 22 09 2C B1 29 00 
    23)     2324.0  Rx       7DA  8  00 A2 34 65 24 93 4A 2E 
    24)     2424.4  Rx       502  8  CF BF 1C 67 CA 79 9B 9A 
    25)     2625.2  Rx       361  8  0F F7 01 26 3C 15 29 01 
    26)     2726.1  Rx  10000204  8  08 39 24 13 F8 11 F0 23 
    27)     2826.7  Rx       177  8  00 00 00 00 C2 55 62 E4 
    28)     2927.5  Rx       12C  8  DF 19 FE E1 C8 2E 16 35 
    29)     3028.3  Rx        8F  8  00 00 00 00 00 00 00 00 
    30)     3129.0  Rx       19F  8  D2 35 7A B6 3E F9 21 E6 
    31)     3229.8  Rx       600  8  C2 6A 2B B4 F0 38 2E 63 
    32)     3330.6  Rx       645  8  7B C6 06 88 0E 9B 00 00 
    33)     3431.9  Rx       501  8  E2 AF 93 72 8F 27 91 02 
    34)     3633.0  Rx       645  8  30 F4 9C 64 E0 08 00 00 
    35)     3733.9  Rx       230  8  8C C2 44 BD E3 F0 CF 9B 
    36)     3834.3  Rx       652  8  DD 5C FB B6 18 02 00 00 
    37)     3934.8  Rx       179  8  27 93 5E 85 3F BC 9D 3C 
    38)     4035.5  Rx       508  8  15 EF 78 13 7C 24 03 1F 
    39)     4136.1  Rx  10000211  8  D9 5C C6 BA F4 B0 14 20 
    40)     4237.1  Rx       50E  8  A9 0D CF 2B 00 00 00 00 
    41)     4337.7  Rx       450  8  59 00 00 00 00 00 00 00 
    42)     4438.7  Rx       7C2  8  00 4A 63 E7 D0 84 75 21 
    43)     4539.2  Rx       70F  8  00 1C AA DB 79 E5 03 67 
    44)     4640.1  Rx       502  8  C9 07 50 EC 0D FB BC 07 
    45)     4841.7  Rx       179  8  BD A5 74 4C 07 55 03 A0 
    46)     5042.7  Rx       230  8  4D 65 E6 02 53 64 20 03 
    47)     5143.6  Rx       10B  8  03 12 1C 00 00 00 00 00 
    48)     5244.4  Rx       12E  8  8D 3B 47 AC 18 26 AB FB 
    49)     5344.9  Rx       153  8  A2 01 00 00 00 00 00 00 
    50)     5546.7  Rx         0  8  A3 00 00 00 00 00 00 00 
    51)     5647.5  Rx       668  8  55 57 1E D7 00 00 00 00 
    52)     5748.4  Rx       675  8  00 C0 B9 C5 CE CC 8E 9D 
    53)     5849.2  Rx       173  8  00 E9 07 D6 00 00 00 00 
    54)     5949.7  Rx       509  8  83 03 8D D4 00 00 00 00 
    55)     6050.2  Rx       12A  8  B5 8B 5C 2C 35 C4 00 00 
    56)     6151.0  Rx       675  8  00 A0 E1 9F 20 23 63 2A 
    57)     6251.6  Rx       503  8  B9 64 91 28 9C EC F8 2B 
    58)     6351.9  Rx       501  8  FD 52 72 4A 7A 4A 5C A8 
    59)     6452.6  Rx         0  8  72 00 00 00 00 00 00 00 
    60)     6553.0  Rx       674  8  F8 00 00 00 00 00 00 00 
    61)     6654.0  Rx         7  8  00 00 00 00 00 3D 00 00 
    62)     6754.9  Rx       188  8  D8 9B 8B 41 8E FD C8 F4 
    63)     6855.6  Rx       509  8  2B 83 F4 FE 00 00 00 00 
    64)     6956.2  Rx  10000207  8  4C E5 2F B2 57 8D 34 4C 
    65)     7057.2  Rx       176  8  7D 8B C9 00 17 E0 88 FE 
    66)     7158.2  Rx       652  8  E9 63 E3 D9 18 45 00 00 
    67)     7258.7  Rx       7C2  8  00 60 A9 39 E6 2E DD 6C 
    68)     7359.5  Rx       187  8  DD EB 44 14 17 02 45 00 
    69)     7460.2  Rx       236  8  65 81 28 02 26 42 6B D7 
    70)     7560.6  Rx       187  8  50 8A E8 BC D1 03 6D 00 
    71)     7661.3  Rx       7CC  8  E3 00 00 00 00 00 00 00 
    72)     7863.1  Rx  10000211  8  E4 09 B0 74 62 03 AA F6 
    73)     7964.1  Rx       674  8  2A 00 00 00 00 00 00 00 
    74)     8064.4  Rx       7C5  8  00 14 FD 5E 2C D5 F0 63 
    75)     8164.9  Rx         6  8  00 4B 00 00 00 00 00 00 
    76)     8265.4  Rx       507  8  2D EC CF 28 97 F8 20 50 
    77)     8466.2  Rx  10000201  8  1E A0 30 4D E1 00 79 00 
    78)     8566.7  Rx       652  8  40 9D C9 0E 95 1F 00 00 
    79)     8667.0  Rx         7  8  00 00 00 00 00 26 00 00 
    80)     8767.7  Rx       230  8  0E 4E AF 26 25 9E 0E 04 
    81)     8868.3  Rx       7C5  8  00 AA C5 80 F8 0E 3D 2D 
    82)     8968.7  Rx        81  8  4E 27 08 00 00 00 00 00 
    83)     9069.4  Rx        A0  8  03 07 00 00 00 00 00 00 
    84)     9170.1  Rx         3  8  00 00 00 00 00 64 00 00 
    85)     9270.8  Rx       7DA  8  00 E0 43 61 9A 05 14 C3 
    86)     9371.6  Rx         7  8  00 00 00 00 00 37 00 00 
    87)     9472.5  Rx       503  8  D3 B7 36 EE 33 1F 75 1A 
    88)     9573.2  Rx       178  8  0F B8 4D 26 2F A2 CB 7D 
    89)     9673.6  Rx        80  8  CB 4B 0B 03 3F 0A 17 11 
    90)     9774.2  Rx       642  8  CC 73 66 6C CD B2 05 54 
    91)     9874.9  Rx       631  8  70 24 4F FC 05 A3 30 08 
    92)     9975.8  Rx       173  8  00 90 A9 51 00 00 00 00 
    93)    10176.7  Rx       600  8  B9 A9 42 C4 4B 85 80 4D 
    94)    10277.1  Rx        81  8  4F 26 65 00 00 00 00 00 
    95)    10377.6  Rx       154  8  7A BB 78 26 33 8C 00 00 
    96)    10478.4  Rx       12E  8  75 34 0A DE DD C2 A6 8D 
    97)    10578.8  Rx       154  8  74 B6 0B 32 2D 9A 00 00 
    98)    10679.5  Rx       70F  8  00 85 0E 59 35 84 3F 11 
    99)    10779.8  Rx       240  8  A6 FC 84 00 00 00 00 00 
   100)    10880.6  Rx       240  8  58 50 CF 00 00 00 00 00 
   101)    10981.1  Rx       157  8  40 23 90 41 17 61 1C 49 
   102)    11081.7  Rx       12F  8  34 6C 47 88 A1 74 D7 24 
   103)    11282.5  Rx       12D  8  DE 80 96 2F E5 53 87 35 
   104)    11383.3  Rx       650  8  14 EE 33 DB 00 00 00 00 
   105)    11483.7  Rx       675  8  00 28 2D 84 F3 C7 E7 14 
   106)    11584.3  Rx       234  8  11 13 1D 1D 00 00 00 00 
   107)    11684.7  Rx       680  8  00 00 00 00 00 00 00 00 
   108)    11785.2  Rx       509  8  0C E5 34 DA 03 00 00 00 
   109)    11885.8  Rx        8F  8  00 00 00 00 00 00 00 00 
   110)    11986.4  Rx       668  8  05 19 1D 54 00 00 00 00 
   111)    12086.9  Rx       7DB  8  00 EC F3 AD 79 20 60 10 
   112)    12187.5  Rx  10000210  0   
   113)    12288.0  Rx       341  8  5C 2E 9B 7B 74 EB 09 00 
   114)    12388.5  Rx         7  8  00 00 00 00 80 1B 00 00 
   115)    12488.8  Rx       652  8  AF 46 B5 7D B3 80 00 00 
   116)    12589.1  Rx       500  8  9B B4 80 AA D3 97 6A 6D 
   117)    12689.7  Rx       600  8  2E A2 B4 32 B5 58 31 56 
   118)    12790.3  Rx       7B4  8  68 00 00 00 00 00 00 00 
   119)    12891.0  Rx       7DB  8  00 38 54 F0 C1 48 AB 5F 
   120)    12991.5  Rx       7CC  8  76 00 00 00 00 00 00 00 
   121)    13093.1  Rx       509  8  29 26 33 ED 03 00 00 00 
   122)    13194.2  Rx       240  8  80 E6 B4 00 00 00 00 00 
   123)    13394.9  Rx       70F  8  00 AE E6 69 19 EC 19 1D 
   124)    13495.6  Rx       19F  8  DD BE 33 E8 DD 5B 15 57 
   125)    13596.4  Rx       668  8  C9 FA 68 03 00 00 00 00 
   126)    13697.0  Rx       10C  8  5E 17 F6 78 0A 00 00 00 
   127)    13797.3  Rx  10000212  8  00 00 00 00 00 00 00 00 
   128)    13897.9  Rx       642  8  A5 00 E1 28 02 E3 5A 08 
   129)    13999.4  Rx       157  8  E6 10 35 3B 72 FD A5 05 
   130)    14100.1  Rx        80  8  E9 21 01 01 2B 19 08 08 
   131)    14200.3  Rx       173  8  00 DC 32 65 00 00 00 00 
   132)    14401.4  Rx       130  8  58 A4 1B 52 6F 4C 2F 00 
   133)    14501.8  Rx       187  8  C2 53 AB 55 AC 8B E7 00 
   134)    14602.2  Rx       10C  8  11 03 43 4D 0B 00 00 00 
   135)    14703.4  Rx        50  8  FC 02 00 00 00 00 00 00 
   136)    14804.0  Rx       10C  8  59 11 EA 96 03 00 00 00 
   137)    14905.3  Rx       7D6  8  B7 00 00 00 00 00 00 00 
   138)    15006.0  Rx        51  8  E1 2F 00 00 6E DD 00 00 
   139)    15106.9  Rx       12B  8  A4 08 82 08 E5 04 00 00 
   140)    15210.2  Rx         0  8  DA 00 00 00 00 00 00 00 
   141)    15310.9  Rx       157  8  D3 5E 65 6A C7 DC 53 02 
   142)    15411.4  Rx       7D6  8  56 00 00 00 00 00 00 00 
   143)    15512.1  Rx       7C5  8  00 8C C3 04 0D A1 DD 7B 
   144)    15612.7  Rx       7C2  8  A8 C8 10 F9 ED 98 DB 00 
   145)    15713.5  Rx       12F  8  DD 58 93 8F 7C E7 8C 4B 
   146)    15814.2  Rx       644  8  9B DC 76 41 5E 40 84 84 
   147)    15914.7  Rx       7D6  8  65 00 00 00 00 00 00 00 
   148)    16015.3  Rx       502  8  D1 81 A3 35 3D 01 EE 27 
   149)    16216.3  Rx         2  8  80 48 00 00 00 00 00 00 
   150)    16417.4  Rx       64B  8  65 07 00 00 B0 0D 00 00 
   151)    16517.9  Rx       12D  8  34 92 B1 C0 A7 D9 12 16 
   152)    16618.6  Rx        50  8  4D 03 00 00 00 00 00 00 
   153)    16719.1  Rx  10000207  8  DE E9 90 7B 22 33 62 75 
   154)    16819.8  Rx       50A  8  9A 0E 3C F7 A7 06 00 00 
   155)    16920.5  Rx       641  8  00 A4 49 E8 09 9F 20 51 
   156)    17020.9  Rx  10000211  8  02 89 D3 F7 97 72 6D 8A 
   157)    17122.4  Rx        52  8  F9 7D A7 95 8D 48 11 00 
   158)    17222.8  Rx        80  8  B0 6A 11 01 82 11 39 0E 
   159)    17423.8  Rx       7D6  8  0E 00 00 00 00 00 00 00 
   160)    17524.3  Rx       19F  8  98 BD 84 18 31 5E 82 9A 
   161)    17724.8  Rx       652  8  7A 88 71 35 4F FD 00 00 
   162)    17825.4  Rx         5  8  00 00 00 00 00 00 00 00 
   163)    17926.1  Rx       501  8  9D 5F E5 64 62 BC 21 F5 
   164)    18026.6  Rx       502  8  99 E1 15 83 21 A0 D5 C2 
   165)    18127.3  Rx       7DA  8  00 50 4B 0F 50 05 DA AB 
   166)    18227.7  Rx       503  8  0D 97 80 BD 0C 76 B2 C1 
   167)    18328.2  Rx       631  8  F3 84 12 DC 02 6F DC C6 
   168)    18428.8  Rx       19F  8  94 D0 44 C5 56 DA 53 49 
   169)    18529.3  Rx       12A  8  7F 43 3D 67 5C 43 03 00 
   170)    18630.0  Rx       170  8  62 A7 88 33 25 3D 8C 90 
   171)    18730.3  Rx        91  8  3C 9F A6 DB 00 00 00 00 
   172)    18830.6  Rx       179  8  E1 12 84 D1 22 BF B8 3A 
   173)    18931.1  Rx        8F  8  00 00 00 00 00 00 00 00 
   174)    19031.4  Rx       7CC  8  D0 00 00 00 00 00 00 00 
   175)    19132.2  Rx       50E  8  36 97 55 75 00 00 00 00 
   176)    19433.8  Rx       65B  8  06 05 00 00 15 0D 00 00 
   177)    19534.5  Rx       234  8  11 09 09 18 00 00 00 00 
   178)    19634.9  Rx       12A  8  97 D1 C0 A3 95 29 03 00 
   179)    19735.4  Rx       233  8  7E 88 ED 7D 65 09 DB 5C 
   180)    19836.2  Rx       50E  8  3D 13 F9 77 00 00 00 00 
   181)    19936.6  Rx         6  8  80 78 00 00 00 00 00 00 
   182)    20037.1  Rx       505  8  70 1B 34 55 88 14 89 D0 
   183)    20137.5  Rx       157  8  80 76 DD BF FA E9 10 A1 
   184)    20238.6  Rx       7DA  8  00 40 93 8D 92 0F 28 94 
   185)    20339.3  Rx       7CC  8  FA 00 00 00 00 00 00 00 
   186)    20439.8  Rx       12B  8  6E 04 15 09 FF 01 00 00 
   187)    20540.3  Rx       508  8  13 A7 FD 06 2C 26 23 D0 
   188)    20741.4  Rx       179  8  B6 D8 A8 70 41 CA 65 A8 
   189)    20842.0  Rx       50E  8  BC 8F C4 72 00 00 00 00 
   190)    20942.6  Rx   8192A3B  1  6F 
   191)    21143.5  Rx       50A  8  AC A2 9C 3A E6 05 00 00 
   192)    21243.8  Rx       240  8  5C EA B6 00 00 00 00 00 
   193)    21344.4  Rx       7D8  8  00 E5 88 BC CE BF B5 1B 
   194)    21444.6  Rx         4  8  35 00 00 00 00 00 00 00 
   195)    21545.2  Rx       651  8  01 E6 7D FE B2 00 00 00 
   196)    21645.9  Rx       50A  8  EC C2 AE A2 2A 06 00 00 
   197)    21746.4  Rx  10000201  8  D7 50 20 2B 50 00 0D 00 
   198)    21846.8  Rx       234  8  0E 04 16 0A 00 00 00 00 
   199)    21947.4  Rx       10C  8  F9 39 05 00 03 00 00 00 
   200)    22047.9  Rx        8F  8  00 00 00 00 00 00 00 00 
   201)    22148.3  Rx       600  8  2D C3 C9 22 DD 5C 94 C1 
   202)    22248.9  Rx       188  8  EA 44 0A 33 7F CE 9D 45 
   203)    22349.7  Rx       341  8  EC A1 46 4F 18 AB 21 00 
   204)    22450.2  Rx       631  8  AC E1 78 B7 E4 C1 0E 5C 
   205)    22550.8  Rx  10000209  4  C0 68 78 04 
   206)    22651.2  Rx  10000209  4  C0 E6 CE 07 
   207)    22751.6  Rx       65B  8  07 02 00 00 31 07 00 00 
   208)    22852.0  Rx       7CC  8  4E 00 00 00 00 00 00 00 
   209)    22953.0  Rx       7C5  8  00 65 BD 40 40 93 49 1C 
   210)    23053.9  Rx        8F  8  00 00 00 00 00 00 00 00 
   211)    23154.9  Rx       668  8  1C F7 F8 58 00 00 00 00 
   212)    23255.4  Rx       50F  8  4A 7E FA 67 BF CE 39 EA 
   213)    23356.3  Rx       178  8  7A 31 BD BD 66 83 82 C8 
   214)    23456.5  Rx        91  8  82 CA 7F EE 00 00 00 00 
   215)    23557.1  Rx       187  8  17 5F 54 03 95 0F 4F 00 
   216)    23657.5  Rx       500  8  41 72 27 D0 F0 EC 2F 2C 
   217)    23858.7  Rx        81  8  27 00 35 00 00 00 00 00 
   218)    23959.2  Rx       153  8  F6 00 00 00 00 00 00 00 
   219)    24059.7  Rx       70F  8  00 78 71 56 45 6F 28 E5 
   220)    24160.2  Rx       230  8  26 9A 0A 6C 61 79 7B 33 
   221)    24260.6  Rx       7D9  8  00 94 36 D1 BA EC 10 5B 
   222)    24360.9  Rx         1  8  00 00 00 00 1F 00 00 00 
   223)    24461.2  Rx       674  8  E9 00 00 00 00 00 00 00 
   224)    24662.7  Rx       371  8  5D 6A 00 00 00 00 00 00 
   225)    24763.3  Rx        52  8  7A 62 6D E4 6B 1D 15 00 
   226)    24864.0  Rx       12C  8  7F 02 AE E6 4E 51 01 3F 
   227)    24964.5  Rx       666  8  C8 EF DF 5E 08 54 DB 11 
   228)    25065.0  Rx       652  8  75 29 0E A7 73 96 00 00 
   229)    25165.6  Rx       674  8  07 00 00 00 00 00 00 00 
   230)    25266.0  Rx       631  8  2F F2 98 2E E4 DC A4 AD 
   231)    25366.3  Rx       675  8  00 20 33 96 47 57 3A DE 
   232)    25466.8  Rx       7D6  8  D1 00 00 00 00 00 00 00 
   233)    25567.3  Rx        52  8  D8 6A 6C 4E F5 E1 18 00 
   234)    25668.4  Rx  10000211  8  53 6D C9 6E C2 2D 54 60 
   235)    25769.3  Rx       179  8  12 02 7D 21 E9 A9 09 38 
   236)    25869.8  Rx       666  8  26 29 6C 56 44 DF 8C 89 
   237)    25970.5  Rx       600  8  79 44 23 AF 24 5F 73 4D 
   238)    26071.4  Rx       668  8  70 26 9A 93 00 00 00 00 
   239)    26171.9  Rx       12B  8  21 07 23 09 80 04 00 00 
   240)    26372.6  Rx  10000212  8  00 00 00 00 00 00 00 00 
   241)    26473.3  Rx       235  8  84 01 00 00 00 00 00 00 
   242)    26573.6  Rx         3  8  00 00 00 00 00 5A 00 00 
   243)    26674.2  Rx       177  8  00 00 00 00 B8 35 85 68 
   244)    26774.6  Rx       642  8  1B 07 23 6C E3 69 EF F0 
   245)    26875.1  Rx       235  8  6E 01 00 00 00 00 00 00 
   246)    26975.7  Rx       509  8  B1 72 7F A1 02 00 00 00 
   247)    27176.6  Rx        91  8  C1 61 2E 96 00 00 00 00 
   248)    27276.9  Rx       157  8  F0 7A 66 E6 61 21 8C 6A 
   249)    27377.5  Rx       7D8  8  00 D0 1C BE 37 1B 9D C3 
   250)    27478.1  Rx         1  8  00 00 00 00 20 00 00 00 
   251)    27578.4  Rx       19F  8  94 F7 CF 01 40 41 01 3F 
   252)    27678.8  Rx        81  8  49 31 15 00 00 00 00 00 
   253)    27779.0  Rx       507  8  58 86 39 DA 84 84 5B 15 
   254)    27879.5  Rx        A0  8  03 05 00 00 00 00 00 00 
   255)    27980.0  Rx        51  8  AC 6C 00 00 20 36 00 00 
   256)    28080.7  Rx       50A  8  A8 03 B8 94 CB 04 00 00 
   257)    28183.8  Rx       176  8  D2 B1 7B 00 88 2A CE BB 
   258)    28284.8  Rx       234  8  01 07 06 19 00 00 00 00 
   259)    28486.0  Rx       10B  8  04 18 12 00 00 00 00 00 
   260)    28586.3  Rx       631  8  ED 25 39 72 A6 8C B4 D7 
   261)    28686.9  Rx         6  8  80 08 00 00 00 00 00 00 
   262)    28787.6  Rx       178  8  4E C6 73 AA 75 1B 61 C4 
   263)    28988.9  Rx       505  8  80 9E 7A A7 DA 3B E7 91 
   264)    29089.1  Rx       7DA  8  00 C0 0B 2F 6A 9A 42 DA 
   265)    29190.8  Rx       341  8  1A ED D4 21 0E C6 31 00 
   266)    29291.4  Rx       187  8  B0 B2 38 C2 D0 1E BA 00 
   267)    29492.4  Rx       10A  8  53 D6 BE 58 20 15 57 15 
   268)    29593.4  Rx       7C5  8  00 30 1A A3 80 61 0A 41 
   269)    29694.0  Rx       157  8  25 9B 98 2D C7 29 8C 10 
   270)    29794.4  Rx       235  8  5E 04 00 00 00 00 00 00 
   271)    29895.5  Rx       234  8  01 16 1C 0A 00 00 00 00 
   272)    29996.3  Rx        8F  8  01 00 00 00 00 00 00 00 
   273)    30096.9  Rx       674  8  D2 00 00 00 00 00 00 00 
   274)    30197.3  Rx        51  8  8D 3B 00 00 14 FE 00 00 
   275)    30398.0  Rx       7B4  8  CC 00 00 00 00 00 00 00 
   276)    30498.3  Rx       64F  8  70 DB C7 30 F8 18 4E 5D 
   277)    30598.8  Rx   8192A3B  1  0E 
   278)    30699.1  Rx       675  8  00 E8 83 37 59 9C 2F 34 
   279)    30799.6  Rx       644  8  84 D6 D7 B3 12 CF BF 95 
   280)    30899.9  Rx       1A7  8  43 0A A3 20 09 00 1C 98 
   281)    31000.2  Rx       7D7  8  00 A8 E4 20 95 0A 90 F7 
   282)    31100.7  Rx       65B  8  62 02 00 00 50 06 00 00 
   283)    31201.2  Rx       674  8  0E 00 00 00 00 00 00 00 
   284)    31301.6  Rx       130  8  17 BC 77 50 58 D4 98 00 
   285)    31402.3  Rx       645  8  CF 4D FB 07 F9 A0 00 00 
   286)    31503.0  Rx       50F  8  D1 8C 66 E0 92 A4 C9 FB 
   287)    31603.4  Rx       7DB  8  00 AE F6 D6 B7 65 A6 3E 
   288)    31704.1  Rx       19F  8  A0 D9 F7 65 F3 E8 13 73 
   289)    31804.7  Rx       153  8  36 00 00 00 00 00 00 00 
   290)    31904.9  Rx       641  8  00 64 1B 22 C6 27 9D 43 
   291)    32005.3  Rx       645  8  F7 69 D0 7C 05 3F 00 00 
   292)    32105.6  Rx       509  8  14 EC 6B 05 02 00 00 00 
   293)    32206.4  Rx       170  8  A6 FB 51 A3 41 B7 17 D2 
   294)    32407.3  Rx         4  8  8E 00 00 00 00 00 00 00 
   295)    32507.8  Rx       7C2  8  00 30 F8 33 27 0D A8 FA 
   296)    32609.0  Rx       500  8  E9 FF 81 2C 88 4E 24 F1 
   297)    32709.7  Rx       153  8  2F 03 00 00 00 00 00 00 
   298)    32810.4  Rx        8E  8  5E 2B F4 9B 00 00 00 00 
   299)    32911.2  Rx       12B  8  69 00 0F 02 BF 04 00 00 
   300)    33011.7  Rx        8F  8  01 00 00 00 00 00 00 00 
   301)    33112.4  Rx       10A  8  4A FE 1D D0 13 55 0B 10 
   302)    33212.7  Rx       600  8  39 6C 2B 60 6B 17 F9 22 
   303)    33313.4  Rx       642  8  4D 78 31 A3 63 95 F9 71 
   304)    33414.0  Rx       7D6  8  6F 00 00 00 00 00 00 00 
   305)    33514.5  Rx       500  8  71 A0 1A D1 9B BD F5 51 
   306)    33615.1  Rx       175  8  40 74 46 E1 B5 03 00 00 
   307)    33816.4  Rx       178  8  08 52 E6 D2 4D 47 15 16 
   308)    33916.7  Rx       12E  8  50 65 5E D1 76 D6 0B 97 
   309)    34017.4  Rx       503  8  05 4A F9 EC 97 28 4B 9E 
   310)    34117.8  Rx       64F  8  1B 33 02 CA 0C 64 DC 92 
   311)    34218.4  Rx       668  8  0E 58 9A E9 00 00 00 00 
   312)    34319.4  Rx       500  8  72 E3 D7 37 F1 61 A3 C0 
   313)    34520.6  Rx       674  8  58 00 00 00 00 00 00 00 
   314)    34620.9  Rx       62B  8  56 07 00 00 91 01 00 00 
   315)    34821.4  Rx       450  8  1C 00 00 00 00 00 00 00 
   316)    34922.3  Rx       7D6  8  F8 00 00 00 00 00 00 00 
   317)    35022.7  Rx       12F  8  78 45 1C 82 DC 21 EA 73 
   318)    35123.5  Rx       50E  8  5D 03 78 73 00 00 00 00 
   319)    35224.0  Rx       4CD  8  9E 86 DB 30 FC 0A E0 2B 
   320)    35324.3  Rx  10000210  0   
   321)    35424.7  Rx       509  8  34 F3 5A 1E 01 00 00 00 
   322)    35525.3  Rx       508  8  A1 E8 DC 02 A6 C9 F3 D6 
   323)    35625.7  Rx       187  8  42 09 58 14 17 09 DA 00 
   324)    35826.6  Rx         7  8  00 00 00 00 80 57 00 00 
   325)    36027.3  Rx         3  8  00 00 00 00 80 0A 00 00 
   326)    36127.8  Rx  10000209  4  C0 76 9F 0B 
   327)    36229.5  Rx       188  8  11 65 F1 43 D6 9A EB 57 
   328)    36330.2  Rx       62B  8  4A 00 00 00 15 09 00 00 
   329)    36431.5  Rx       651  8  6B DA B4 F0 D1 00 00 00 
   330)    36532.7  Rx       7B4  8  CF 00 00 00 00 00 00 00 
   331)    36632.9  Rx       175  8  47 C2 64 2B DB 2D 00 00 
   332)    36735.0  Rx       62B  8  BA 05 00 00 4C 04 00 00 
   333)    36836.7  Rx       7C5  8  00 16 2B 3D 1D F0 DE 28 
   334)    36937.2  Rx       631  8  C9 B9 E4 51 96 EF 96 18 
   335)    37038.1  Rx  10000201  8  04 49 6E BA 0F 00 CE 00 
   336)    37138.7  Rx       235  8  8E 00 00 00 00 00 00 00 
   337)    37239.2  Rx       341  8  17 82 34 38 70 CA 0D 00 
   338)    37339.8  Rx       371  8  03 8F 01 00 00 00 00 00 
   339)    37440.7  Rx       12B  8  3D 0E DF 00 5B 01 00 00 
   340)    37541.5  Rx       500  8  12 1A E1 4F B1 6B C4 0F 
   341)    37642.1  Rx       7D7  8  00 58 C7 4E 2C D4 E8 E2 
   342)    37742.7  Rx         2  8  80 15 00 00 00 00 00 00 
   343)    37843.4  Rx       506  8  0F 1F 24 3F 8F 19 F1 A0 
   344)    37944.2  Rx       7D6  8  BE 00 00 00 00 00 00 00 
   345)    38044.8  Rx       19F  8  56 4E 03 F4 44 5F ED 6C 
   346)    38145.2  Rx  10000212  8  00 00 00 00 00 00 00 00 
   347)    38245.9  Rx       12E  8  F5 A1 B0 DD B7 62 23 60 
   348)    38447.4  Rx       130  8  DB 7B F1 11 6A BE C8 00 
   349)    38550.3  Rx       154  8  56 F6 3B 28 3B CC 00 00 
   350)    38651.1  Rx        51  8  D8 96 00 00 45 5D 00 00 
   351)    38751.7  Rx       7D6  8  8F 00 00 00 00 00 00 00 
   352)    38852.4  Rx       240  8  1A 88 DE 00 00 00 00 00 
   353)    38953.2  Rx       130  8  53 62 85 9E 9E 1E 8D 00 
   354)    39154.9  Rx       173  8  00 96 3B 5E 00 00 00 00 
   355)    39255.2  Rx       235  8  E9 04 00 00 00 00 00 00 
   356)    39355.9  Rx        50  8  87 02 00 00 00 00 00 00 
   357)    39456.2  Rx       651  8  57 1D CE 0C F7 00 00 00 
   358)    39557.1  Rx       187  8  50 50 E8 70 A0 F9 7E 00 
   359)    39658.4  Rx        91  8  AE 35 57 84 00 00 00 00 
   360)    39759.1  Rx       7C5  8  40 B4 D2 A9 80 1D B7 05 
   361)    39859.6  Rx       175  8  3D 91 3F 79 C2 44 00 00 
   362)    39960.1  Rx       153  8  6C 03 00 00 00 00 00 00 
   363)    40160.7  Rx       12C  8  C7 1A 79 C5 35 4A 03 20 
   364)    40361.5  Rx       12B  8  32 0C 62 12 4D 01 00 00 
   365)    40462.1  Rx       668  8  2F 6B 4B 10 00 00 00 00 
   366)    40562.4  Rx       188  8  C1 B8 69 2A 07 20 9B 5D 
   367)    40663.1  Rx  10000210  0   
   368)    40763.9  Rx       173  8  00 F9 23 21 00 00 00 00 
   369)    40864.6  Rx        51  8  B6 B6 00 00 7C BB 00 00 
   370)    40965.1  Rx       177  8  00 00 00 00 3C AB A2 5E 
   371)    41065.6  Rx       50F  8  CD 28 62 AF F9 3F F3 59 
   372)    41166.2  Rx       7C5  8  00 EC 1A 6A 90 EB 5F 6F 
   373)    41266.5  Rx       645  8  AB 28 C7 36 F2 AE 00 00 
   374)    41567.6  Rx       12D  8  AB 90 8B 94 8C 01 96 A9 
   375)    41668.1  Rx         3  8  00 00 00 00 80 30 00 00 
   376)    41770.1  Rx       7D6  8  56 00 00 00 00 00 00 00 
   377)    41870.7  Rx         4  8  AC 00 00 00 00 00 00 00 
   378)    41970.9  Rx  10000212  8  00 00 00 00 00 00 00 00 
   379)    42073.0  Rx        51  8  D1 31 00 00 B6 6F 00 00 
   380)    42173.3  Rx       651  8  9C FB 0F 76 22 00 00 00 
   381)    42273.9  Rx       230  8  9B 55 7C 75 A9 BE A6 43 
   382)    42374.4  Rx         7  8  00 00 00 00 00 1B 00 00 
   383)    42474.8  Rx       188  8  EE 8C 06 7D 53 8E 7A BD 
   384)    42575.1  Rx       645  8  7A 2B 4B 15 14 E5 00 00 
   385)    42676.2  Rx   8192A3B  1  36 
   386)    42777.0  Rx       178  8  BD B7 7F 5A 5C 95 8A 91 
   387)    42877.5  Rx       7C5  8  00 28 38 59 9B 38 B0 E8 
   388)    42978.1  Rx       7D7  8  00 D8 43 0B A2 FD 3B 36 
   389)    43078.7  Rx       19F  8  16 47 1C 80 B4 F9 3C 10 
   390)    43179.2  Rx       502  8  A0 AD 2F 3B CD 4A A3 30 
   391)    43279.7  Rx       10B  8  07 10 1D 00 00 00 00 00 
   392)    43380.0  Rx        52  8  52 64 D5 AE 9A F6 07 00 
   393)    43481.5  Rx       650  8  15 AE 92 15 00 00 00 00 
   394)    43582.2  Rx       641  8  00 B0 C2 94 EE E6 E2 B1 
   395)    43683.3  Rx       680  8  00 00 00 00 00 00 00 00 
   396)    43784.0  Rx         6  8  80 6D 00 00 00 00 00 00 
   397)    43884.5  Rx       507  8  9C 63 4F 40 07 09 1F F7 
   398)    43985.1  Rx       341  8  FA 73 CF 2A 7A 18 1F 00 
   399)    44085.7  Rx        8E  8  CD 43 D0 61 00 00 00 00 
   400)    44186.1  Rx  10000211  8  79 56 3C 85 FD 8C 45 D3 
   401)    44287.3  Rx       7C5  8  00 B0 9A 2D E2 80 3E D7 
   402)    44387.9  Rx       10A  8  1C EE F0 90 9C FB 74 08 
   403)    44488.6  Rx       600  8  E1 C5 97 27 DC F7 98 DA 
   404)    44588.9  Rx         1  8  00 00 00 00 34 00 00 00 
   405)    44689.1  Rx  10000210  0   
   406)    44789.9  Rx       12B  8  55 07 6F 00 C2 03 00 00 
   407)    44890.6  Rx       230  8  93 E3 1E 12 ED 30 B2 9E 
   408)    44993.0  Rx         4  8  CA 00 00 00 00 00 00 00 
   409)    45094.0  Rx       7DA  8  00 E0 39 96 98 BC 4E 4D 
   410)    45194.8  Rx       50E  8  B4 82 F4 66 00 00 00 00 
   411)    45295.4  Rx         0  8  4E 00 00 00 00 00 00 00 
   412)    45396.3  Rx       62B  8  F4 04 00 00 9D 08 00 00 
   413)    45496.7  Rx       502  8  A1 17 D9 69 37 05 24 92 
   414)    45597.2  Rx       177  8  00 00 00 00 D6 A0 87 BF 
   415)    45697.9  Rx       4CE  8  01 21 00 00 00 00 00 00 
   416)    45798.5  Rx       7DB  8  00 40 FA EF D2 0B 02 B8 
   417)    45899.1  Rx       501  8  87 AA 7E 65 2F 4A 01 A4 
   418)    45999.8  Rx       179  8  13 C7 E0 E1 72 51 30 DF 
   419)    46100.1  Rx  10000208  8  00 00 00 00 00 00 00 00 
   420)    46201.0  Rx  10000210  0   
   421)    46301.9  Rx       7D8  8  00 38 B1 9F BB F8 7F A2 
   422)    46406.1  Rx       188  8  75 12 31 80 76 E0 3E CC 
