;$FILEVERSION=1.1
;$STARTTIME=46001.9165468774
;
;   Start time: 10-12-2025 21:59:49.650
;   Generated by AtomX
;
;   Message Number
;   |         Time Offset (ms)
;   |         |        Type
;   |         |        |        ID (hex)
;   |         |        |        |     Data Length
;   |         |        |        |     |   Data Bytes (hex) ...
;   |         |        |        |     |   |
;---+--   ----+----  --+--  ----+---  +  -+ -- -- -- -- -- -- --
     1)        0.0  Rx       62B  8  0B 08 00 00 39 0A 00 00 
     2)      100.8  Rx       508  8  BB 49 80 19 F3 46 0B 4C 
     3)      203.8  Rx       507  8  E3 DE B7 8B 5B 85 27 17 
     4)      304.7  Rx  10000211  8  F2 71 A5 A2 26 9C 0C 3C 
     5)      405.2  Rx       509  8  E7 52 FD 80 00 00 00 00 
     6)      506.1  Rx       651  8  11 DF 6B EE D1 00 00 00 
     7)      607.0  Rx       12C  8  25 A8 80 A4 90 CE 1C 10 
     8)      808.0  Rx       675  8  00 C0 2E 21 9D E5 7A B3 
     9)      908.8  Rx       233  8  68 26 4A 27 3E A0 41 31 
    10)     1009.4  Rx       7D6  8  F7 00 00 00 00 00 00 00 
    11)     1110.2  Rx       631  8  0B 67 1B 49 01 6B F8 D7 
    12)     1210.9  Rx       65B  8  D9 01 00 00 F9 05 00 00 
    13)     1311.5  Rx         7  8  00 00 00 00 80 10 00 00 
    14)     1412.5  Rx       7D8  8  00 4E 1F 2E 99 B7 53 33 
    15)     1515.6  Rx       10C  8  1A 35 DA 73 02 00 00 00 
    16)     1616.3  Rx       4CE  8  03 B5 00 00 00 00 00 00 
    17)     1717.2  Rx  10000201  8  1A F9 10 4F 3C 00 42 00 
    18)     1918.2  Rx       501  8  CB C2 74 21 A3 DA C6 DA 
    19)     2018.9  Rx       176  8  0C F0 F6 00 E5 73 18 F8 
    20)     2119.9  Rx       509  8  8E 8F DD A3 03 00 00 00 
    21)     2220.6  Rx       7D7  8  00 38 B7 C1 FE 24 4C 9E 
    22)     2321.2  Rx       188  8  8F 47 52 82 B2 11 FF 03 
    23)     2421.8  Rx       642  8  F3 CB C8 0E 44 91 29 8A 
    24)     2522.6  Rx       64B  8  D4 02 00 00 51 0D 00 00 
    25)     2623.3  Rx       50A  8  D1 75 7F 69 94 07 00 00 
    26)     2724.1  Rx         5  8  00 00 00 00 D3 00 00 00 
    27)     2825.2  Rx         1  8  00 00 00 00 62 00 00 00 
    28)     2926.2  Rx       509  8  24 DA FB 0D 01 00 00 00 
    29)     3027.1  Rx       7D9  8  00 B0 4C 03 55 78 84 DF 
    30)     3128.1  Rx       188  8  24 CB EF 59 6C C6 17 18 
    31)     3228.6  Rx       7DB  8  00 B0 D0 9D 3F 34 9B EB 
    32)     3329.4  Rx       240  8  9E 55 89 00 00 00 00 00 
    33)     3430.2  Rx       4CE  8  01 B5 00 00 00 00 00 00 
    34)     3530.9  Rx  10000212  8  00 00 00 00 00 00 00 00 
    35)     3631.6  Rx       310  8  4C 02 53 BA 00 00 00 00 
    36)     3732.5  Rx       361  8  BC B3 1B 5F 58 BC A9 01 
    37)     3833.2  Rx       505  8  98 19 C3 6B 75 C2 E5 83 
    38)     3933.8  Rx       130  8  4B 22 70 09 FE 6A 51 00 
    39)     4034.3  Rx       236  8  B7 8D C4 81 53 C9 11 04 
    40)     4135.3  Rx  10000204  8  24 2C 44 61 18 47 A0 5A 
    41)     4236.0  Rx       675  8  00 10 CD D8 B5 4D 59 EA 
    42)     4336.8  Rx       508  8  98 87 3C 0D 84 34 63 B3 
    43)     4437.8  Rx       173  8  01 3E E8 30 00 00 00 00 
    44)     4538.7  Rx       12D  8  72 82 41 4D A6 3D 65 B2 
    45)     4639.0  Rx  10000210  0   
    46)     4739.6  Rx         2  8  00 14 00 00 00 00 00 00 
    47)     4840.5  Rx         6  8  00 13 00 00 00 00 00 00 
    48)     4941.0  Rx       508  8  DE 5E 9C 10 DA 75 0D 2A 
    49)     5041.9  Rx       175  8  AE 6A 5E 29 F8 82 00 00 
    50)     5242.9  Rx       502  8  DD 7C C9 D5 FF 17 43 92 
    51)     5343.5  Rx       501  8  B8 16 62 E8 6A 62 19 3E 
    52)     5444.1  Rx  10000211  8  D5 01 E8 3D D1 9D 77 67 
    53)     5544.6  Rx       371  8  C6 76 01 00 00 00 00 00 
    54)     5746.2  Rx       170  8  39 7D 61 63 65 6D 65 8B 
    55)     5847.1  Rx       651  8  04 87 A4 CD 42 00 00 00 
    56)     5947.6  Rx       501  8  EB CC EE C7 DD F5 24 2D 
    57)     6048.5  Rx       236  8  36 80 63 9F CD 5A 43 B9 
    58)     6149.3  Rx       502  8  9B 96 E8 0A D0 B4 B0 18 
    59)     6250.1  Rx  10000209  4  40 42 0F 00 
    60)     6350.8  Rx        50  8  89 00 00 00 00 00 00 00 
    61)     6552.2  Rx         0  8  BB 00 00 00 00 00 00 00 
    62)     6652.9  Rx       178  8  4B CC 2C BE 5F A5 56 0C 
    63)     6754.0  Rx       12D  8  A8 98 0F 39 B2 B1 20 9B 
    64)     6855.0  Rx       187  8  F9 B5 BB 67 74 00 59 00 
    65)     6955.6  Rx        8F  8  00 00 00 00 00 00 00 00 
    66)     7056.2  Rx       154  8  F0 23 3D 02 1C D1 00 00 
    67)     7157.0  Rx       10A  8  8C 24 CC EC 55 E6 36 08 
    68)     7358.2  Rx       650  8  16 9D 04 E2 00 00 00 00 
    69)     7459.0  Rx       50E  8  57 F0 7E 5B 00 00 00 00 
    70)     7559.4  Rx  10000212  8  00 00 00 00 00 00 00 00 
    71)     7660.2  Rx       7D8  8  00 A2 82 43 22 29 F2 22 
    72)     7761.0  Rx       500  8  E8 94 E8 ED BF 7F D5 3F 
    73)     7861.9  Rx       50A  8  29 E4 E3 92 94 00 00 00 
    74)     7962.8  Rx       50E  8  03 12 3A 2D 00 00 00 00 
    75)     8063.4  Rx        A0  8  00 04 00 00 00 00 00 00 
    76)     8164.1  Rx       177  8  00 00 00 00 DE 0E 9A FC 
    77)     8264.8  Rx       235  8  7E 04 00 00 00 00 00 00 
    78)     8365.5  Rx       503  8  0E 2A 03 70 1D D8 9A CF 
    79)     8466.4  Rx       230  8  70 BD 7C F3 E6 D9 DB 09 
    80)     8567.1  Rx       234  8  06 1A 0C 11 00 00 00 00 
    81)     8667.7  Rx        A0  8  02 05 00 00 00 00 00 00 
    82)     8768.7  Rx       631  8  B6 06 68 3C 07 A2 06 C4 
    83)     8869.5  Rx       10B  8  0B 11 11 00 00 00 00 00 
    84)     8970.3  Rx       450  8  3C 00 00 00 00 00 00 00 
    85)     9070.9  Rx        8E  8  2F 2D 64 CD 00 00 00 00 
    86)     9171.5  Rx       644  8  07 FF 93 5C 1A 9A 5E CE 
    87)     9272.3  Rx       153  8  C2 01 00 00 00 00 00 00 
    88)     9372.9  Rx       235  8  92 01 00 00 00 00 00 00 
    89)     9476.3  Rx        51  8  7E 39 00 00 40 99 00 00 
    90)     9577.1  Rx       503  8  19 13 B1 C4 17 32 31 66 
    91)     9677.9  Rx       177  8  00 00 00 00 30 63 15 58 
    92)     9778.4  Rx       12A  8  A6 61 10 62 E2 5E 00 00 
    93)     9879.3  Rx         7  8  00 00 00 00 80 4F 00 00 
    94)     9980.1  Rx       371  8  59 8D 00 00 00 00 00 00 
    95)    10081.0  Rx       50E  8  ED 3F 7C 65 00 00 00 00 
    96)    10181.8  Rx       668  8  13 A2 77 A4 00 00 00 00 
    97)    10282.4  Rx       501  8  A0 4E CE 24 27 8D E8 A1 
    98)    10383.2  Rx       12F  8  40 EF 67 29 99 6E C1 DC 
    99)    10483.6  Rx       668  8  D5 F1 4F AA 00 00 00 00 
   100)    10584.2  Rx       652  8  D5 50 3F 32 58 2F 00 00 
   101)    10684.6  Rx         3  8  00 00 00 00 00 56 00 00 
   102)    10785.4  Rx       651  8  B0 F9 C0 A3 F5 00 00 00 
   103)    10886.3  Rx       674  8  D5 00 00 00 00 00 00 00 
   104)    10987.3  Rx       7D7  8  00 5A 1B 26 1A 2B D0 37 
   105)    11188.0  Rx        91  8  FB 85 FE 58 00 00 00 00 
   106)    11288.9  Rx       7D8  8  00 65 95 00 2E 0D 8E 06 
   107)    11389.5  Rx       4CE  8  01 4D 00 00 00 00 00 00 
   108)    11490.4  Rx       652  8  B7 FF 49 17 EE 45 00 00 
   109)    11591.1  Rx       7C5  8  00 78 FC EA 69 72 41 92 
   110)    11691.9  Rx       505  8  BC 28 66 57 46 FC B1 19 
   111)    11792.7  Rx       188  8  DC 34 A5 51 34 49 E0 B4 
   112)    11893.7  Rx         6  8  80 58 00 00 00 00 00 00 
   113)    11994.3  Rx        81  8  4C 31 24 00 00 00 00 00 
   114)    12095.2  Rx       10C  8  6E 31 49 9C 0E 00 00 00 
   115)    12196.0  Rx       10C  8  59 2F 2D 1F 0A 00 00 00 
   116)    12397.6  Rx        81  8  4D 05 0F 00 00 00 00 00 
   117)    12498.1  Rx       65B  8  87 00 00 00 75 02 00 00 
   118)    12598.7  Rx       177  8  00 00 00 00 10 EA 1B 1A 
   119)    12699.6  Rx       62B  8  37 0A 00 00 A5 0E 00 00 
   120)    12800.1  Rx       600  8  27 44 37 7E 97 26 35 AE 
   121)    12900.8  Rx        91  8  DF 60 4E E7 00 00 00 00 
   122)    13001.5  Rx       650  8  07 F2 F9 DC 00 00 00 00 
   123)    13102.3  Rx  10000201  8  B5 E2 F8 D5 6A 00 8F 00 
   124)    13202.8  Rx       7B4  8  D0 00 00 00 00 00 00 00 
   125)    13303.5  Rx       668  8  82 FA C0 39 00 00 00 00 
   126)    13404.2  Rx       64F  8  76 8F 10 1B E2 CD 4B D7 
   127)    13504.8  Rx       177  8  00 00 00 00 5D 0A 1C E8 
   128)    13605.9  Rx        81  8  38 07 72 00 00 00 00 00 
   129)    13807.4  Rx        81  8  16 10 09 00 00 00 00 00 
   130)    13908.0  Rx         5  8  00 00 00 00 8F 00 00 00 
   131)    14008.7  Rx       235  8  D4 04 00 00 00 00 00 00 
   132)    14109.6  Rx       371  8  7B B6 01 00 00 00 00 00 
   133)    14210.6  Rx       652  8  9B 1F BA 71 67 E9 00 00 
   134)    14311.5  Rx        8F  8  00 00 00 00 00 00 00 00 
   135)    14412.0  Rx       7D8  8  00 C8 C6 E6 3F C1 3F CB 
   136)    14512.7  Rx       177  8  00 00 00 00 CD E3 99 0C 
   137)    14613.4  Rx       64F  8  FD 8E DC F1 2B 43 43 10 
   138)    14714.4  Rx       501  8  64 23 90 DE 47 46 F3 F7 
   139)    14815.4  Rx        80  8  CF 69 02 02 39 19 1E 05 
   140)    14916.1  Rx       450  8  43 00 00 00 00 00 00 00 
   141)    15218.2  Rx       371  8  2F 09 00 00 00 00 00 00 
   142)    15318.9  Rx       170  8  02 06 E4 91 B2 49 5F 16 
   143)    15419.7  Rx       7B4  8  28 00 00 00 00 00 00 00 
   144)    15520.6  Rx       310  8  66 00 07 8F 00 00 00 00 
   145)    15621.1  Rx  10000208  8  00 00 00 00 00 00 00 00 
   146)    15721.7  Rx       233  8  4E DF 71 06 1A CA 46 86 
   147)    15822.6  Rx       233  8  41 39 55 65 FD BF CE 41 
   148)    16023.4  Rx       642  8  6A 73 51 88 36 E4 3B BF 
   149)    16124.0  Rx         0  8  EF 00 00 00 00 00 00 00 
   150)    16224.8  Rx       502  8  4A DF 04 34 0B C8 69 5F 
   151)    16325.2  Rx       668  8  27 E1 4E 6A 00 00 00 00 
   152)    16425.9  Rx         0  8  6C 00 00 00 00 00 00 00 
   153)    16526.6  Rx       4CE  8  03 AD 00 00 00 00 00 00 
   154)    16627.6  Rx         2  8  00 46 00 00 00 00 00 00 
   155)    16728.1  Rx       12B  8  AA 07 9B 13 28 03 00 00 
   156)    16829.1  Rx  10000201  8  8A 2D AF CE E2 00 CC 00 
   157)    16930.1  Rx       341  8  4D 2A FC 3C 0E 35 31 00 
   158)    17030.9  Rx       176  8  CB 78 55 00 7F 94 C4 38 
   159)    17132.0  Rx       234  8  1D 16 15 14 00 00 00 00 
   160)    17232.7  Rx       230  8  06 D7 84 C7 9D 29 10 24 
   161)    17333.5  Rx       503  8  03 92 C4 5E 83 20 F8 1D 
   162)    17434.4  Rx       651  8  E5 16 E7 7E 60 00 00 00 
   163)    17535.2  Rx       10C  8  A9 24 2B 07 0B 00 00 00 
   164)    17635.8  Rx       179  8  D7 42 04 86 21 FB 4D 8B 
   165)    17736.6  Rx       7B4  8  13 00 00 00 00 00 00 00 
   166)    17837.3  Rx        50  8  E4 02 00 00 00 00 00 00 
   167)    17938.1  Rx       154  8  BA C2 69 3D 00 95 00 00 
   168)    18139.1  Rx        51  8  CE 43 00 00 B9 D0 00 00 
   169)    18239.6  Rx        50  8  6E 03 00 00 00 00 00 00 
   170)    18441.1  Rx       4CD  8  AE C8 09 13 D0 97 F2 C7 
   171)    18541.8  Rx       7D7  8  00 60 B2 9E 8D B4 F0 A8 
   172)    18642.4  Rx       502  8  A5 65 80 F0 D2 73 2E 74 
   173)    18743.3  Rx       50E  8  38 47 E1 10 00 00 00 00 
   174)    18844.4  Rx       7D7  8  00 B0 59 CB 75 D4 3E 92 
   175)    18945.3  Rx       62B  8  1A 0A 00 00 6F 06 00 00 
   176)    19045.9  Rx       501  8  27 98 10 F2 43 2B E6 E4 
   177)    19146.9  Rx        51  8  AC 64 00 00 FD F6 00 00 
   178)    19247.5  Rx  10000210  0   
   179)    19348.3  Rx       234  8  0B 09 1A 0B 00 00 00 00 
   180)    19448.7  Rx  10000210  0   
   181)    19549.9  Rx       4CD  8  8B 07 CF 4F 8F A1 CE 3B 
   182)    19650.3  Rx       502  8  3C F5 A4 7F C3 92 4E 71 
   183)    19750.9  Rx       4CD  8  C7 88 08 66 F9 75 02 C5 
   184)    19852.0  Rx        81  8  4C 37 63 00 00 00 00 00 
   185)    19952.5  Rx  10000203  8  CC 10 74 40 D4 08 CC 5B 
   186)    20053.6  Rx       500  8  EF E2 0B 90 03 5B F9 48 
   187)    20154.3  Rx       186  8  6C E7 4C 00 27 00 00 00 
   188)    20255.3  Rx       7C2  8  00 BC 09 2F 21 A1 5A 66 
   189)    20356.1  Rx       651  8  1D 89 37 A7 C9 00 00 00 
   190)    20456.9  Rx       7D8  8  00 90 12 0B B5 F3 25 C9 
   191)    20557.4  Rx        A0  8  03 05 00 00 00 00 00 00 
   192)    20658.1  Rx       506  8  BF E6 FA 40 F6 95 AF C6 
   193)    20758.6  Rx       641  8  00 3C 22 91 CF DE D6 3B 
   194)    20859.4  Rx       675  8  00 00 36 9F 79 71 C4 72 
   195)    20959.8  Rx       371  8  6B B2 00 00 00 00 00 00 
