;$FILEVERSION=1.1
;$STARTTIME=46001.9199831178
;
;   Start time: 10-12-2025 22:04:46.541
;   Generated by AtomX
;
;   Message Number
;   |         Time Offset (ms)
;   |         |        Type
;   |         |        |        ID (hex)
;   |         |        |        |     Data Length
;   |         |        |        |     |   Data Bytes (hex) ...
;   |         |        |        |     |   |
;---+--   ----+----  --+--  ----+---  +  -+ -- -- -- -- -- -- --
     1)        0.0  Rx       10A  8  C5 F4 85 AA 47 98 56 15 
     2)      101.1  Rx       310  8  FB 01 93 72 00 00 00 00 
     3)      203.3  Rx  10000201  8  4F A1 3C 55 30 00 B3 00 
     4)      304.1  Rx       506  8  77 38 C8 17 03 30 96 E4 
     5)      404.8  Rx       371  8  A2 3C 01 00 00 00 00 00 
     6)      505.5  Rx       310  8  FD 02 68 50 00 00 00 00 
     7)      606.4  Rx       62B  8  A0 02 00 00 83 04 00 00 
     8)      706.9  Rx       4CD  8  E9 4A 44 CD 69 B6 A8 6E 
     9)      807.8  Rx       64F  8  DF AF 64 82 94 1D 9B 18 
    10)      908.6  Rx       7D7  8  00 78 3E 4D 6C 58 EE C8 
    11)     1009.2  Rx       651  8  1C B3 61 BC 7C 00 00 00 
    12)     1110.1  Rx       7D6  8  F6 00 00 00 00 00 00 00 
    13)     1210.8  Rx        51  8  BD B9 00 00 51 17 00 00 
    14)     1311.6  Rx       50F  8  13 71 F8 F9 A9 BE BB D6 
    15)     1414.5  Rx       170  8  1F 9E 75 BF 6E CA 6A DA 
    16)     1615.9  Rx       12E  8  E6 10 76 0C 37 8A 17 CC 
    17)     1716.3  Rx       652  8  8C 0D 95 86 A9 0E 00 00 
    18)     1917.6  Rx       64F  8  48 59 7D EF EE 6C 3D 6F 
    19)     2018.3  Rx  10000212  8  00 00 00 00 00 00 00 00 
    20)     2118.8  Rx       12A  8  85 09 DB 37 CC BB 01 00 
    21)     2219.8  Rx         5  8  00 00 00 00 AB 00 00 00 
    22)     2320.5  Rx       507  8  03 1F 0B F7 1D DE D8 AF 
    23)     2421.5  Rx       130  8  66 17 1F A9 05 BC 27 00 
    24)     2522.1  Rx       631  8  40 DB 26 E7 36 97 E9 04 
    25)     2622.8  Rx       645  8  B2 00 B5 62 8A 06 00 00 
    26)     2723.4  Rx       179  8  42 F3 83 07 26 E0 0F AE 
    27)     2824.1  Rx       502  8  41 6F 66 18 96 1F F5 2D 
    28)     2924.8  Rx       10C  8  2A 1A D1 69 0B 00 00 00 
    29)     3025.3  Rx        51  8  DB 06 00 00 25 67 00 00 
    30)     3126.1  Rx         4  8  1B 00 00 00 00 00 00 00 
    31)     3226.9  Rx       600  8  A3 67 37 2F 4A 18 4D 97 
    32)     3327.7  Rx       7D7  8  00 78 45 36 2E D7 03 8A 
    33)     3428.6  Rx       501  8  C0 34 3D 9D FB 41 D3 A7 
    34)     3529.4  Rx       153  8  6C 02 00 00 00 00 00 00 
    35)     3629.9  Rx       176  8  C6 23 5E 00 64 AC FB F7 
    36)     3730.4  Rx       187  8  29 D9 34 DD BF EF BF 00 
    37)     3830.9  Rx       234  8  14 03 1C 02 00 00 00 00 
    38)     3931.3  Rx       7D9  8  C0 F4 20 F1 51 4E 7A 06 
    39)     4032.0  Rx       12B  8  AF 06 C6 00 34 00 00 00 
    40)     4132.8  Rx       7B4  8  82 00 00 00 00 00 00 00 
    41)     4233.6  Rx        8E  8  9C 90 41 5A 00 00 00 00 
    42)     4334.2  Rx       178  8  A1 F2 9A EF 87 6A 69 74 
    43)     4434.5  Rx       235  8  7F 03 00 00 00 00 00 00 
    44)     4535.1  Rx       187  8  F5 EF AA FF 77 FC 03 00 
    45)     4635.7  Rx       7D6  8  7E 00 00 00 00 00 00 00 
    46)     4736.3  Rx        52  8  DF EB 95 8C 9B 2A 0D 00 
    47)     4937.3  Rx       64F  8  C3 32 84 64 1A DA 73 C8 
    48)     5038.0  Rx       7CC  8  06 00 00 00 00 00 00 00 
    49)     5138.6  Rx         3  8  00 00 00 00 80 4B 00 00 
    50)     5239.3  Rx       508  8  70 DC 9E 1A 16 8B A8 D9 
    51)     5339.9  Rx       176  8  85 83 7A 00 EE 66 72 81 
    52)     5440.5  Rx       12B  8  2C 0D B9 0C 46 00 00 00 
    53)     5642.0  Rx       7D7  8  00 34 67 5F 34 D8 87 59 
    54)     5742.4  Rx       50E  8  EF 44 E1 32 00 00 00 00 
    55)     5843.1  Rx  10000211  8  AB 1C 1C 83 28 A4 41 EE 
    56)     6044.6  Rx       234  8  0A 15 0E 0E 00 00 00 00 
    57)     6145.2  Rx       651  8  C6 60 26 7F CE 00 00 00 
    58)     6245.7  Rx       12B  8  CE 14 AB 0E 6C 02 00 00 
    59)     6446.8  Rx       7D6  8  65 00 00 00 00 00 00 00 
    60)     6547.4  Rx       675  8  00 F4 C5 EE 68 70 F9 0F 
    61)     6648.2  Rx       666  8  93 13 72 F6 3D 78 32 FF 
    62)     6748.6  Rx       505  8  DD 7F 8C 44 7E 21 05 06 
    63)     6849.7  Rx       10C  8  59 21 2C D2 07 00 00 00 
    64)     6950.6  Rx       7D8  8  00 44 BD DA A9 5F 7B 70 
    65)     7051.2  Rx       674  8  35 00 00 00 00 00 00 00 
    66)     7152.0  Rx       631  8  E0 4F E5 C5 E7 D5 B2 E1 
    67)     7252.8  Rx       12D  8  8A C3 AA 23 14 B3 C1 30 
    68)     7353.5  Rx  10000207  8  E9 2C 71 A0 7D 56 64 FD 
    69)     7454.2  Rx       130  8  AC 3F AC 71 26 E7 A3 00 
    70)     7554.6  Rx  10000211  8  B2 34 BB 3B 1C 00 EC 33 
    71)     7655.2  Rx       175  8  F1 69 FA BC 4D 90 00 00 
    72)     7758.1  Rx       154  8  D4 CF 51 12 21 7A 00 00 
    73)     7858.7  Rx       651  8  17 00 93 84 17 00 00 00 
    74)     7959.3  Rx       506  8  E3 2B 45 F1 06 7E DF FF 
    75)     8059.6  Rx       50F  8  C3 A5 CB CC BB A2 06 A9 
    76)     8160.0  Rx         5  8  00 00 00 00 EA 00 00 00 
    77)     8360.6  Rx       650  8  1F 85 A4 C6 00 00 00 00 
    78)     8461.4  Rx       187  8  17 A6 F1 B3 57 53 11 00 
    79)     8562.0  Rx       652  8  0F 13 0D F7 BA 18 00 00 
    80)     8662.3  Rx       62B  8  EF 00 00 00 02 0E 00 00 
    81)     8762.8  Rx       173  8  01 F8 58 3D 00 00 00 00 
    82)     8863.5  Rx       10B  8  01 0D 0A 00 00 00 00 00 
    83)     8964.2  Rx       154  8  FA 05 2C 3D 2B 78 00 00 
    84)     9165.1  Rx       7C5  8  00 5C 49 16 6B 30 7C 51 
    85)     9266.0  Rx       157  8  83 F1 7D CB 10 21 42 36 
    86)     9468.1  Rx       173  8  01 A4 25 7C 00 00 00 00 
    87)     9568.9  Rx       50F  8  24 BE 86 29 9B 05 5E 49 
    88)     9669.6  Rx       12D  8  38 B9 BB 39 B2 33 F5 44 
    89)     9770.2  Rx  10000208  8  00 00 00 00 00 00 00 00 
    90)     9971.4  Rx       50F  8  DB 37 E4 48 4A F1 5B 8B 
    91)    10071.9  Rx       642  8  42 2C 65 DF D2 96 1D E4 
    92)    10172.5  Rx       12E  8  0F 39 0C D0 91 7D 58 12 
    93)    10273.1  Rx       500  8  5A 8E 21 BF 09 8E 05 46 
    94)    10373.7  Rx       62B  8  FD 07 00 00 D7 04 00 00 
    95)    10474.4  Rx         7  8  00 00 00 00 00 50 00 00 
    96)    10575.6  Rx       154  8  F0 34 02 3C 39 47 00 00 
    97)    10676.5  Rx       154  8  48 91 3A 1B 2D 23 00 00 
    98)    10777.3  Rx       19F  8  49 9F 1A B3 E1 11 E4 A8 
    99)    10877.9  Rx  10000211  8  E6 3A 61 A8 20 C4 25 06 
   100)    10978.5  Rx       236  8  5A 21 FF E6 B1 B9 D3 03 
   101)    11079.1  Rx        51  8  F2 74 00 00 D2 19 00 00 
   102)    11179.5  Rx       170  8  BB B6 B9 2D 68 7A A8 F6 
   103)    11280.3  Rx       644  8  34 6B 10 B9 CE FE 57 07 
   104)    11380.9  Rx       240  8  00 3E 16 00 00 00 00 00 
   105)    11482.0  Rx       188  8  18 02 60 C2 1C B3 2C 10 
   106)    11582.6  Rx       154  8  B0 0A 3B 2A 3C DB 00 00 
   107)    11683.5  Rx  10000210  0   
   108)    11784.2  Rx       644  8  2A A1 00 D4 BA A4 83 B4 
   109)    11885.1  Rx       7B4  8  22 00 00 00 00 00 00 00 
   110)    11985.7  Rx       4CE  8  07 F7 00 00 00 00 00 00 
   111)    12186.7  Rx       157  8  6F 24 B6 1D C2 11 87 6F 
   112)    12287.6  Rx       668  8  A0 AB 37 05 00 00 00 00 
   113)    12388.5  Rx       7C2  8  00 90 88 13 32 91 71 C2 
   114)    12589.8  Rx       502  8  4B AF A9 49 9A 30 E0 F1 
   115)    12690.3  Rx       650  8  07 B9 2E D5 00 00 00 00 
   116)    12791.2  Rx         4  8  C7 00 00 00 00 00 00 00 
   117)    12891.7  Rx         4  8  BA 00 00 00 00 00 00 00 
   118)    12992.5  Rx       7B4  8  6A 00 00 00 00 00 00 00 
   119)    13093.3  Rx       7C2  8  00 AB 68 D6 62 08 DC 19 
   120)    13194.2  Rx        8F  8  01 00 00 00 00 00 00 00 
   121)    13295.1  Rx  10000203  8  1C 25 C4 54 F2 08 B4 14 
   122)    13396.0  Rx       645  8  18 A6 BB 32 DA 65 00 00 
   123)    13496.3  Rx  10000210  0   
   124)    13597.7  Rx       361  8  11 04 C7 D8 2F 97 56 00 
   125)    13698.8  Rx       310  8  0D 00 21 06 00 00 00 00 
   126)    13799.4  Rx       4CE  8  01 2E 00 00 00 00 00 00 
   127)    13900.1  Rx       4CE  8  04 2D 00 00 00 00 00 00 
   128)    14000.9  Rx       50A  8  F7 D4 78 BB 6B 02 00 00 
   129)    14101.4  Rx       505  8  FB 2B E2 57 4D 39 57 CB 
   130)    14202.3  Rx       50F  8  2B 80 3F EC D2 62 D9 24 
   131)    14302.7  Rx       12E  8  C9 A0 DA 5F B1 1E BA AE 
   132)    14403.3  Rx       501  8  7C 1A B8 D8 E8 01 FC 58 
   133)    14504.0  Rx       7B4  8  47 00 00 00 00 00 00 00 
   134)    14604.9  Rx       361  8  F0 DB B4 C7 6C DB 22 01 
   135)    14705.8  Rx         6  8  00 6A 00 00 00 00 00 00 
   136)    14806.6  Rx       450  8  83 00 00 00 00 00 00 00 
   137)    14907.5  Rx       666  8  99 FA A6 8C 42 8A EB F7 
   138)    15008.5  Rx       12E  8  2C A0 71 F8 EB C6 89 0C 
   139)    15108.9  Rx       7B4  8  AE 00 00 00 00 00 00 00 
   140)    15209.6  Rx       4CD  8  8F 4B F5 99 05 A0 83 BD 
   141)    15310.5  Rx       645  8  E5 10 F6 75 18 20 00 00 
   142)    15411.3  Rx       680  8  01 00 00 00 00 00 00 00 
   143)    15512.1  Rx       666  8  AE 01 FC 26 9E 05 E5 BE 
   144)    15612.9  Rx       508  8  C6 E4 A9 11 FE 28 A7 9E 
   145)    15713.6  Rx       10B  8  00 12 17 00 00 00 00 00 
   146)    15814.1  Rx         2  8  80 5D 00 00 00 00 00 00 
   147)    15914.8  Rx  10000212  8  00 00 00 00 00 00 00 00 
   148)    16015.3  Rx       178  8  7E 32 1B B2 0E 9F B7 32 
   149)    16116.1  Rx        81  8  23 22 5A 00 00 00 00 00 
   150)    16216.9  Rx        51  8  4F 13 00 00 2B 6D 00 00 
   151)    16318.0  Rx  10000201  8  A5 E1 FE CB BD 00 A7 00 
   152)    16418.7  Rx       234  8  1E 1B 06 16 00 00 00 00 
   153)    16519.7  Rx       680  8  02 00 00 00 00 00 00 00 
   154)    16620.4  Rx       631  8  3C C3 F3 4C D1 44 28 A4 
   155)    16721.2  Rx        8F  8  01 00 00 00 00 00 00 00 
   156)    16821.6  Rx       642  8  E9 9D 38 9A 39 0E 96 99 
   157)    16922.3  Rx       310  8  C1 02 BA DF 00 00 00 00 
   158)    17023.0  Rx       178  8  32 12 A8 D4 67 58 C1 CD 
   159)    17123.5  Rx       506  8  DF F3 6A B0 12 CF 6C 81 
   160)    17224.5  Rx       641  8  00 20 8D ED 59 E2 B1 C2 
   161)    17325.2  Rx  10000209  4  00 EA 32 06 
   162)    17426.5  Rx       501  8  7C 04 4C 37 D9 DD 64 4B 
   163)    17527.2  Rx        51  8  C0 93 00 00 4E 5F 00 00 
   164)    17628.1  Rx       501  8  3C 00 9E A9 1F 88 4E 0A 
   165)    17729.1  Rx       50A  8  DE 0C BB 45 98 04 00 00 
   166)    17829.9  Rx       675  8  00 BC B9 34 81 B7 A2 64 
   167)    18031.2  Rx       176  8  9D C6 FB 00 F3 82 77 97 
   168)    18131.6  Rx       10B  8  02 05 06 00 00 00 00 00 
   169)    18232.1  Rx       65B  8  C3 09 00 00 43 02 00 00 
   170)    18332.9  Rx         7  8  00 00 00 00 00 13 00 00 
   171)    18433.5  Rx       7D8  8  00 6C F8 18 77 31 EF 46 
   172)    18534.8  Rx       675  8  00 E9 4A 2D 57 67 E6 0B 
   173)    18635.3  Rx       644  8  B3 57 55 01 28 E4 97 D7 
   174)    18735.7  Rx       680  8  02 00 00 00 00 00 00 00 
   175)    18836.2  Rx         0  8  D7 00 00 00 00 00 00 00 
   176)    18936.8  Rx         1  8  00 00 00 00 4A 00 00 00 
   177)    19037.5  Rx       175  8  9F DA B4 4B 7B 07 00 00 
   178)    19138.1  Rx        51  8  37 E6 00 00 A5 BD 00 00 
   179)    19238.8  Rx       7C2  8  00 CB 54 3E 14 EB A8 19 
   180)    19339.7  Rx       503  8  64 F5 E9 1E F5 72 80 5B 
   181)    19541.2  Rx       600  8  6A 0F B3 F0 0A 0B 19 39 
   182)    19641.8  Rx       188  8  D2 9E C3 7F 93 16 69 D2 
   183)    19742.6  Rx       236  8  10 D5 6B 9C 66 72 E4 84 
   184)    19843.4  Rx       10A  8  C8 C3 81 9E B9 F1 77 05 
   185)    20045.0  Rx         5  8  00 00 00 00 F9 00 00 00 
   186)    20145.6  Rx       12B  8  F7 18 E3 03 F3 01 00 00 
   187)    20246.3  Rx       12F  8  1B 05 3D 23 E1 76 9A F0 
   188)    20346.9  Rx       50F  8  6B 9F 10 66 E7 15 C9 93 
   189)    20447.9  Rx       506  8  0A C9 BD 07 BE 14 3A A9 
   190)    20548.6  Rx       361  8  C9 50 B8 7D 83 F0 AE 00 
   191)    20649.4  Rx       50F  8  1C 71 43 DB 9D 2D E2 4F 
   192)    20750.2  Rx       668  8  A3 36 81 CD 00 00 00 00 
   193)    20851.1  Rx        52  8  A3 9A F7 2B 3D 47 06 00 
   194)    20951.8  Rx       173  8  01 0A E8 65 00 00 00 00 
   195)    21052.1  Rx       130  8  F8 97 A8 6A C1 60 15 00 
   196)    21152.7  Rx       7CC  8  82 00 00 00 00 00 00 00 
   197)    21253.4  Rx       652  8  EF 72 EF 57 4E 28 00 00 
   198)    21454.1  Rx       235  8  9D 04 00 00 00 00 00 00 
   199)    21554.8  Rx  10000208  8  00 00 00 00 00 00 00 00 
   200)    21655.3  Rx       506  8  E0 A3 8D B9 5E C4 82 FA 
   201)    21756.1  Rx       130  8  96 ED 7A 2E 4C 4D 21 00 
   202)    21856.8  Rx       7D9  8  00 A0 70 6E 01 E0 D0 D4 
   203)    21957.3  Rx       12F  8  FC B6 A0 60 3A E6 D8 25 
   204)    22058.1  Rx       501  8  8A A2 A2 7F 9B CA 64 5F 
   205)    22158.9  Rx       19F  8  EE 39 57 CA AD 5A EA CA 
   206)    22259.8  Rx       153  8  3D 03 00 00 00 00 00 00 
   207)    22360.4  Rx       188  8  18 1C 9A 32 4E AC 50 4A 
   208)    22461.2  Rx  10000203  8  E4 3E 30 43 C2 06 38 63 
   209)    22562.0  Rx       130  8  5A CF A7 5F 99 A3 FE 00 
   210)    22662.3  Rx       641  8  00 28 ED C8 3B 1B 13 D7 
   211)    22763.3  Rx       361  8  A9 0A 8C AD F5 1D A2 00 
   212)    22863.9  Rx         4  8  FB 00 00 00 00 00 00 00 
   213)    22964.8  Rx       7DB  8  00 B2 F8 3F 5F 1D 9F 02 
   214)    23065.6  Rx       7DB  8  00 F8 AF DA B0 3B EE 9D 
   215)    23166.5  Rx  10000211  8  13 6F A0 71 87 5E 84 EC 
   216)    23267.2  Rx        51  8  AE 7A 00 00 8B F4 00 00 
   217)    23368.0  Rx       7D9  8  00 40 9F DA 96 C7 68 9C 
   218)    23468.7  Rx       674  8  EA 00 00 00 00 00 00 00 
   219)    23569.3  Rx       361  8  C1 20 33 19 D4 C9 3B 01 
   220)    23670.1  Rx  10000207  8  21 04 CE 56 29 15 F4 A3 
   221)    23770.9  Rx       12A  8  A1 A5 93 9E 18 DF 02 00 
   222)    23872.0  Rx       10C  8  89 2E C3 C5 08 00 00 00 
   223)    23973.1  Rx       236  8  44 F2 DF B4 A0 AF 99 40 
   224)    24073.6  Rx       310  8  3D 02 97 E9 00 00 00 00 
   225)    24174.5  Rx       644  8  5D 82 B8 AC E6 F1 78 EB 
   226)    24274.8  Rx  10000212  8  00 00 00 00 00 00 00 00 
   227)    24375.4  Rx       176  8  E7 80 DB 00 8A F5 3B 69 
   228)    24476.3  Rx       7CC  8  57 00 00 00 00 00 00 00 
   229)    24677.4  Rx         5  8  00 00 00 00 DD 00 00 00 
   230)    24778.1  Rx         6  8  80 6F 00 00 00 00 00 00 
   231)    24879.0  Rx       12C  8  71 46 87 72 36 E9 3B 0B 
   232)    24979.8  Rx       179  8  44 13 06 26 33 3A B9 92 
   233)    25080.5  Rx       240  8  DD 12 37 00 00 00 00 00 
   234)    25181.1  Rx       450  8  22 00 00 00 00 00 00 00 
   235)    25281.7  Rx        8E  8  9A 00 2E 29 00 00 00 00 
   236)    25482.8  Rx       235  8  DE 01 00 00 00 00 00 00 
   237)    25583.3  Rx       600  8  85 79 2D BF 1E 39 1F 2C 
   238)    25684.3  Rx        81  8  16 07 29 00 00 00 00 00 
   239)    25785.3  Rx       501  8  F9 95 1B 86 26 DB 5B 69 
   240)    25886.0  Rx       675  8  00 30 B2 4F AA 9E AE C0 
   241)    25986.7  Rx        8F  8  01 00 00 00 00 00 00 00 
   242)    26087.5  Rx       70F  8  00 F8 4B ED EC EA 8E E8 
   243)    26188.3  Rx       371  8  25 7F 00 00 00 00 00 00 
   244)    26289.1  Rx       500  8  E8 F8 9A C7 07 FF ED 5C 
   245)    26390.0  Rx       230  8  D4 32 85 A7 29 90 9B 83 
   246)    26490.8  Rx       502  8  3A 22 3E FB 9B 9C E3 68 
   247)    26591.4  Rx       600  8  11 B6 A0 2A 06 1D E4 0C 
   248)    26692.1  Rx       230  8  8D 5F BF BF 49 93 71 AB 
   249)    26793.0  Rx        51  8  E0 A1 00 00 46 F2 00 00 
   250)    26893.4  Rx       177  8  00 00 00 00 6B 26 3C 90 
   251)    26994.1  Rx       645  8  9B FC 05 61 37 43 00 00 
   252)    27094.8  Rx  10000204  8  38 31 C0 5D 38 31 CC 5B 
   253)    27295.8  Rx       361  8  7A 39 41 06 68 7E 25 00 
   254)    27396.7  Rx       236  8  D9 B6 23 04 EE 50 50 4C 
   255)    27598.0  Rx         1  8  00 00 00 00 64 00 00 00 
   256)    27699.0  Rx       12F  8  B9 4D DA 34 F3 38 AE AB 
   257)    27799.7  Rx         2  8  00 45 00 00 00 00 00 00 
   258)    28000.9  Rx       7C2  8  00 98 0F 9D E6 8F 24 77 
   259)    28101.4  Rx       674  8  F4 00 00 00 00 00 00 00 
   260)    28203.7  Rx       70F  8  00 C4 83 C4 6A 55 55 5C 
   261)    28304.3  Rx  10000203  8  38 18 4C 4F 32 05 F4 33 
   262)    28404.8  Rx       179  8  EE 22 4D 46 0E 84 3F EC 
   263)    28505.5  Rx       187  8  50 7B 24 E8 E7 13 30 00 
   264)    28606.1  Rx        8F  8  01 00 00 00 00 00 00 00 
   265)    28707.0  Rx       7D6  8  C5 00 00 00 00 00 00 00 
   266)    28807.9  Rx       12B  8  34 0D 80 02 A6 02 00 00 
   267)    28908.6  Rx       7D9  8  00 90 D9 4F DC 03 BB F9 
   268)    29009.6  Rx       177  8  00 00 00 00 D7 89 85 BA 
   269)    29110.2  Rx        80  8  62 7C 09 02 3E 12 0E 1A 
   270)    29210.8  Rx       506  8  C8 AC BD EA 1B 27 0F EF 
   271)    29311.6  Rx         7  8  00 00 00 00 80 12 00 00 
   272)    29412.6  Rx       502  8  96 35 11 C7 7A 2C AE 99 
   273)    29513.1  Rx       12D  8  11 42 63 6B 0E 99 82 CF 
   274)    29616.1  Rx  10000203  8  14 1E E8 1C 7E 09 04 10 
   275)    29717.0  Rx  10000209  4  C0 05 D9 01 
   276)    29817.8  Rx       7DB  8  00 72 10 2B 7B 9A B6 22 
   277)    29918.5  Rx       4CE  8  03 D3 00 00 00 00 00 00 
   278)    30019.2  Rx       62B  8  54 0A 00 00 6F 00 00 00 
   279)    30120.0  Rx       12E  8  0D C0 41 ED B4 4E EC EE 
   280)    30321.5  Rx         4  8  8E 00 00 00 00 00 00 00 
   281)    30422.5  Rx         6  8  80 1D 00 00 00 00 00 00 
   282)    30523.2  Rx       235  8  81 03 00 00 00 00 00 00 
   283)    30623.8  Rx       668  8  01 65 4C A0 00 00 00 00 
   284)    30724.3  Rx         1  8  00 00 00 00 69 00 00 00 
   285)    30825.0  Rx       62B  8  FD 04 00 00 AB 05 00 00 
   286)    30925.5  Rx       666  8  49 0D 72 D7 E9 04 FC 8E 
   287)    31026.3  Rx       505  8  2F E4 24 C9 77 93 79 DF 
   288)    31126.9  Rx       12C  8  B2 73 7A B1 AB 59 3D 17 
   289)    31227.8  Rx       50F  8  86 B3 4E 5D AA D0 8F 61 
   290)    31328.3  Rx       176  8  2A 6F 87 00 D1 26 93 8A 
   291)    31428.7  Rx         2  8  80 6D 00 00 00 00 00 00 
   292)    31529.6  Rx       650  8  16 D3 0C 40 00 00 00 00 
   293)    31630.2  Rx       12C  8  BE 9F 4A 5F FA 38 3F 10 
   294)    31730.8  Rx  10000204  8  50 14 5C 5D 38 18 6C 07 
   295)    31831.8  Rx       631  8  F2 45 77 37 82 93 71 CD 
   296)    31932.4  Rx       668  8  9C 48 9C EB 00 00 00 00 
   297)    32033.2  Rx       153  8  00 00 00 00 00 00 00 00 
   298)    32133.9  Rx         1  8  00 00 00 00 5C 00 00 00 
   299)    32234.8  Rx       157  8  59 21 A8 13 71 8A B7 D6 
   300)    32335.5  Rx       7CC  8  1D 00 00 00 00 00 00 00 
   301)    32436.6  Rx       230  8  EE 55 E2 04 12 A0 FE 92 
   302)    32537.4  Rx       642  8  9B D9 6D 76 B3 D5 F4 1B 
   303)    32638.4  Rx       674  8  C7 00 00 00 00 00 00 00 
   304)    32739.1  Rx       62B  8  39 0C 00 00 EC 08 00 00 
   305)    32840.0  Rx       170  8  4F 8D 74 9C 64 2F 2C 0C 
   306)    32940.5  Rx       176  8  D3 B5 C6 00 D0 A1 87 7E 
   307)    33041.4  Rx        A0  8  01 02 00 00 00 00 00 00 
   308)    33142.2  Rx        50  8  40 02 00 00 00 00 00 00 
   309)    33243.0  Rx       178  8  8E 2D E3 34 8E 62 58 F1 
   310)    33444.2  Rx       177  8  00 00 00 00 1C ED 25 41 
   311)    33645.2  Rx       361  8  46 EF 0C 0F 89 A7 B9 00 
   312)    33746.1  Rx  10000203  8  F4 1A 38 18 DA 02 40 51 
   313)    33846.7  Rx       50F  8  12 97 1F 21 37 DF 75 36 
   314)    33947.5  Rx         7  8  00 00 00 00 80 20 00 00 
   315)    34048.3  Rx  10000210  0   
   316)    34149.0  Rx       188  8  EC 58 E5 0C 28 A7 B2 41 
   317)    34249.7  Rx       507  8  EE FD 8F 88 40 4B 08 17 
   318)    34350.5  Rx       642  8  71 D5 73 91 3D 99 94 B2 
   319)    34451.5  Rx       64F  8  09 EA BA 91 46 E8 17 55 
   320)    34552.3  Rx       178  8  D2 19 A2 97 96 4D 1D 24 
   321)    34653.1  Rx         5  8  00 00 00 00 66 00 00 00 
   322)    34754.1  Rx       371  8  10 48 00 00 00 00 00 00 
   323)    34854.7  Rx        8F  8  00 00 00 00 00 00 00 00 
   324)    34955.4  Rx       371  8  55 7A 01 00 00 00 00 00 
   325)    35056.5  Rx       233  8  08 ED 26 23 06 F3 8D 50 
   326)    35157.2  Rx        91  8  9C 1B 7B 9A 00 00 00 00 
   327)    35358.2  Rx        50  8  04 03 00 00 00 00 00 00 
   328)    35459.1  Rx         5  8  00 00 00 00 42 00 00 00 
   329)    35559.9  Rx       50F  8  8A F5 E8 FE 3F A9 C3 EA 
   330)    35660.9  Rx         4  8  61 00 00 00 00 00 00 00 
   331)    35761.5  Rx        8E  8  35 25 24 86 00 00 00 00 
   332)    35862.0  Rx       650  8  1A B0 CB BD 00 00 00 00 
   333)    35962.5  Rx       500  8  27 28 78 F9 35 6B E0 B0 
   334)    36063.0  Rx       506  8  DA 44 C0 47 BE 56 C9 FE 
   335)    36163.9  Rx       506  8  F5 89 CB 33 64 C5 4F A9 
   336)    36264.7  Rx       50A  8  2F 18 3B 2A 3C 07 00 00 
   337)    36365.3  Rx       175  8  BC B5 72 80 7E 1B 00 00 
   338)    36465.9  Rx         0  8  88 00 00 00 00 00 00 00 
   339)    36566.5  Rx       50A  8  3A 67 C8 77 47 04 00 00 
   340)    36667.5  Rx         5  8  00 00 00 00 04 00 00 00 
   341)    36768.1  Rx       506  8  F0 12 2D C6 15 0F 83 32 
   342)    36868.7  Rx  10000207  8  7F 56 08 75 74 11 FD 1E 
   343)    36969.3  Rx       10B  8  01 0F 1A 00 00 00 00 00 
   344)    37069.8  Rx         3  8  00 00 00 00 00 03 00 00 
   345)    37170.3  Rx       178  8  BC 8F E1 4A 3F 51 8E D2 
   346)    37271.2  Rx       10C  8  8C 1E 03 AF 00 00 00 00 
   347)    37371.8  Rx  10000211  8  79 82 BE 7E 86 B9 58 98 
   348)    37472.5  Rx       178  8  BE C7 F9 8E 48 14 14 D4 
   349)    37573.0  Rx       7D9  8  00 9A B3 4B 74 00 F8 2D 
   350)    37674.0  Rx       7B4  8  E1 00 00 00 00 00 00 00 
   351)    37775.2  Rx       235  8  2F 02 00 00 00 00 00 00 
   352)    37875.8  Rx       651  8  E1 A2 03 8D 98 00 00 00 
   353)    37976.6  Rx       176  8  F6 5E 41 00 F1 C0 1D F3 
   354)    38077.1  Rx   8192A3B  1  20 
   355)    38177.8  Rx       642  8  62 4C F5 D9 0A 2E DF 2A 
   356)    38278.3  Rx        91  8  45 A7 3F 95 00 00 00 00 
   357)    38379.0  Rx  10000203  8  54 56 54 24 98 08 54 24 
   358)    38479.9  Rx       10A  8  44 9C 5E AC 1C 21 1E 0D 
   359)    38580.5  Rx       10B  8  0F 07 1B 00 00 00 00 00 
   360)    38681.4  Rx        8F  8  01 00 00 00 00 00 00 00 
   361)    38782.3  Rx       65B  8  53 08 00 00 F9 0D 00 00 
   362)    38882.9  Rx       509  8  24 14 8A F9 00 00 00 00 
   363)    38983.8  Rx        51  8  91 C9 00 00 22 55 00 00 
   364)    39085.2  Rx       361  8  F0 98 48 07 31 8F 60 00 
   365)    39185.7  Rx       12C  8  16 E0 90 F1 EC 72 26 37 
   366)    39286.4  Rx       600  8  BD 42 E8 5C 03 A6 C2 5C 
   367)    39387.2  Rx       70F  8  00 50 61 6C EF 00 68 D4 
   368)    39487.9  Rx        A0  8  02 04 00 00 00 00 00 00 
   369)    39588.8  Rx       507  8  71 E9 97 84 BC D2 1B 69 
   370)    39690.1  Rx       188  8  2D 78 EF CF 86 84 1F EA 
   371)    39790.6  Rx       64B  8  23 06 00 00 2E 03 00 00 
   372)    39891.6  Rx        50  8  5D 02 00 00 00 00 00 00 
   373)    39992.7  Rx        50  8  7C 00 00 00 00 00 00 00 
   374)    40093.2  Rx       7D7  8  80 48 11 AD 02 57 06 0B 
   375)    40193.9  Rx       187  8  A1 75 C4 3B 52 BA 2A 00 
   376)    40395.3  Rx       652  8  E0 6F 4C 62 5F F9 00 00 
   377)    40495.9  Rx       10A  8  47 F2 E1 52 15 B6 49 0C 
   378)    40596.6  Rx       230  8  46 B0 FC 68 20 04 D0 83 
   379)    40697.2  Rx       234  8  13 07 10 17 00 00 00 00 
   380)    40798.0  Rx         0  8  FE 00 00 00 00 00 00 00 
   381)    40898.6  Rx       500  8  74 4B 01 50 E2 9A F9 BA 
   382)    40999.2  Rx       600  8  AE 8E 0F 13 5E 3E BC 56 
   383)    41200.7  Rx       600  8  89 26 1E 29 55 69 8F 44 
   384)    41301.5  Rx         0  8  28 00 00 00 00 00 00 00 
   385)    41402.1  Rx       341  8  06 A8 6E 70 10 6F 36 00 
   386)    41502.8  Rx       12C  8  1B 72 00 B4 0F 61 05 3E 
   387)    41603.6  Rx  10000207  8  E4 16 54 04 54 DE DE 52 
   388)    41805.0  Rx       7D6  8  EC 00 00 00 00 00 00 00 
   389)    41905.9  Rx       64F  8  08 6E 8F EF B7 D7 8C 6D 
   390)    42006.5  Rx       236  8  A3 88 47 4F 4B C7 3C 51 
   391)    42107.2  Rx       7D7  8  00 B0 08 A9 80 9F 1D 34 
   392)    42207.7  Rx       130  8  33 AB 13 0D DD B2 8C 00 
   393)    42408.9  Rx       236  8  B1 5B 05 09 E0 A8 6D 94 
   394)    42509.7  Rx       179  8  C1 E9 9A 81 02 79 23 5A 
   395)    42610.3  Rx       62B  8  A1 01 00 00 1E 09 00 00 
   396)    42710.7  Rx       173  8  01 36 6F B8 00 00 00 00 
   397)    42811.2  Rx       235  8  29 02 00 00 00 00 00 00 
   398)    42911.7  Rx       153  8  03 02 00 00 00 00 00 00 
   399)    43012.5  Rx        8F  8  00 00 00 00 00 00 00 00 
   400)    43113.1  Rx       642  8  E6 41 7F 0A 0A BB 56 06 
   401)    43213.8  Rx       7D6  8  4B 00 00 00 00 00 00 00 
   402)    43314.5  Rx       675  8  00 88 B2 E0 04 7C 7F 4A 
   403)    43415.3  Rx       674  8  FC 00 00 00 00 00 00 00 
   404)    43516.1  Rx       178  8  7C 97 A7 EE 53 58 37 BA 
   405)    43616.8  Rx       680  8  01 00 00 00 00 00 00 00 
   406)    43717.8  Rx       235  8  E9 00 00 00 00 00 00 00 
   407)    44019.9  Rx         4  8  78 00 00 00 00 00 00 00 
   408)    44120.4  Rx       652  8  58 82 84 22 1B 9D 00 00 
   409)    44221.6  Rx       651  8  56 72 8A 83 5F 00 00 00 
   410)    44322.5  Rx       12F  8  76 DB F1 39 03 34 EC 1F 
   411)    44423.3  Rx       642  8  DF F3 F0 DC 5D 47 1B 7D 
   412)    44524.1  Rx       501  8  4A E4 2E BF AB 73 95 F6 
   413)    44624.8  Rx       7DB  8  00 F0 E4 8D 4C 08 C8 F9 
   414)    44725.2  Rx       12D  8  BA EE EF 1B D8 AA 30 17 
   415)    44825.9  Rx        52  8  1E 31 AD CC A0 FF 1A 00 
   416)    44926.2  Rx        52  8  7A 81 C2 B9 F0 BC 19 00 
   417)    45027.2  Rx       341  8  1D B6 BB 4A 7E 44 2A 00 
   418)    45128.2  Rx        50  8  EB 00 00 00 00 00 00 00 
   419)    45229.1  Rx       12D  8  6A C7 10 B3 52 E7 01 F3 
   420)    45430.6  Rx       642  8  AE 8C 65 BD 52 DE 4C 41 
   421)    45531.4  Rx         3  8  00 00 00 00 80 39 00 00 
   422)    45732.4  Rx       12D  8  E1 7E BD 6D A8 30 92 34 
   423)    45833.0  Rx        91  8  22 2F F2 63 00 00 00 00 
   424)    45933.7  Rx       187  8  1B E3 84 AB 96 EB 7F 00 
   425)    46034.5  Rx       668  8  F1 B9 B4 67 00 00 00 00 
   426)    46135.4  Rx       64B  8  CE 03 00 00 AC 06 00 00 
   427)    46236.3  Rx       505  8  E6 9A 76 65 5A C1 9E E2 
   428)    46337.0  Rx  10000208  8  00 00 00 00 00 00 00 00 
   429)    46438.0  Rx       175  8  E4 BF 30 12 B4 06 00 00 
   430)    46539.1  Rx        80  8  D2 29 12 02 99 1A 1A 02 
