;$FILEVERSION=1.1
;$STARTTIME=46001.9419382705
;
;   Start time: 10-12-2025 22:36:23.466
;   Generated by AtomX
;
;   Message Number
;   |         Time Offset (ms)
;   |         |        Type
;   |         |        |        ID (hex)
;   |         |        |        |     Data Length
;   |         |        |        |     |   Data Bytes (hex) ...
;   |         |        |        |     |   |
;---+--   ----+----  --+--  ----+---  +  -+ -- -- -- -- -- -- --
     1)        0.0  Rx       7DA  8  00 E8 F2 DE 97 09 37 53 
     2)      101.2  Rx       507  8  6F 7F F4 1F C6 FB 5C C7 
     3)      202.9  Rx  10000203  8  E4 3E 94 5C E4 07 30 11 
     4)      303.8  Rx       12F  8  7C EC 30 AA 45 6E 05 B4 
     5)      404.6  Rx       65B  8  F2 0E 00 00 91 0F 00 00 
     6)      505.2  Rx       12E  8  CC 7F 2C 29 40 CC 44 DC 
     7)      605.7  Rx       10C  8  58 03 36 1B 0E 00 00 00 
     8)      806.9  Rx       680  8  02 00 00 00 00 00 00 00 
     9)     1007.8  Rx       651  8  91 D0 4E 91 79 00 00 00 
    10)     1108.2  Rx       177  8  00 00 00 00 30 48 6D BE 
    11)     1208.6  Rx        8E  8  D3 3D 2C 24 00 00 00 00 
    12)     1309.1  Rx       310  8  32 01 A1 C4 00 00 00 00 
    13)     1409.8  Rx       7C5  8  00 C2 1C 04 A1 93 61 2E 
    14)     1613.7  Rx       10A  8  DF AC C8 89 91 08 39 04 
    15)     1714.6  Rx       19F  8  F0 62 8A 0A F4 ED 91 FC 
    16)     1815.3  Rx       674  8  34 00 00 00 00 00 00 00 
    17)     1915.8  Rx  10000207  8  BB DC B4 DE 71 7B F4 2F 
    18)     2016.6  Rx  10000208  8  00 00 00 00 00 00 00 00 
    19)     2117.4  Rx       7D7  8  00 F0 19 2B 2B 4D A4 EF 
    20)     2218.1  Rx       12B  8  5E 05 37 17 22 03 00 00 
    21)     2319.0  Rx       501  8  24 E9 2F 72 E9 12 93 16 
    22)     2419.8  Rx       7D8  8  00 58 86 58 EF 30 6E 89 
    23)     2520.3  Rx        52  8  81 33 FD 9F 7B 56 1E 00 
    24)     2621.1  Rx       508  8  5D 74 83 1D 3F 70 DD 9E 
    25)     2722.0  Rx       7C5  8  00 2C 85 05 2F 7E AA 66 
    26)     2822.9  Rx       361  8  A1 41 3E 6F C2 67 A4 00 
    27)     2923.4  Rx       240  8  D6 54 81 00 00 00 00 00 
    28)     3023.9  Rx       12E  8  6C 6E D6 02 3C 84 CF 78 
    29)     3124.4  Rx       508  8  28 CF 7D 16 A7 13 3B BD 
    30)     3225.2  Rx       234  8  0D 14 04 07 00 00 00 00 
    31)     3325.8  Rx        81  8  25 25 54 00 00 00 00 00 
    32)     3426.4  Rx        51  8  B7 72 00 00 39 3E 00 00 
    33)     3526.9  Rx       7D6  8  C1 00 00 00 00 00 00 00 
    34)     3627.6  Rx       631  8  9A D1 7B F0 22 57 91 3B 
    35)     3728.2  Rx       70F  8  00 AE C2 57 29 AC 09 27 
    36)     3928.9  Rx       70F  8  00 68 51 93 75 FA 45 F4 
    37)     4029.4  Rx       652  8  94 BA 69 F1 28 F5 00 00 
    38)     4129.9  Rx       154  8  EA 2B 03 13 11 64 00 00 
    39)     4230.2  Rx        A0  8  02 02 00 00 00 00 00 00 
    40)     4330.9  Rx       179  8  12 D1 A0 7A 2F 42 43 32 
    41)     4431.7  Rx       650  8  1B 90 4D EA 00 00 00 00 
    42)     4532.4  Rx       341  8  4F 56 7B 5B 1E 99 3B 00 
    43)     4632.9  Rx       4CE  8  02 5B 00 00 00 00 00 00 
    44)     4733.5  Rx       7DA  8  00 00 C1 C1 FD D4 C3 FF 
    45)     4834.1  Rx       10C  8  B7 27 AF C0 0B 00 00 00 
    46)     4934.9  Rx       502  8  73 A3 F6 55 26 31 37 77 
    47)     5035.7  Rx       234  8  11 13 1E 1D 00 00 00 00 
    48)     5136.6  Rx  10000209  4  80 C3 C9 01 
    49)     5237.4  Rx        52  8  02 0A 87 1C 9A AA 17 00 
    50)     5338.1  Rx       641  8  00 E4 21 24 B5 86 54 64 
    51)     5438.5  Rx       450  8  E1 00 00 00 00 00 00 00 
    52)     5539.3  Rx        A0  8  01 02 00 00 00 00 00 00 
    53)     5640.0  Rx       10A  8  83 A3 DA B9 06 9B 54 15 
    54)     5740.6  Rx       64B  8  ED 02 00 00 05 06 00 00 
    55)     5841.1  Rx        81  8  15 22 39 00 00 00 00 00 
    56)     5941.7  Rx        A0  8  03 03 00 00 00 00 00 00 
    57)     6042.1  Rx        A0  8  02 03 00 00 00 00 00 00 
    58)     6142.9  Rx       154  8  20 B8 2A 22 2D D3 00 00 
    59)     6244.0  Rx         1  8  00 00 00 00 6F 00 00 00 
    60)     6344.5  Rx       652  8  93 E3 22 DB 52 DA 00 00 
    61)     6445.4  Rx       50E  8  70 78 D5 1E 00 00 00 00 
    62)     6546.3  Rx       233  8  0C 14 1D 18 80 B0 06 18 
    63)     6647.0  Rx         0  8  5B 00 00 00 00 00 00 00 
    64)     6747.7  Rx       7DB  8  00 10 3E D3 73 EB D8 E3 
    65)     6848.2  Rx       7C5  8  80 0E C7 F3 CC DD 69 08 
    66)     6948.7  Rx       4CE  8  02 2E 00 00 00 00 00 00 
    67)     7049.6  Rx       235  8  42 02 00 00 00 00 00 00 
    68)     7150.5  Rx       12B  8  6E 0F B0 03 47 01 00 00 
    69)     7251.4  Rx        A0  8  03 06 00 00 00 00 00 00 
    70)     7352.0  Rx       674  8  44 00 00 00 00 00 00 00 
    71)     7452.7  Rx         1  8  00 00 00 00 93 00 00 00 
    72)     7553.1  Rx       642  8  9D C7 D8 A9 65 A0 04 11 
    73)     7653.7  Rx         3  8  00 00 00 00 80 1E 00 00 
    74)     7754.6  Rx        A0  8  01 01 00 00 00 00 00 00 
    75)     7855.1  Rx        50  8  E1 00 00 00 00 00 00 00 
    76)     7955.6  Rx       7D7  8  00 B0 68 70 80 17 F2 C2 
    77)     8056.3  Rx       177  8  00 00 00 00 05 7F 6A 10 
    78)     8157.0  Rx       12A  8  6D 35 E8 A4 BE C6 01 00 
    79)     8358.5  Rx  10000201  8  F1 9C 43 B9 DE 00 94 00 
    80)     8459.3  Rx       650  8  05 64 36 0B 00 00 00 00 
    81)     8559.9  Rx  10000208  8  00 00 00 00 00 00 00 00 
    82)     8660.8  Rx       12C  8  F1 19 B3 62 E3 9C 37 3A 
    83)     8761.3  Rx       240  8  81 83 7E 00 00 00 00 00 
    84)     8862.0  Rx       65B  8  10 04 00 00 98 02 00 00 
    85)     8962.8  Rx       600  8  D9 F8 0B 2C 02 E2 1F 36 
    86)     9063.7  Rx       501  8  D6 D7 47 B8 3C 1F A2 69 
    87)     9164.7  Rx       240  8  FC 89 80 00 00 00 00 00 
    88)     9265.2  Rx       631  8  DD 00 59 5C BD AE 9C 36 
    89)     9366.2  Rx       157  8  23 AF A7 6E 96 1E 81 F2 
    90)     9467.5  Rx  10000203  8  30 43 30 43 C2 06 AC 0D 
    91)     9568.1  Rx        A0  8  01 02 00 00 00 00 00 00 
    92)     9668.8  Rx        52  8  CB FB 8B 1B 1E EC 0A 00 
    93)     9769.5  Rx       157  8  02 18 BD 4F 35 CE 16 D4 
    94)     9870.0  Rx       4CD  8  57 40 E1 44 0D BB 95 C5 
    95)     9970.8  Rx        8F  8  01 00 00 00 00 00 00 00 
    96)    10071.5  Rx       178  8  71 C9 EB 3D AA 2F A5 DE 
    97)    10273.1  Rx         2  8  00 4F 00 00 00 00 00 00 
    98)    10373.5  Rx  10000208  8  00 00 00 00 00 00 00 00 
    99)    10474.3  Rx       50F  8  F7 98 D4 0A 17 C0 F7 24 
   100)    10574.8  Rx       500  8  54 BF 57 6A 51 F2 31 B5 
   101)    10675.6  Rx  10000207  8  9B C3 39 C8 93 5A 51 26 
   102)    10776.5  Rx       651  8  A6 D6 F8 DF 2C 00 00 00 
   103)    10877.3  Rx       507  8  00 92 1B 66 F0 80 D5 99 
   104)    10978.1  Rx       341  8  FD 16 67 54 6A BA 32 00 
   105)    11078.7  Rx       341  8  1C 90 0E 20 36 FE 1D 00 
   106)    11179.5  Rx       450  8  41 00 00 00 00 00 00 00 
   107)    11279.9  Rx       310  8  BC 01 E9 03 00 00 00 00 
   108)    11380.8  Rx       233  8  14 98 53 6D 0C 4F C8 54 
   109)    11481.8  Rx  10000207  8  38 C4 2D C8 14 6D 39 13 
   110)    11682.9  Rx       450  8  0D 00 00 00 00 00 00 00 
   111)    11783.7  Rx       64F  8  D6 E5 22 A7 D9 54 BF 2F 
   112)    11884.2  Rx       500  8  F4 89 61 D4 12 D3 40 C3 
   113)    11985.1  Rx       7D9  8  00 64 D0 BF AA 43 B9 66 
   114)    12085.6  Rx       502  8  A7 BD AB 2F EE 39 01 A5 
   115)    12186.1  Rx  10000209  4  C0 1C 3D 09 
   116)    12286.6  Rx       12C  8  B1 E4 EB 9A CA 76 21 30 
   117)    12387.2  Rx       4CE  8  07 A5 00 00 00 00 00 00 
   118)    12487.8  Rx       64F  8  9C 1D F2 BE 4A 99 2A A9 
   119)    12588.9  Rx       341  8  1B 4A FF 51 7A A1 1E 00 
   120)    12689.7  Rx        50  8  CA 02 00 00 00 00 00 00 
   121)    12790.6  Rx       50A  8  52 48 A4 B7 AF 07 00 00 
   122)    12891.6  Rx         2  8  00 06 00 00 00 00 00 00 
   123)    12992.5  Rx       177  8  00 00 00 00 92 E6 7F FE 
   124)    13093.5  Rx       361  8  C6 0F 6B FD 0B 5A 87 01 
   125)    13194.0  Rx       64B  8  E3 0E 00 00 E0 05 00 00 
   126)    13294.6  Rx         2  8  00 48 00 00 00 00 00 00 
   127)    13395.0  Rx       680  8  01 00 00 00 00 00 00 00 
   128)    13495.8  Rx       450  8  23 00 00 00 00 00 00 00 
   129)    13596.4  Rx       12D  8  65 1F 2B D1 06 5B C4 B0 
   130)    13697.1  Rx       644  8  CC 70 D9 09 88 2C EF D0 
   131)    13798.1  Rx       153  8  C2 00 00 00 00 00 00 00 
   132)    13898.7  Rx       12A  8  2D 24 6A 9D 17 A9 02 00 
   133)    13999.2  Rx       10A  8  46 99 E0 A5 2C A9 66 14 
   134)    14099.8  Rx         1  8  00 00 00 00 77 00 00 00 
   135)    14200.4  Rx       371  8  F3 89 01 00 00 00 00 00 
   136)    14300.9  Rx       153  8  62 02 00 00 00 00 00 00 
   137)    14401.6  Rx       154  8  EE 24 7A 32 00 9F 00 00 
   138)    14602.8  Rx  10000207  8  1F 29 92 8E C2 F1 61 2E 
   139)    14703.2  Rx        A0  8  00 01 00 00 00 00 00 00 
   140)    14803.6  Rx  10000201  8  EA 4F A7 CF D8 00 89 00 
   141)    14904.5  Rx       7D9  8  00 5B 60 12 58 A1 AF 18 
   142)    15005.6  Rx       175  8  CC 32 E3 1D 65 46 00 00 
   143)    15106.1  Rx  10000203  8  D8 59 F0 3C 00 05 E8 1C 
   144)    15207.1  Rx  10000211  8  2B 72 27 93 2E B6 E0 5B 
   145)    15307.9  Rx       233  8  D8 31 E9 0F 0C C4 E7 2F 
   146)    15408.2  Rx  10000204  8  8C 0A BC 1B AC 0D A8 2F 
   147)    15508.5  Rx  10000207  8  6D EB 33 0F 56 77 9D 1F 
   148)    15710.0  Rx       7D6  8  CE 00 00 00 00 00 00 00 
   149)    15810.8  Rx       153  8  50 03 00 00 00 00 00 00 
   150)    15911.5  Rx       508  8  D2 96 56 10 7E 1B 28 88 
   151)    16012.0  Rx       12C  8  70 48 2A 26 0D 25 37 06 
   152)    16112.7  Rx       651  8  43 C5 F1 21 AE 00 00 00 
   153)    16213.8  Rx       680  8  01 00 00 00 00 00 00 00 
   154)    16314.3  Rx       177  8  00 00 00 00 31 E4 1D 91 
   155)    16415.1  Rx       12B  8  34 0E F0 0E B7 03 00 00 
   156)    16518.2  Rx       666  8  1B 0D BC FC EA A3 C6 22 
   157)    16618.7  Rx       230  8  CB 18 5D 19 8F ED F9 7C 
   158)    16719.4  Rx       7D8  8  00 D0 78 6B E7 C9 C8 B2 
   159)    16820.1  Rx        91  8  73 DB B7 91 00 00 00 00 
   160)    16920.6  Rx       506  8  1E 15 C1 08 BC 01 95 11 
   161)    17021.1  Rx       668  8  7B 81 68 4D 00 00 00 00 
   162)    17121.6  Rx       341  8  F5 33 30 3C 40 C9 3B 00 
   163)    17222.4  Rx       178  8  AF 9D BC F8 56 E5 0B 0B 
   164)    17322.9  Rx       233  8  A4 41 5D 25 7A CC 77 82 
   165)    17423.5  Rx  10000208  8  00 00 00 00 00 00 00 00 
   166)    17523.9  Rx       65B  8  BD 00 00 00 74 07 00 00 
   167)    17625.0  Rx       233  8  D5 5D 68 42 E1 4C 78 DF 
   168)    17725.7  Rx       505  8  F3 96 9A E3 53 7D D5 E0 
   169)    17826.2  Rx        A0  8  00 05 00 00 00 00 00 00 
   170)    17927.0  Rx       644  8  54 D3 82 B4 F4 D3 E5 97 
   171)    18027.9  Rx       644  8  92 99 E1 2B 7D 6D F1 9A 
   172)    18128.7  Rx         3  8  00 00 00 00 00 28 00 00 
   173)    18229.5  Rx       650  8  00 E6 DA 0C 00 00 00 00 
   174)    18330.3  Rx       4CD  8  B9 6C 5C B6 7A 50 EC F5 
   175)    18431.1  Rx       234  8  16 10 19 15 00 00 00 00 
   176)    18531.5  Rx       600  8  CE 8E EA 32 4E FB 94 6D 
   177)    18632.5  Rx       341  8  F2 65 92 35 7A 46 01 00 
   178)    18834.1  Rx       12E  8  36 15 06 BF 59 13 2C 39 
   179)    18934.8  Rx        8E  8  2D 78 26 A4 00 00 00 00 
   180)    19035.6  Rx       7DB  8  80 68 BA D6 73 81 6A 0B 
   181)    19136.1  Rx       506  8  53 53 D8 B3 BE 94 67 CD 
   182)    19236.9  Rx       236  8  D2 44 00 93 A9 AC ED 2B 
   183)    19337.7  Rx       371  8  5F 4B 00 00 00 00 00 00 
   184)    19438.6  Rx       64F  8  47 6F 1B 35 29 E8 75 44 
   185)    19543.2  Rx       234  8  0B 13 0C 05 00 00 00 00 
   186)    19644.0  Rx       188  8  8D 80 D4 35 E5 D3 D3 38 
   187)    19744.8  Rx        81  8  54 01 3E 00 00 00 00 00 
   188)    19845.9  Rx         4  8  7D 00 00 00 00 00 00 00 
   189)    19946.7  Rx       503  8  FA F0 18 80 98 7B 03 5A 
   190)    20047.1  Rx       175  8  09 97 96 E6 6A 67 00 00 
   191)    20147.9  Rx       62B  8  72 08 00 00 25 08 00 00 
   192)    20248.3  Rx        50  8  95 03 00 00 00 00 00 00 
   193)    20349.0  Rx  10000201  8  18 25 F3 DF 01 00 F3 00 
   194)    20449.9  Rx  10000204  8  30 11 28 23 F4 01 44 16 
   195)    20550.9  Rx       50A  8  5D 42 8B E7 51 06 00 00 
   196)    20651.5  Rx       631  8  64 AE 2C 8B 95 A1 F0 7F 
   197)    20752.1  Rx         2  8  80 02 00 00 00 00 00 00 
   198)    20852.4  Rx  10000208  8  00 00 00 00 00 00 00 00 
   199)    20952.8  Rx       675  8  00 08 36 F7 93 AD 8A A1 
   200)    21053.4  Rx       650  8  01 55 4F 70 00 00 00 00 
   201)    21153.9  Rx       240  8  27 C5 D1 00 00 00 00 00 
   202)    21255.0  Rx       501  8  DD 4C 00 B6 BF 87 90 D0 
   203)    21355.4  Rx        A0  8  02 02 00 00 00 00 00 00 
   204)    21456.4  Rx       508  8  85 01 43 1E 05 16 89 3E 
   205)    21557.1  Rx       674  8  6D 00 00 00 00 00 00 00 
   206)    21657.9  Rx       644  8  26 FA F8 6E A1 47 8D 0D 
   207)    21758.5  Rx       508  8  69 F6 FD 10 16 88 20 A4 
   208)    21859.5  Rx         2  8  00 55 00 00 00 00 00 00 
   209)    21960.0  Rx       509  8  B4 20 55 1A 03 00 00 00 
   210)    22060.7  Rx       62B  8  1C 00 00 00 E0 08 00 00 
   211)    22161.6  Rx       12B  8  2D 01 F7 11 8B 02 00 00 
   212)    22262.0  Rx  10000211  8  2D B3 DE 7B 32 C7 5B E4 
   213)    22362.7  Rx       50A  8  3D 38 7E E9 E2 01 00 00 
   214)    22463.4  Rx       10A  8  92 11 3A 77 A2 A2 26 18 
   215)    22564.0  Rx       675  8  00 F0 B4 9C 6F ED AA 76 
   216)    22765.9  Rx       680  8  00 00 00 00 00 00 00 00 
   217)    22866.5  Rx       361  8  70 07 86 ED A5 47 D4 00 
   218)    22967.1  Rx       7D9  8  00 48 A8 AD 0F 7B 12 D2 
   219)    23067.9  Rx       188  8  5A 8A E3 93 49 21 0E 0C 
   220)    23168.5  Rx       234  8  0D 1E 09 14 00 00 00 00 
   221)    23269.1  Rx       240  8  0D F3 2F 00 00 00 00 00 
   222)    23369.7  Rx       173  8  01 8E 22 68 00 00 00 00 
   223)    23470.5  Rx  10000207  8  AC 80 80 15 5F 4D 96 1F 
   224)    23571.1  Rx       177  8  00 00 00 00 9F 35 76 4A 
   225)    23671.7  Rx       641  8  00 F0 21 F8 D8 20 0D A3 
   226)    23772.4  Rx       240  8  D1 8B 68 00 00 00 00 00 
   227)    23872.9  Rx       507  8  29 12 62 14 66 67 AC A0 
   228)    24074.1  Rx       7C5  8  00 44 E6 78 27 29 CC 4E 
   229)    24174.7  Rx       12B  8  C7 0D 93 06 EF 03 00 00 
   230)    24275.1  Rx       187  8  BC B0 79 8A 72 9B 30 00 
   231)    24375.8  Rx       10A  8  C3 0F B9 27 A4 26 34 19 
   232)    24476.7  Rx       170  8  26 15 C9 25 EF DC DA 5D 
   233)    24577.3  Rx       12A  8  41 34 E9 A5 E9 02 01 00 
   234)    24678.1  Rx       175  8  AB 1E 91 5A 2B CD 00 00 
   235)    24778.6  Rx        81  8  26 37 6A 00 00 00 00 00 
   236)    24879.3  Rx        A0  8  03 00 00 00 00 00 00 00 
   237)    24979.8  Rx       188  8  55 23 42 19 D6 64 87 B4 
   238)    25080.3  Rx        81  8  6E 35 29 00 00 00 00 00 
   239)    25180.7  Rx       170  8  EE 19 CC 63 5E DD 70 1D 
   240)    25281.5  Rx       7C2  8  00 22 C4 AC 86 4F A2 2E 
   241)    25483.0  Rx       233  8  48 0B 72 08 F1 A2 D2 D2 
   242)    25583.6  Rx        52  8  64 7E 3C 7E 42 71 19 00 
   243)    25684.2  Rx       10C  8  5F 27 00 FB 0B 00 00 00 
   244)    25784.9  Rx       50F  8  53 70 78 6F 3C F8 35 2F 
   245)    25885.2  Rx       600  8  39 DC 37 A9 0D 52 95 8B 
   246)    25985.7  Rx       64B  8  58 04 00 00 6A 0D 00 00 
   247)    26086.3  Rx       12A  8  AB C7 89 CE A8 C2 00 00 
   248)    26287.8  Rx  10000210  0   
   249)    26488.9  Rx  10000203  8  10 40 C8 4B 58 07 D8 59 
   250)    26589.7  Rx       10A  8  82 F0 97 E0 9E 19 62 1D 
   251)    26790.9  Rx       641  8  00 8B DA 64 1E 4A 7F 19 
   252)    26992.4  Rx       450  8  92 00 00 00 00 00 00 00 
   253)    27093.0  Rx       10C  8  3E 2B 31 0C 0B 00 00 00 
   254)    27193.5  Rx       176  8  17 D0 4A 00 05 A6 12 6B 
   255)    27394.2  Rx       65B  8  1A 04 00 00 BC 0B 00 00 
   256)    27495.1  Rx       7DA  8  00 80 5A C8 2E 66 EA E2 
   257)    27595.7  Rx       70F  8  00 D4 50 AD 8A 1D 27 6F 
   258)    27696.3  Rx       64B  8  FB 01 00 00 0F 0B 00 00 
   259)    27797.2  Rx       153  8  C9 02 00 00 00 00 00 00 
   260)    27897.8  Rx       12D  8  C0 DE E6 CD 16 6D 53 C3 
   261)    27998.5  Rx       652  8  5F 40 53 AF FD B2 00 00 
   262)    28099.3  Rx       19F  8  E2 7F 14 81 07 30 2B EF 
   263)    28199.6  Rx         7  8  00 00 00 00 80 7D 00 00 
   264)    28300.1  Rx         6  8  80 7D 00 00 00 00 00 00 
   265)    28400.8  Rx       501  8  A6 9D 97 C1 A4 01 EC FC 
   266)    28501.6  Rx         4  8  CF 00 00 00 00 00 00 00 
   267)    28602.1  Rx       7B4  8  35 00 00 00 00 00 00 00 
   268)    28702.4  Rx  10000210  0   
   269)    28802.9  Rx       7C5  8  00 E8 BD 60 FB 27 5F 8C 
   270)    28903.3  Rx       7DB  8  00 58 DD 10 A9 0B 79 68 
   271)    29004.0  Rx       70F  8  00 10 1F 3E 3F 43 74 D7 
   272)    29104.9  Rx       7C5  8  00 F8 5F EF C2 BC 83 93 
   273)    29205.5  Rx       64B  8  AA 08 00 00 89 08 00 00 
   274)    29306.0  Rx       64F  8  85 C2 CC 70 38 A1 F3 A3 
   275)    29406.8  Rx       650  8  10 BC 2A B0 00 00 00 00 
   276)    29507.2  Rx       7D7  8  00 A0 7E 2F DD 9F B3 99 
   277)    29608.4  Rx       10A  8  9C 21 42 65 8B 8F 56 0D 
   278)    29708.9  Rx       644  8  55 0B 2C 3E 25 C5 EA F9 
   279)    29809.4  Rx       173  8  00 12 E1 33 00 00 00 00 
   280)    29910.2  Rx       170  8  60 1D 52 2B B4 D5 C4 E3 
   281)    30010.6  Rx         2  8  00 5D 00 00 00 00 00 00 
   282)    30111.5  Rx       644  8  BF FF EA 8C 73 5D D4 56 
   283)    30211.8  Rx       19F  8  40 D0 71 C5 31 13 C5 C1 
   284)    30312.4  Rx       12C  8  9D 3F 3C 83 C0 3F 36 36 
   285)    30413.3  Rx  10000201  8  01 F9 FC C8 E2 00 8F 00 
   286)    30514.0  Rx         7  8  00 00 00 00 00 30 00 00 
   287)    30614.8  Rx       668  8  A3 F5 57 31 00 00 00 00 
   288)    30715.4  Rx        52  8  10 18 CE D4 84 E1 17 00 
   289)    30816.3  Rx       502  8  B7 2F 24 CE 25 CC 34 23 
   290)    30916.8  Rx       668  8  1F 5B 2A FD 00 00 00 00 
   291)    31117.9  Rx       502  8  FB 6C 2A C0 01 D6 5D D5 
   292)    31218.5  Rx        52  8  57 0D D7 41 F8 05 12 00 
   293)    31319.2  Rx       631  8  5D D6 0C 27 7B D4 A5 A9 
   294)    31419.9  Rx         3  8  00 00 00 00 00 67 00 00 
   295)    31520.4  Rx       64B  8  1A 09 00 00 CD 08 00 00 
   296)    31620.9  Rx       7DA  8  00 37 34 E9 D9 4F 89 1E 
   297)    31721.8  Rx  10000208  8  00 00 00 00 00 00 00 00 
   298)    31822.3  Rx       4CD  8  54 9C F2 74 50 4F 23 A0 
   299)    31923.0  Rx       7C5  8  00 58 94 E8 8D 4E 2F AB 
   300)    32023.2  Rx       173  8  00 24 51 8E 00 00 00 00 
   301)    32123.9  Rx        51  8  23 59 00 00 60 27 00 00 
   302)    32224.7  Rx        91  8  17 31 25 B1 00 00 00 00 
   303)    32325.5  Rx       12E  8  43 2D 8D 3C 76 63 F7 EA 
   304)    32426.0  Rx       600  8  05 FA 02 68 80 04 99 5C 
   305)    32526.8  Rx       233  8  05 9E 1F 4A 96 A2 94 D7 
   306)    32627.4  Rx         3  8  00 00 00 00 00 53 00 00 
   307)    32728.0  Rx  10000201  8  53 A8 89 38 52 00 A3 00 
   308)    32828.4  Rx       187  8  67 2B 81 56 46 0E F5 00 
   309)    32929.3  Rx         3  8  00 00 00 00 00 34 00 00 
   310)    33030.0  Rx       675  8  00 28 BC 37 97 87 9C 82 
   311)    33231.1  Rx       631  8  3C 0E DC 2A 27 49 EC 47 
   312)    33331.9  Rx        50  8  B4 01 00 00 00 00 00 00 
   313)    33432.7  Rx       500  8  D2 96 B0 62 66 2E 38 A1 
   314)    33533.2  Rx       668  8  D0 C0 82 D0 00 00 00 00 
   315)    33633.6  Rx         3  8  00 00 00 00 00 1A 00 00 
   316)    33734.0  Rx       7DB  8  00 A0 C0 13 A7 2A 54 E4 
   317)    33834.7  Rx       650  8  01 42 49 16 00 00 00 00 
   318)    33935.4  Rx       235  8  C6 02 00 00 00 00 00 00 
   319)    34137.2  Rx       7DA  8  00 98 EF A7 8F 93 71 A2 
   320)    34237.8  Rx       652  8  41 34 C5 A8 8D 0E 00 00 
   321)    34338.2  Rx       234  8  11 17 01 0E 00 00 00 00 
   322)    34439.1  Rx       503  8  8B BF ED D5 7E 56 BE 3D 
   323)    34539.7  Rx        8E  8  FF 35 75 55 00 00 00 00 
   324)    34640.4  Rx       12E  8  58 FA C0 1A F4 4F CC 90 
   325)    34741.1  Rx       502  8  28 8B FE F3 47 95 16 39 
   326)    34842.1  Rx       645  8  D2 ED A6 A9 0B B9 00 00 
   327)    34942.8  Rx  10000207  8  CC 63 D0 D8 85 EA 52 9A 
   328)    35043.4  Rx       507  8  8E 9C 5A DA E5 5F 5C 13 
   329)    35143.9  Rx         1  8  00 00 00 00 54 00 00 00 
   330)    35244.7  Rx       12D  8  8C 95 97 0D 63 A9 26 85 
   331)    35345.1  Rx       341  8  DC 32 28 2C 56 77 3E 00 
   332)    35445.9  Rx       50A  8  FA A6 E1 5A 60 06 00 00 
   333)    35546.6  Rx       177  8  00 00 00 00 11 87 9D 22 
   334)    35647.2  Rx       4CE  8  00 52 00 00 00 00 00 00 
   335)    35848.4  Rx       12F  8  28 FE 65 EF 15 D8 97 0C 
   336)    35949.3  Rx        81  8  10 11 06 00 00 00 00 00 
   337)    36049.7  Rx       153  8  64 00 00 00 00 00 00 00 
   338)    36150.2  Rx       10B  8  02 17 00 00 00 00 00 00 
   339)    36351.1  Rx       644  8  CC 48 FF 4A 32 AA 03 E6 
   340)    36451.8  Rx       7CC  8  03 00 00 00 00 00 00 00 
   341)    36552.5  Rx       642  8  1D 88 05 7F DC 6F CB 88 
   342)    36653.1  Rx       310  8  F3 02 D8 B7 00 00 00 00 
   343)    36753.7  Rx       600  8  1C 91 46 35 4A D3 14 BD 
   344)    36854.2  Rx       503  8  06 00 F2 83 CE F4 2A 71 
   345)    36954.9  Rx         4  8  F8 00 00 00 00 00 00 00 
   346)    37156.1  Rx       154  8  56 9D 56 31 31 96 00 00 
   347)    37256.6  Rx       310  8  34 00 17 88 00 00 00 00 
   348)    37357.2  Rx       505  8  B6 FD 82 7D DE 5D B8 D7 
   349)    37458.0  Rx       50E  8  24 89 60 73 00 00 00 00 
   350)    37558.7  Rx        A0  8  02 00 00 00 00 00 00 00 
   351)    37659.6  Rx  10000207  8  8B A8 A3 2A 6A 49 DD 0D 
   352)    37760.4  Rx  10000208  8  00 00 00 00 00 00 00 00 
   353)    37861.1  Rx       503  8  B9 FA C6 88 80 18 6B 7A 
   354)    37961.6  Rx  10000204  8  A4 06 48 58 F4 01 2C 33 
   355)    38062.1  Rx       4CE  8  05 73 00 00 00 00 00 00 
   356)    38162.7  Rx       173  8  00 7C D9 1B 00 00 00 00 
   357)    38263.4  Rx       230  8  B8 C5 74 E2 96 81 35 91 
   358)    38363.8  Rx         4  8  CB 00 00 00 00 00 00 00 
   359)    38464.5  Rx       12D  8  C1 49 B8 D7 02 3B 90 79 
   360)    38565.0  Rx       7DA  8  00 58 13 C4 C2 41 47 BB 
   361)    38665.8  Rx       341  8  65 3B 2E 08 0C 79 3B 00 
   362)    38867.2  Rx       310  8  94 02 DF 35 00 00 00 00 
   363)    39068.4  Rx       173  8  01 A3 26 46 00 00 00 00 
   364)    39169.0  Rx        A0  8  01 05 00 00 00 00 00 00 
   365)    39269.5  Rx       179  8  97 01 41 F2 37 80 5F F5 
   366)    39370.4  Rx       7B4  8  BE 00 00 00 00 00 00 00 
   367)    39471.0  Rx       70F  8  00 00 27 22 24 80 79 EE 
   368)    39571.8  Rx         7  8  00 00 00 00 00 29 00 00 
   369)    39674.6  Rx       641  8  00 18 75 5D E8 67 62 BB 
   370)    39775.1  Rx       240  8  34 9D AC 00 00 00 00 00 
   371)    39875.9  Rx       173  8  01 D5 F3 F0 00 00 00 00 
   372)    39976.3  Rx       12E  8  4C 08 C4 30 EA 37 DF 75 
   373)    40076.9  Rx       179  8  F0 DB BF 55 41 37 C7 BC 
   374)    40177.6  Rx       12B  8  AD 0E 34 0E 20 02 00 00 
   375)    40278.5  Rx        50  8  5B 00 00 00 00 00 00 00 
   376)    40479.6  Rx       12A  8  C4 C0 02 AD 8C EE 00 00 
   377)    40580.1  Rx       178  8  D6 56 1C 8F ED B0 81 62 
   378)    40680.7  Rx       62B  8  EB 02 00 00 A2 05 00 00 
   379)    40781.1  Rx       235  8  EE 02 00 00 00 00 00 00 
   380)    40881.8  Rx        8F  8  01 00 00 00 00 00 00 00 
   381)    40982.5  Rx       233  8  70 9D 96 2E 13 62 F5 81 
   382)    41082.8  Rx       7CC  8  90 00 00 00 00 00 00 00 
   383)    41183.2  Rx         7  8  00 00 00 00 00 21 00 00 
   384)    41283.8  Rx       7C2  8  80 E6 F8 EE EE E1 5F 08 
   385)    41384.8  Rx       153  8  8E 02 00 00 00 00 00 00 
   386)    41485.3  Rx  10000204  8  80 0C C4 54 A0 5A 2C 4C 
   387)    41585.8  Rx       7DB  8  00 18 3C AD EB 8D 58 6B 
   388)    41686.6  Rx       7D7  8  00 20 98 FB EF 31 23 ED 
   389)    41787.1  Rx       7D8  8  00 58 48 63 27 FE A8 C8 
   390)    41887.6  Rx       501  8  81 CA 02 4B 56 D2 AC 16 
   391)    41988.0  Rx       7C2  8  00 3C 88 42 A0 B8 07 4F 
   392)    42088.6  Rx       503  8  88 C3 D3 43 52 0D 4D 9D 
   393)    42189.3  Rx       600  8  EA 9B 21 21 31 9B 76 64 
   394)    42289.9  Rx       188  8  EE A1 59 B4 74 19 4C CC 
   395)    42390.5  Rx         3  8  00 00 00 00 80 1D 00 00 
   396)    42490.9  Rx        8F  8  00 00 00 00 00 00 00 00 
   397)    42591.6  Rx       502  8  27 2E 95 7F A0 72 8F 30 
   398)    42792.2  Rx        91  8  D7 63 3A 31 00 00 00 00 
   399)    42892.6  Rx       668  8  1F F3 4A 94 00 00 00 00 
   400)    42993.5  Rx        52  8  8C 39 B7 BD FB 37 01 00 
   401)    43094.4  Rx       668  8  C7 45 37 E3 00 00 00 00 
   402)    43195.0  Rx       19F  8  7F 64 29 BF 40 6B AE 31 
   403)    43295.7  Rx        91  8  C0 11 1A 3E 00 00 00 00 
   404)    43497.0  Rx  10000209  4  00 48 E8 01 
   405)    43597.7  Rx  10000207  8  C9 F1 9B CC CC 2B EA 89 
   406)    43698.1  Rx        91  8  F2 6A DC 9E 00 00 00 00 
   407)    43798.6  Rx       631  8  D3 DE 1F C7 93 E7 9B 0D 
   408)    43899.1  Rx       10B  8  02 05 11 00 00 00 00 00 
   409)    43999.5  Rx       176  8  FB 29 06 00 1D 57 12 0C 
   410)    44100.3  Rx       50F  8  91 3C 9C FE F2 DF 66 5D 
   411)    44200.9  Rx       154  8  B0 4D 29 1D 2A 37 00 00 
   412)    44301.6  Rx       7C2  8  00 56 33 05 3B 49 12 3D 
   413)    44402.5  Rx       7DB  8  00 FC 22 62 FA 78 39 58 
   414)    44503.5  Rx       177  8  00 00 00 00 B0 4A D5 77 
   415)    44604.0  Rx       7C2  8  00 D8 CB F3 17 14 16 56 
   416)    44705.0  Rx       50A  8  A9 0A EB D4 A9 07 00 00 
   417)    44805.6  Rx  10000212  8  00 00 00 00 00 00 00 00 
   418)    44906.3  Rx       7D7  8  00 10 D0 FA 1C 21 97 EE 
   419)    45007.0  Rx       650  8  18 DB 34 C1 00 00 00 00 
   420)    45107.4  Rx       153  8  C1 02 00 00 00 00 00 00 
   421)    45208.1  Rx       50F  8  4D CE FA C8 5D 17 FC 16 
   422)    45409.0  Rx       50E  8  CE 38 4B 21 00 00 00 00 
   423)    45509.8  Rx       188  8  BD 2E 0F 8D B0 20 43 70 
   424)    45610.2  Rx       7DA  8  00 A8 13 27 9B FC 8A B7 
   425)    45710.7  Rx       503  8  5D 36 4B 25 B3 78 01 2A 
   426)    45811.3  Rx       236  8  F5 5E BC 92 01 D4 F9 A6 
   427)    45911.6  Rx       600  8  B9 03 D5 0C 38 5C 19 45 
   428)    46012.4  Rx  10000204  8  F0 23 FC 21 D0 39 1C 0C 
   429)    46112.9  Rx       178  8  A0 8E C2 70 5C 5C E9 72 
   430)    46213.7  Rx       652  8  AE 15 1C 7B C1 91 00 00 
   431)    46314.1  Rx       505  8  EF 8B 65 3D 94 37 15 B3 
   432)    46414.8  Rx       7DA  8  00 DE B7 F8 D4 E4 29 27 
