;$FILEVERSION=1.1
;$STARTTIME=46001.9458933898
;
;   Start time: 10-12-2025 22:42:05.188
;   Generated by AtomX
;
;   Message Number
;   |         Time Offset (ms)
;   |         |        Type
;   |         |        |        ID (hex)
;   |         |        |        |     Data Length
;   |         |        |        |     |   Data Bytes (hex) ...
;   |         |        |        |     |   |
;---+--   ----+----  --+--  ----+---  +  -+ -- -- -- -- -- -- --
     1)        0.0  Rx       7C5  8  10 61 D8 B5 0D 26 70 01 
     2)      100.7  Rx       503  8  0E EF F6 40 C8 4D EC 5A 
     3)      203.2  Rx       371  8  98 87 01 00 00 00 00 00 
     4)      303.6  Rx       505  8  4A 97 8E 0B 59 52 AA 6D 
     5)      504.6  Rx       65B  8  3D 09 00 00 13 0B 00 00 
     6)      605.1  Rx       154  8  22 D7 2D 01 20 75 00 00 
     7)      705.6  Rx       12A  8  73 9B 3F 29 76 E0 01 00 
     8)      806.1  Rx       631  8  A6 B6 80 5E E2 8D 5A C9 
     9)      906.7  Rx  10000209  4  80 41 20 05 
    10)     1007.5  Rx        81  8  68 15 37 00 00 00 00 00 
    11)     1108.0  Rx       501  8  8D 9F FD EE 6B 30 45 0F 
    12)     1208.7  Rx  10000203  8  04 42 9C 18 7E 04 88 2C 
    13)     1309.5  Rx       600  8  64 1D 52 E8 D8 25 93 9D 
    14)     1410.2  Rx   8192A3B  1  38 
    15)     1511.8  Rx       7D7  8  00 80 01 2A 3B 0F CB 92 
    16)     1712.6  Rx       7DB  8  00 B8 CD 9E D5 88 10 83 
    17)     1813.2  Rx        50  8  01 01 00 00 00 00 00 00 
    18)     1913.8  Rx       7DB  8  00 C0 14 3D 19 A2 40 DE 
    19)     2014.5  Rx        8E  8  88 0F 41 EE 00 00 00 00 
    20)     2115.1  Rx  10000212  8  00 00 00 00 00 00 00 00 
    21)     2215.5  Rx       650  8  0D 55 C6 67 00 00 00 00 
    22)     2316.1  Rx       501  8  8F CF 44 4F FF 1B 07 C0 
    23)     2416.7  Rx       310  8  27 03 29 44 00 00 00 00 
    24)     2617.4  Rx        52  8  C4 24 59 21 EB CA 1D 00 
    25)     2918.9  Rx        81  8  7C 01 57 00 00 00 00 00 
    26)     3019.7  Rx       7C2  8  00 58 C1 22 74 2C FA D1 
    27)     3221.0  Rx       10C  8  4B 39 50 32 0D 00 00 00 
    28)     3321.6  Rx        91  8  2C 0A E6 1E 00 00 00 00 
    29)     3422.0  Rx  10000211  8  63 40 A0 E0 57 1D 19 D5 
    30)     3522.7  Rx       62B  8  DB 0A 00 00 08 0C 00 00 
    31)     3623.4  Rx        51  8  BA E3 00 00 96 C0 00 00 
    32)     3724.1  Rx       310  8  8B 00 44 55 00 00 00 00 
    33)     3824.5  Rx       674  8  E4 00 00 00 00 00 00 00 
    34)     4025.3  Rx       12A  8  05 D6 55 E2 FD 6C 00 00 
    35)     4125.7  Rx       7D7  8  00 7F DF D1 A8 7A 94 13 
    36)     4226.5  Rx       50F  8  3D C3 D4 3B 19 52 8C 25 
    37)     4327.3  Rx       10C  8  35 02 AB B7 09 00 00 00 
    38)     4427.5  Rx       506  8  F0 D1 2B 53 BF 47 A1 5D 
    39)     4528.2  Rx       10B  8  09 1C 02 00 00 00 00 00 
    40)     4628.8  Rx       10C  8  9D 34 11 9A 0D 00 00 00 
    41)     4829.2  Rx       12B  8  87 05 B3 0A E9 01 00 00 
    42)     4929.9  Rx       50A  8  1E 9D 4C 0F 3A 05 00 00 
    43)     5030.3  Rx       50F  8  15 AD D6 4B D7 A8 8D B2 
    44)     5130.7  Rx  10000207  8  AD F1 D4 96 6E 71 A7 00 
    45)     5231.4  Rx       173  8  00 BC D0 42 00 00 00 00 
    46)     5331.8  Rx       10A  8  48 28 E6 C9 99 3E 77 14 
    47)     5432.3  Rx       650  8  1F BD 85 9D 00 00 00 00 
    48)     5532.7  Rx       502  8  E0 7D 1C 14 57 39 95 CB 
    49)     5633.4  Rx       666  8  62 D9 B3 40 E5 C2 7A 2F 
    50)     5734.1  Rx       12D  8  BC 59 B8 52 AB CA 95 02 
    51)     5835.0  Rx       501  8  55 A6 78 F8 BB 8B 2F 56 
    52)     5936.3  Rx       154  8  F0 C9 3F 13 0E 56 00 00 
    53)     6036.6  Rx       7CC  8  8E 00 00 00 00 00 00 00 
    54)     6136.9  Rx  10000211  8  CB 8B 94 23 C1 ED A9 EF 
    55)     6337.9  Rx        8E  8  44 52 37 A2 00 00 00 00 
    56)     6438.2  Rx       170  8  72 5C 59 A9 1D 80 D7 5D 
    57)     6538.8  Rx       187  8  6B C7 D1 22 9A EC 6B 00 
    58)     6639.1  Rx       7C5  8  00 F8 DE C1 87 81 5E B7 
    59)     6739.6  Rx         2  8  00 61 00 00 00 00 00 00 
    60)     6840.1  Rx       341  8  A7 C4 6C 39 18 91 2A 00 
    61)     6940.7  Rx       19F  8  DD 8F 42 40 D8 E6 90 D9 
    62)     7041.0  Rx  10000210  0   
    63)     7141.3  Rx  10000209  4  40 C0 65 03 
    64)     7241.8  Rx       645  8  3A 63 E1 E1 C9 3E 00 00 
    65)     7342.4  Rx       12D  8  53 DD 6B 18 FE 6F E0 44 
    66)     7443.1  Rx       173  8  01 2B 06 50 00 00 00 00 
    67)     7543.4  Rx       230  8  41 9A 54 0C F6 1C EF A5 
    68)     7644.0  Rx       154  8  FC 4D 0A 2E 0F 8B 00 00 
    69)     7744.7  Rx        81  8  3B 05 59 00 00 00 00 00 
    70)     7845.5  Rx       64B  8  CA 0D 00 00 DB 02 00 00 
    71)     7945.9  Rx       188  8  FF A4 9A F5 C2 F5 94 19 
    72)     8046.7  Rx       361  8  36 E3 33 A8 83 D4 0D 00 
    73)     8147.3  Rx       64F  8  55 00 57 94 B3 8A 63 A8 
    74)     8247.9  Rx       7CC  8  93 00 00 00 00 00 00 00 
    75)     8348.2  Rx        8F  8  00 00 00 00 00 00 00 00 
    76)     8448.9  Rx       500  8  37 81 EC CC 98 56 BB 11 
    77)     8549.3  Rx        81  8  52 25 25 00 00 00 00 00 
    78)     8650.0  Rx       506  8  26 1F 2F A0 76 D8 33 2E 
    79)     8750.3  Rx         0  8  74 00 00 00 00 00 00 00 
    80)     8851.1  Rx       230  8  C6 B4 D9 2B 7B 51 A0 6B 
    81)     8951.7  Rx         1  8  00 00 00 00 65 00 00 00 
    82)     9052.1  Rx       506  8  C3 DA 18 BB 58 D8 66 14 
    83)     9152.5  Rx       236  8  60 AF 20 FB CE 20 62 EB 
    84)     9253.1  Rx       50F  8  27 85 05 8B 23 1F EB CF 
    85)     9353.6  Rx         6  8  00 7D 00 00 00 00 00 00 
    86)     9454.3  Rx       130  8  84 60 90 89 FD 56 CB 00 
    87)     9554.6  Rx       650  8  1A 7F A7 16 00 00 00 00 
    88)     9755.3  Rx       130  8  B2 31 3A 52 B2 5A 43 00 
    89)     9856.1  Rx       631  8  0A 06 46 F5 FE 10 B7 EA 
    90)     9956.4  Rx       234  8  1B 01 06 1F 00 00 00 00 
    91)    10056.9  Rx       50E  8  13 78 B1 13 00 00 00 00 
    92)    10157.8  Rx       50F  8  A6 AA 5B 53 06 BA 7F D5 
    93)    10258.7  Rx       178  8  69 4C 56 EF 0E 55 D3 D0 
    94)    10359.1  Rx       173  8  00 22 BE 89 00 00 00 00 
    95)    10459.4  Rx       651  8  D4 A4 D1 40 B2 00 00 00 
    96)    10559.7  Rx       506  8  7C B6 E6 AE 11 22 D8 3F 
    97)    10660.0  Rx         0  8  41 00 00 00 00 00 00 00 
    98)    10760.3  Rx       651  8  BF 06 37 6A 09 00 00 00 
    99)    10861.1  Rx       230  8  77 BE 3D 3B D0 C4 57 47 
   100)    10961.9  Rx         2  8  00 06 00 00 00 00 00 00 
   101)    11062.6  Rx       240  8  A1 44 B1 00 00 00 00 00 
   102)    11163.4  Rx       7D9  8  00 FC 47 89 00 E6 C3 64 
   103)    11263.7  Rx       7D6  8  EA 00 00 00 00 00 00 00 
   104)    11364.1  Rx       178  8  7F 65 3F 3A 78 22 A6 C9 
   105)    11464.7  Rx         7  8  00 00 00 00 00 3A 00 00 
   106)    11565.1  Rx       235  8  7C 02 00 00 00 00 00 00 
   107)    11665.7  Rx       19F  8  43 10 6A 5B 5B 0D CF 2B 
   108)    11766.0  Rx       7D6  8  7E 00 00 00 00 00 00 00 
   109)    11866.9  Rx       652  8  D7 0C A3 C6 55 4C 00 00 
   110)    11967.5  Rx       170  8  DD DD 12 73 B3 54 19 57 
   111)    12068.0  Rx  10000204  8  F8 2A 74 59 5C 44 80 57 
   112)    12168.6  Rx         0  8  CC 00 00 00 00 00 00 00 
   113)    12269.3  Rx       10C  8  BF 24 26 E9 02 00 00 00 
   114)    12369.8  Rx       130  8  14 E7 83 03 F8 25 4C 00 
   115)    12470.4  Rx       236  8  8F 53 15 C0 43 44 B6 DB 
   116)    12570.9  Rx        81  8  39 25 48 00 00 00 00 00 
   117)    12671.2  Rx       50A  8  CC F5 A7 70 72 01 00 00 
   118)    12771.7  Rx       176  8  A3 2E 33 00 0C 98 19 C5 
   119)    12872.2  Rx       187  8  5C A1 AD 3F 47 D8 02 00 
   120)    12972.9  Rx       179  8  C2 6D 0D DD BA CA 4F D5 
   121)    13174.0  Rx       65B  8  89 03 00 00 37 0C 00 00 
   122)    13274.3  Rx        50  8  CE 02 00 00 00 00 00 00 
   123)    13374.9  Rx       10A  8  54 2B FD 52 21 7E 04 05 
   124)    13475.8  Rx       236  8  AD EA D9 E9 15 6E 33 21 
   125)    13576.7  Rx         4  8  46 00 00 00 00 00 00 00 
   126)    13677.0  Rx       10B  8  03 07 1D 00 00 00 00 00 
   127)    13878.1  Rx       188  8  3A 6D C6 FE 12 50 8B 27 
   128)    13978.8  Rx       50A  8  6F 32 F4 87 3A 02 00 00 
   129)    14079.2  Rx  10000212  8  00 00 00 00 00 00 00 00 
   130)    14179.5  Rx       680  8  00 00 00 00 00 00 00 00 
   131)    14280.0  Rx       7CC  8  2B 00 00 00 00 00 00 00 
   132)    14380.6  Rx       170  8  65 FC E2 4F 6A 14 F3 24 
   133)    14481.3  Rx       70F  8  00 A0 50 7F BA 8C 1C 91 
   134)    14581.5  Rx       233  8  0F 66 F5 70 25 03 43 D5 
   135)    14682.2  Rx        80  8  17 24 11 01 39 09 28 1A 
   136)    14883.2  Rx       7D8  8  00 F8 A1 D1 44 E4 36 E5 
   137)    14983.6  Rx       341  8  85 5F DB 39 42 5A 09 00 
   138)    15084.3  Rx       10C  8  95 06 7C 3D 0F 00 00 00 
   139)    15285.4  Rx       371  8  A9 93 00 00 00 00 00 00 
   140)    15385.8  Rx       7D6  8  DC 00 00 00 00 00 00 00 
   141)    15486.2  Rx         6  8  00 4D 00 00 00 00 00 00 
   142)    15587.0  Rx       12A  8  7A 1E E8 28 32 D3 02 00 
   143)    15787.9  Rx       240  8  F2 AC D6 00 00 00 00 00 
   144)    15888.5  Rx       70F  8  00 68 0A 41 01 40 86 DF 
   145)    15988.9  Rx       65B  8  61 00 00 00 C5 02 00 00 
   146)    16089.2  Rx       12D  8  56 E6 7C 85 FF 47 95 F7 
   147)    16189.8  Rx       235  8  39 04 00 00 00 00 00 00 
   148)    16290.4  Rx       10C  8  58 1A 15 D3 0A 00 00 00 
   149)    16491.5  Rx  10000204  8  C8 00 44 2F E4 3E 5C 2B 
   150)    16592.2  Rx       666  8  F3 30 85 93 0F 24 96 4B 
   151)    16692.6  Rx       179  8  E5 DA 37 87 16 78 24 0C 
   152)    16793.0  Rx       674  8  0F 00 00 00 00 00 00 00 
   153)    16893.4  Rx       680  8  01 00 00 00 00 00 00 00 
   154)    16994.0  Rx  10000211  8  D0 8F 4E BA 8F FB 09 76 
   155)    17094.4  Rx       642  8  D9 58 D1 B7 EC E7 C1 B0 
   156)    17195.3  Rx        80  8  CF 21 09 01 E5 19 29 0D 
   157)    17295.7  Rx       50F  8  4B 79 74 A0 A2 46 6B C9 
   158)    17396.1  Rx        A0  8  02 03 00 00 00 00 00 00 
   159)    17496.6  Rx       50E  8  D2 39 8F 6D 00 00 00 00 
   160)    17597.3  Rx       154  8  22 EB 53 1F 21 AE 00 00 
   161)    17697.7  Rx       12B  8  4B 10 93 03 7E 02 00 00 
   162)    17798.2  Rx       341  8  73 60 6C 2A 60 F7 02 00 
   163)    17899.0  Rx       7D7  8  00 A6 18 7B B8 E5 44 29 
   164)    17999.7  Rx  10000207  8  A2 D6 15 A2 43 BD D8 F8 
   165)    18100.1  Rx  10000207  8  A7 6D 65 0A B8 7F 62 67 
   166)    18200.7  Rx       680  8  01 00 00 00 00 00 00 00 
   167)    18301.1  Rx       154  8  0C 7C 56 2D 19 21 00 00 
   168)    18501.7  Rx        51  8  BC C4 00 00 FE A1 00 00 
   169)    18602.2  Rx       7DB  8  00 68 57 C6 08 F3 43 97 
   170)    18702.5  Rx        52  8  DF 38 CE EB 9B A0 11 00 
   171)    18802.9  Rx       7D9  8  00 F8 50 DD FF 32 0B C6 
   172)    18903.5  Rx       680  8  01 00 00 00 00 00 00 00 
   173)    19004.0  Rx       600  8  7E DC E6 03 E6 6A C6 ED 
   174)    19104.9  Rx       234  8  1F 0A 01 0A 00 00 00 00 
   175)    19205.5  Rx         7  8  00 00 00 00 80 75 00 00 
   176)    19306.3  Rx       501  8  F1 A2 8E 22 30 CA 07 B5 
   177)    19406.7  Rx       7C5  8  00 88 81 3E 85 7F F3 BB 
   178)    19507.3  Rx        8E  8  DC B1 B2 F0 00 00 00 00 
   179)    19607.9  Rx       652  8  1B 30 8E 6A 25 F9 00 00 
   180)    19708.4  Rx       509  8  54 26 65 D1 00 00 00 00 
   181)    19909.9  Rx       65B  8  70 0D 00 00 1C 08 00 00 
   182)    20010.3  Rx       4CE  8  03 5A 00 00 00 00 00 00 
   183)    20110.8  Rx       10C  8  CC 0A F5 ED 09 00 00 00 
   184)    20211.5  Rx       234  8  18 14 13 1B 00 00 00 00 
   185)    20311.9  Rx  10000212  8  00 00 00 00 00 00 00 00 
   186)    20412.3  Rx       178  8  C8 03 92 49 41 3C 22 ED 
   187)    20613.7  Rx       175  8  C8 F2 66 80 5D 9C 00 00 
   188)    20814.6  Rx  10000201  8  21 91 B7 D4 26 00 69 00 
   189)    20915.2  Rx         2  8  80 35 00 00 00 00 00 00 
   190)    21016.0  Rx        91  8  EB 18 9B 30 00 00 00 00 
   191)    21116.6  Rx       4CE  8  01 A5 00 00 00 00 00 00 
   192)    21217.1  Rx       4CD  8  DF 43 15 4D 3B 2E 6A BC 
   193)    21317.5  Rx       7C2  8  00 A4 64 45 7B 30 82 10 
   194)    21418.2  Rx         6  8  00 63 00 00 00 00 00 00 
   195)    21519.0  Rx  10000208  8  00 00 00 00 00 00 00 00 
   196)    21619.7  Rx        A0  8  01 03 00 00 00 00 00 00 
   197)    21720.0  Rx       12F  8  AE 68 87 61 E1 40 82 E6 
   198)    21820.5  Rx       12E  8  7F B6 23 62 1B 85 C3 B7 
   199)    21921.1  Rx       10B  8  0D 13 18 00 00 00 00 00 
   200)    22021.8  Rx       7D9  8  00 20 75 3F 2C 83 22 9B 
   201)    22122.2  Rx         4  8  81 00 00 00 00 00 00 00 
   202)    22223.1  Rx       652  8  C5 EA DB F8 E3 CC 00 00 
   203)    22323.6  Rx       508  8  A4 95 D6 17 1D 8F F9 16 
   204)    22424.2  Rx       236  8  31 BB B4 DB 4C 1A B2 A6 
   205)    22524.9  Rx         6  8  80 3D 00 00 00 00 00 00 
   206)    22625.4  Rx       4CD  8  70 75 F0 D0 6E 83 CB 65 
   207)    22726.1  Rx       7D6  8  02 00 00 00 00 00 00 00 
   208)    22826.9  Rx       501  8  F4 D0 60 9B 5D 32 00 F2 
   209)    22927.3  Rx       450  8  F4 00 00 00 00 00 00 00 
   210)    23027.9  Rx         7  8  00 00 00 00 80 32 00 00 
   211)    23128.4  Rx        8E  8  12 6A AE 65 00 00 00 00 
   212)    23228.8  Rx       64B  8  2D 01 00 00 B7 0B 00 00 
   213)    23329.2  Rx       680  8  00 00 00 00 00 00 00 00 
   214)    23429.5  Rx       235  8  10 03 00 00 00 00 00 00 
   215)    23530.1  Rx       506  8  06 DA 63 48 E2 2C 6D 25 
   216)    23630.5  Rx  10000209  4  40 47 F9 06 
   217)    23731.1  Rx       450  8  E7 00 00 00 00 00 00 00 
   218)    23831.5  Rx       50A  8  27 95 0D 80 80 07 00 00 
   219)    23932.2  Rx       188  8  57 2B F1 A1 6A 6C 25 EC 
   220)    24032.8  Rx       371  8  31 75 00 00 00 00 00 00 
   221)    24133.5  Rx       7D8  8  00 60 43 2C 29 59 9A EF 
   222)    24334.9  Rx       508  8  5C E9 56 1D EF 67 94 51 
   223)    24435.5  Rx  10000210  0   
   224)    24535.9  Rx       173  8  00 45 E8 64 00 00 00 00 
   225)    24636.6  Rx        52  8  AE D0 3F 95 9E 9C 15 00 
   226)    24737.1  Rx       675  8  00 08 36 B7 E4 79 3A C9 
   227)    24837.5  Rx       12D  8  9C F6 84 29 A4 F7 D7 67 
   228)    24938.4  Rx       505  8  04 1E CB 09 5A 7F EF 0C 
   229)    25039.3  Rx  10000209  4  C0 20 90 02 
   230)    25139.6  Rx       7DA  8  00 8C 83 21 F3 6F 9C 7A 
   231)    25240.1  Rx       173  8  00 A1 F4 A5 00 00 00 00 
   232)    25341.0  Rx       4CD  8  F3 F7 FD 2A E6 42 E1 ED 
   233)    25441.6  Rx       652  8  6A FC D4 9A A9 4E 00 00 
   234)    25543.2  Rx       12E  8  C2 C9 7D 57 AF 1C 64 B0 
   235)    25643.7  Rx        91  8  42 EA 77 33 00 00 00 00 
   236)    25744.5  Rx       7D9  8  00 A0 53 0B AF A8 CF F6 
   237)    25845.0  Rx       179  8  16 3E 9C 94 63 0F A8 50 
   238)    25945.4  Rx       12B  8  27 0D D9 03 FB 02 00 00 
   239)    26045.8  Rx       154  8  1C C1 3F 35 2B A3 00 00 
   240)    26146.5  Rx  10000208  8  00 00 00 00 00 00 00 00 
   241)    26246.8  Rx  10000212  8  00 00 00 00 00 00 00 00 
   242)    26347.1  Rx       7B4  8  66 00 00 00 00 00 00 00 
   243)    26447.4  Rx       10B  8  0D 1D 12 00 00 00 00 00 
   244)    26548.2  Rx       371  8  9E 7E 01 00 00 00 00 00 
   245)    26648.9  Rx       170  8  0D B8 79 02 8C A8 86 1B 
   246)    26849.8  Rx       505  8  5E EF A9 67 E5 A7 6E F4 
   247)    26950.5  Rx       19F  8  02 D5 4E D5 F2 4E 0E E1 
   248)    27050.9  Rx       12D  8  C7 1E 9C C1 6D C2 C6 40 
   249)    27151.6  Rx       506  8  BE 5D 49 CE D5 1A 7B E5 
   250)    27352.8  Rx       668  8  6C FF F1 50 00 00 00 00 
   251)    27453.2  Rx        91  8  E0 CD C5 4B 00 00 00 00 
   252)    27553.5  Rx       64F  8  C8 D2 90 07 32 96 4C 8F 
   253)    27653.9  Rx       505  8  CF 48 A5 E8 D8 E4 95 38 
   254)    27754.6  Rx       310  8  DB 01 5D 52 00 00 00 00 
   255)    27855.1  Rx       7C2  8  00 60 79 18 26 4D A9 AE 
   256)    27955.8  Rx       12B  8  A5 15 50 16 8E 03 00 00 
   257)    28056.1  Rx       7CC  8  1D 00 00 00 00 00 00 00 
   258)    28156.8  Rx       7D9  8  00 40 84 2D FB E4 D5 3E 
   259)    28257.6  Rx       7C2  8  00 B0 2B 8B 29 3D 2C 9D 
   260)    28358.0  Rx       341  8  9F 62 1B 2E 4E 3C 2B 00 
   261)    28458.8  Rx       130  8  8C 50 76 96 CA 88 9A 00 
   262)    28559.7  Rx       680  8  01 00 00 00 00 00 00 00 
   263)    28660.1  Rx       310  8  DD 03 83 87 00 00 00 00 
   264)    28760.5  Rx       680  8  01 00 00 00 00 00 00 00 
   265)    28861.0  Rx        50  8  55 02 00 00 00 00 00 00 
   266)    28961.8  Rx       341  8  C5 F1 ED 31 42 1C 21 00 
   267)    29062.3  Rx       12E  8  95 7F E3 18 0A 94 CF 7D 
   268)    29163.0  Rx        8F  8  01 00 00 00 00 00 00 00 
   269)    29263.4  Rx       10B  8  0A 10 04 00 00 00 00 00 
   270)    29363.9  Rx       230  8  76 C6 64 33 3C ED E1 64 
   271)    29464.5  Rx         6  8  00 54 00 00 00 00 00 00 
   272)    29564.9  Rx       631  8  79 B4 86 0A B7 75 75 A0 
   273)    29665.5  Rx       12E  8  22 C0 E0 4F 52 14 87 50 
   274)    29766.0  Rx        80  8  D6 3E 0B 00 99 10 1B 1F 
   275)    29866.7  Rx       12A  8  72 C8 80 6B F4 39 02 00 
   276)    30067.8  Rx       12F  8  3D C3 4A 87 05 BD 83 07 
   277)    30168.5  Rx       7B4  8  B2 00 00 00 00 00 00 00 
   278)    30269.0  Rx       4CD  8  48 30 E9 3F 8B A0 D0 EA 
   279)    30369.3  Rx       188  8  CB 47 B8 10 B3 38 10 1F 
   280)    30469.8  Rx       650  8  1E 6C CD B9 00 00 00 00 
   281)    30570.4  Rx       50A  8  A3 3E AC CF 82 07 00 00 
   282)    30771.5  Rx  10000203  8  40 06 B0 36 E2 09 B8 56 
   283)    30871.9  Rx  10000207  8  5D 1A CF 89 5E 98 2A 86 
   284)    30972.7  Rx         1  8  00 00 00 00 2D 00 00 00 
   285)    31072.9  Rx       12F  8  2A 63 B2 25 0E 31 E6 D1 
   286)    31173.2  Rx       507  8  3A 3B 59 73 7F 64 3D 6F 
   287)    31273.7  Rx       7DB  8  00 34 25 EB 73 50 EE 6F 
   288)    31374.5  Rx       502  8  C7 53 8D C0 01 7F 2F 40 
   289)    31475.2  Rx       310  8  F6 02 70 C9 00 00 00 00 
   290)    31575.6  Rx       50A  8  FF 2A F9 F5 0E 04 00 00 
   291)    31676.2  Rx       50E  8  B4 19 7A 7C 00 00 00 00 
   292)    31877.3  Rx       10B  8  05 17 0B 00 00 00 00 00 
   293)    31978.1  Rx       500  8  F8 CD 96 2F 9B 30 97 EB 
   294)    32078.4  Rx       65B  8  D5 01 00 00 E5 01 00 00 
   295)    32178.8  Rx       173  8  01 81 CF 48 00 00 00 00 
   296)    32279.4  Rx       50A  8  62 68 B0 C3 FB 07 00 00 
   297)    32380.1  Rx         2  8  80 3D 00 00 00 00 00 00 
   298)    32480.7  Rx  10000211  8  35 3A E2 54 08 5A B7 69 
   299)    32581.2  Rx       341  8  8C E2 E0 5D 56 FB 17 00 
   300)    32681.8  Rx       176  8  BE C8 90 00 39 87 DA 71 
   301)    32782.6  Rx       641  8  00 B8 55 6C 1D 11 4F CC 
   302)    32883.5  Rx       503  8  86 7F 8A D0 9A 56 F9 43 
   303)    32984.8  Rx       64B  8  6A 07 00 00 24 0F 00 00 
   304)    33186.2  Rx  10000204  8  D8 27 EC 2C E0 47 68 42 
   305)    33287.1  Rx       65B  8  A0 08 00 00 0B 04 00 00 
   306)    33689.0  Rx       10B  8  09 0F 1A 00 00 00 00 00 
   307)    33789.8  Rx       450  8  67 00 00 00 00 00 00 00 
   308)    33890.3  Rx       240  8  53 27 75 00 00 00 00 00 
   309)    33990.8  Rx       666  8  5B F7 EC 46 64 09 49 B9 
   310)    34091.2  Rx       4CD  8  02 2D 05 30 9C 60 66 94 
   311)    34191.8  Rx         2  8  00 18 00 00 00 00 00 00 
   312)    34292.4  Rx       65B  8  1D 07 00 00 69 04 00 00 
   313)    34393.1  Rx       506  8  13 8B 6F 98 E3 07 73 48 
   314)    34493.8  Rx       12F  8  3A 47 AA D9 C6 7D BC 5C 
   315)    34594.6  Rx       12B  8  D4 02 16 16 EF 01 00 00 
   316)    34694.9  Rx        52  8  5F BF EB 6B 3A C0 04 00 
   317)    34895.8  Rx        52  8  AB 62 53 7E 1D C7 0A 00 
   318)    35096.5  Rx       506  8  DF 7A 90 1A D5 9B BC A9 
   319)    35197.3  Rx       631  8  56 B3 0F 1E E7 99 16 E3 
   320)    35298.0  Rx       12D  8  7D B4 8C 89 5B 65 C5 BA 
   321)    35398.9  Rx       650  8  1E AD 62 9D 00 00 00 00 
   322)    35499.4  Rx        50  8  75 02 00 00 00 00 00 00 
   323)    35600.4  Rx       12E  8  9E B8 D9 FD 74 2D A1 AD 
   324)    35701.2  Rx       70F  8  00 A6 CD B6 57 E3 8A 31 
   325)    35802.4  Rx       502  8  43 E5 7E 30 53 EB AD 26 
   326)    35903.4  Rx  10000201  8  BE A2 01 01 FC 00 CC 00 
   327)    36004.2  Rx       674  8  29 00 00 00 00 00 00 00 
   328)    36104.8  Rx       501  8  4C D2 35 DB 6E 38 08 A3 
   329)    36205.6  Rx  10000211  8  F1 07 41 9D D0 5C A5 94 
   330)    36306.4  Rx       65B  8  B8 07 00 00 0F 00 00 00 
   331)    36507.1  Rx         5  8  00 00 00 00 F1 00 00 00 
   332)    36607.3  Rx       12A  8  5C CD 9C 9E A4 B3 00 00 
   333)    36707.8  Rx       600  8  C2 C8 F5 8D B8 29 6B 12 
   334)    36808.4  Rx       50F  8  5D 48 52 FC D1 0C 05 9D 
   335)    36909.1  Rx       12D  8  55 90 1A D6 42 C6 E3 37 
   336)    37010.7  Rx       10C  8  B9 03 8E 12 00 00 00 00 
   337)    37111.2  Rx       62B  8  30 0C 00 00 95 04 00 00 
   338)    37211.9  Rx       7CC  8  65 00 00 00 00 00 00 00 
   339)    37312.6  Rx       502  8  D5 3D F3 8C 12 80 E5 1E 
   340)    37413.3  Rx       19F  8  71 80 DD 02 D9 D0 50 99 
   341)    37513.6  Rx       234  8  17 06 07 1F 00 00 00 00 
   342)    37614.1  Rx       508  8  E2 36 D9 16 43 A3 A7 6D 
   343)    37714.8  Rx       4CD  8  60 D8 AD 79 3F E4 07 3F 
   344)    37815.4  Rx        52  8  18 46 B4 75 3C 9F 12 00 
   345)    37916.0  Rx       230  8  F3 5B C0 5C 3D 5D 7F ED 
   346)    38016.7  Rx       64B  8  6F 02 00 00 9B 01 00 00 
   347)    38117.6  Rx       187  8  97 C5 20 38 C2 8E 81 00 
   348)    38218.2  Rx        91  8  98 31 12 73 00 00 00 00 
   349)    38319.3  Rx  10000204  8  48 0D 94 5C B4 2D E4 0C 
   350)    38420.0  Rx       12E  8  95 09 9E 05 A0 99 4B CA 
   351)    38520.6  Rx  10000203  8  20 4E 18 15 82 00 B8 0B 
   352)    38721.8  Rx       505  8  00 9A 65 5D F3 33 67 03 
   353)    38822.6  Rx       12F  8  B6 74 68 BC E8 26 19 96 
   354)    38923.1  Rx       7D9  8  00 88 0C BE 37 BA ED CF 
   355)    39024.0  Rx       50E  8  B5 33 B6 79 00 00 00 00 
   356)    39124.6  Rx  10000204  8  48 58 14 50 08 39 28 3C 
   357)    39225.2  Rx       506  8  DD AE 62 E0 AB 57 EC D1 
   358)    39326.0  Rx       674  8  ED 00 00 00 00 00 00 00 
   359)    39426.7  Rx  10000212  8  00 00 00 00 00 00 00 00 
   360)    39527.1  Rx       187  8  88 BB C6 99 B5 7D 41 00 
   361)    39627.7  Rx       7D8  8  00 80 B8 53 71 0C D9 D0 
   362)    39728.5  Rx       175  8  3D 01 B4 19 91 6D 00 00 
   363)    39829.0  Rx       666  8  96 C9 CC CD 3E 70 C3 77 
   364)    39929.6  Rx       187  8  B0 5B 73 01 BC D5 9D 00 
   365)    40030.3  Rx       675  8  00 88 C0 5D 28 27 BA 5F 
   366)    40131.0  Rx       12B  8  0B 12 93 03 70 03 00 00 
   367)    40231.7  Rx       10A  8  96 D3 2E AA 17 EE 73 09 
   368)    40332.4  Rx         5  8  00 00 00 00 AC 00 00 00 
   369)    40433.0  Rx         3  8  00 00 00 00 00 0D 00 00 
   370)    40533.5  Rx  10000207  8  9F 91 A5 D5 E1 39 54 57 
   371)    40634.4  Rx       233  8  C1 ED 0A 1F 57 BF 63 01 
   372)    40735.0  Rx  10000207  8  68 CD B0 68 64 51 F0 27 
   373)    40836.3  Rx       641  8  00 70 AE 3F CB 98 6C A1 
   374)    40936.8  Rx  10000204  8  48 58 60 54 28 3C E8 03 
   375)    41037.5  Rx       64B  8  74 03 00 00 AD 0A 00 00 
   376)    41138.3  Rx        81  8  2F 11 17 00 00 00 00 00 
   377)    41239.1  Rx         7  8  00 00 00 00 00 7D 00 00 
   378)    41340.0  Rx        50  8  08 00 00 00 00 00 00 00 
   379)    41440.7  Rx  10000209  4  00 13 11 0E 
   380)    41742.5  Rx       10B  8  0B 1E 15 00 00 00 00 00 
   381)    41843.3  Rx       505  8  D1 73 7B 78 7B 8D 0B B8 
   382)    41944.4  Rx       506  8  98 96 5D 95 39 A9 66 03 
   383)    42045.1  Rx       178  8  EE 28 0C 33 B3 68 C3 4A 
   384)    42145.8  Rx  10000201  8  19 34 AA F1 87 00 E9 00 
   385)    42246.2  Rx       631  8  18 CC CA 46 CD D5 5A 6F 
   386)    42346.5  Rx       652  8  F3 D8 13 D6 B7 E1 00 00 
   387)    42447.2  Rx       50A  8  47 64 D7 92 2E 06 00 00 
   388)    42548.0  Rx       642  8  7D 71 39 7F 00 2F 74 AE 
   389)    42648.8  Rx       501  8  75 A3 9A 0F 25 44 4E AC 
   390)    42851.3  Rx        8F  8  01 00 00 00 00 00 00 00 
   391)    43052.5  Rx       310  8  84 01 86 85 00 00 00 00 
   392)    43153.2  Rx         1  8  00 00 00 00 42 00 00 00 
   393)    43254.1  Rx       10C  8  DA 10 AB 7F 07 00 00 00 
   394)    43354.4  Rx         3  8  00 00 00 00 80 34 00 00 
   395)    43555.5  Rx       12F  8  42 7C D9 61 C4 91 DA 55 
   396)    43656.0  Rx       500  8  A0 71 22 7A 08 34 CE 54 
   397)    43756.7  Rx       236  8  82 85 C5 02 F9 9C 50 DD 
   398)    43857.6  Rx  10000201  8  71 58 B4 BD A1 00 F7 00 
   399)    43958.1  Rx       652  8  C4 E1 D6 B2 73 FF 00 00 
   400)    44058.6  Rx       178  8  82 51 72 BC BE E3 E7 72 
   401)    44159.1  Rx       652  8  F8 44 A6 C3 8D 30 00 00 
   402)    44259.8  Rx       12F  8  5F 31 6A EE E4 62 6E EC 
   403)    44360.4  Rx       7D6  8  BD 00 00 00 00 00 00 00 
   404)    44461.1  Rx       236  8  DA FC 16 84 68 0A F3 76 
   405)    44561.7  Rx       157  8  82 F6 3B 10 89 E4 74 7E 
   406)    44662.0  Rx       19F  8  38 E5 7B 37 FA 91 74 C7 
   407)    44762.5  Rx       507  8  BC 26 40 D3 BF BD 25 EC 
   408)    44863.1  Rx        8E  8  D5 3D 78 D8 00 00 00 00 
   409)    44963.9  Rx       7DA  8  00 04 E1 CB E6 0E 5C 45 
   410)    45064.5  Rx        51  8  58 9C 00 00 AE B7 00 00 
   411)    45165.6  Rx       310  8  5C 01 8D 7C 00 00 00 00 
   412)    45266.8  Rx         0  8  D4 00 00 00 00 00 00 00 
   413)    45367.2  Rx       675  8  00 70 2B C9 3D 7F FE C2 
   414)    45468.1  Rx       50E  8  2E FA 62 3F 00 00 00 00 
   415)    45568.6  Rx         0  8  AE 00 00 00 00 00 00 00 
   416)    45769.5  Rx         4  8  F5 00 00 00 00 00 00 00 
   417)    45870.0  Rx       502  8  92 AC B1 7A 9D 1E 1B 0A 
   418)    45970.8  Rx       7D9  8  00 90 0A D8 B1 3E CF B5 
   419)    46071.2  Rx       179  8  63 28 C7 7F 2C 7B 64 BB 
   420)    46171.9  Rx       12B  8  08 0E 83 08 54 02 00 00 
