;$FILEVERSION=1.3
; Generated by logconv
;   Message Number
;   |         Time Offset (ms)
;   |         |        Type
;   |         |        |        ID (hex)
;   |         |        |        |     Data Length
;   |         |        |        |     |   Data Bytes (hex) ...
;---+--   ----+----  --+--  ----+---  +  -+ -- -- -- -- -- -- --
     1)         0.0  Rx     000001A7  8  00 00 9C 18 08 00 44 16
     2)       138.0  Rx     0000012A  8  10 00 00 00 00 02 00 00
     3)       177.0  Rx     0000010B  8  05 0F 00 00 00 00 00 00
     4)       600.0  Rx     00000310  8  01 00 02 00 00 00 00 00
     5)       700.0  Rx     0000050E  8  00 00 00 00 00 00 00 00
     6)       727.0  Rx     0000010C  8  01 00 80 00 00 00 00 00
     7)       786.0  Rx     0000012C  8  02 08 00 00 70 17 00 00
     8)       800.0  Rx     0000019F  8  00 00 00 00 78 28 00 00
     9)       900.0  Rx     0000050F  8  78 28 33 00 75 05 5F 00
    10)       918.0  Rx     0000012D  8  00 00 88 13 E0 2E 01 00
    11)      1000.0  Rx     000001A7  8  00 00 9C 18 08 00 44 16
    12)      1100.0  Rx     00000644  8  13 0A 00 00 03 00 00 00
    13)      1137.0  Rx     0000012A  8  10 00 00 00 00 02 00 00
    14)      1178.0  Rx     0000010B  8  05 0F 00 00 00 00 00 00
    15)      1200.0  Rx     00000645  8  05 00 00 00 00 00 00 00
    16)      1600.0  Rx     00000310  8  01 00 02 00 00 00 00 00
    17)      1700.0  Rx     0000050E  8  00 00 00 00 00 00 00 00
    18)      1728.0  Rx     0000010C  8  01 00 80 00 00 00 00 00
    19)      1787.0  Rx     0000012C  8  02 08 00 00 70 17 00 00
    20)      1801.0  Rx     0000019F  8  00 00 00 00 78 28 00 00
    21)      1900.0  Rx     0000050F  8  78 28 30 00 77 05 5F 00
    22)      1917.0  Rx     0000012D  8  00 00 88 13 E0 2E 01 00
    23)      2000.0  Rx     000001A7  8  00 00 9C 18 08 00 44 16
    24)      2137.0  Rx     0000012A  8  10 00 00 00 00 02 00 00
    25)      2176.0  Rx     0000010B  8  05 0F 00 00 00 00 00 00
    26)      2601.0  Rx     00000310  8  01 00 02 00 00 00 00 00
    27)      2700.0  Rx     0000050E  8  00 00 00 00 00 00 00 00
    28)      2726.0  Rx     0000010C  8  01 00 80 00 00 00 00 00
    29)      2790.0  Rx     0000012C  8  02 08 00 00 70 17 00 00
    30)      2800.0  Rx     0000019F  8  00 00 00 00 78 28 00 00
    31)      2900.0  Rx     0000050F  8  78 28 2F 00 76 05 5F 00
    32)      2925.0  Rx     0000012D  8  00 00 88 13 E0 2E 01 00
    33)      3000.0  Rx     000001A7  8  00 00 9C 18 08 00 44 16
    34)      3137.0  Rx     0000012A  8  10 00 00 00 00 02 00 00
    35)      3177.0  Rx     0000010B  8  05 0F 00 00 00 00 00 00
    36)      3580.0  Rx     08192A3B  8  00 00 00 00 00 00 00 00
    37)      3600.0  Rx     00000310  8  01 00 02 00 00 00 00 00
    38)      3700.0  Rx     0000050E  8  00 00 00 00 00 00 00 00
    39)      3728.0  Rx     0000010C  8  01 00 80 00 00 00 00 00
    40)      3787.0  Rx     0000012C  8  02 08 00 00 70 17 00 00
    41)      3800.0  Rx     0000019F  8  00 00 00 00 78 28 00 00
    42)      3899.0  Rx     0000050F  8  79 28 28 00 74 05 5F 00
    43)      3919.0  Rx     0000012D  8  00 00 88 13 E0 2E 01 00
    44)      4000.0  Rx     000001A7  8  00 00 9C 18 08 00 44 16
    45)      4101.0  Rx     10000201  8  03 02 02 00 00 00 03 00
    46)      4137.0  Rx     0000012A  8  10 00 00 00 00 02 00 00
    47)      4177.0  Rx     0000010B  8  05 0F 00 00 00 00 00 00
    48)      4200.0  Rx     10000202  8  00 00 00 00 00 00 00 00
    49)      4301.0  Rx     10000203  8  67 00 03 00 38 0F 79 28
    50)      4400.0  Rx     10000204  8  52 28 D1 FF 76 05 5F 00
    51)      4501.0  Rx     10000205  8  01 00 64 64 64 64 00 00
    52)      4503.0  Rx     10000206  8  00 00 44 16 9C 18 EC 13
    53)      4506.0  Rx     10000207  8  00 00 00 00 D1 10 00 00
    54)      4509.0  Rx     10000208  8  00 00 00 00 00 00 00 00
    55)      4600.0  Rx     00000310  8  01 00 02 00 00 00 00 00
    56)      4700.0  Rx     0000050E  8  00 00 00 00 00 00 00 00
    57)      4727.0  Rx     0000010C  8  01 00 80 00 00 00 00 00
    58)      4788.0  Rx     0000012C  8  02 08 00 00 70 17 00 00
    59)      4800.0  Rx     0000019F  8  00 00 00 00 78 28 00 00
    60)      4900.0  Rx     0000050F  8  78 28 2B 00 76 05 5F 00
    61)      4918.0  Rx     0000012D  8  00 00 88 13 E0 2E 01 00
    62)      5000.0  Rx     000001A7  8  00 00 9C 18 08 00 44 16
    63)      5138.0  Rx     0000012A  8  10 00 00 00 00 02 00 00
    64)      5177.0  Rx     0000010B  8  05 0F 00 00 00 00 00 00
    65)      5600.0  Rx     00000310  8  01 00 02 00 00 00 00 00
    66)      5700.0  Rx     0000050E  8  00 00 00 00 00 00 00 00
    67)      5727.0  Rx     0000010C  8  01 00 80 00 00 00 00 00
    68)      5786.0  Rx     0000012C  8  02 08 00 00 70 17 00 00
    69)      5800.0  Rx     0000019F  8  00 00 00 00 78 28 00 00
    70)      5900.0  Rx     0000050F  8  78 28 2A 00 76 05 5F 00
    71)      5916.0  Rx     0000012D  8  00 00 88 13 E0 2E 01 00
    72)      5999.0  Rx     000001A7  8  00 00 9C 18 08 00 44 16
    73)      6139.0  Rx     0000012A  8  10 00 00 00 00 02 00 00
    74)      6178.0  Rx     0000010B  8  05 0F 00 00 00 00 00 00
    75)      6600.0  Rx     00000310  8  01 00 02 00 00 00 00 00
    76)      6700.0  Rx     0000050E  8  00 00 00 00 00 00 00 00
    77)      6728.0  Rx     0000010C  8  01 00 80 00 00 00 00 00
    78)      6790.0  Rx     0000012C  8  02 08 00 00 70 17 00 00
    79)      6800.0  Rx     0000019F  8  00 00 00 00 78 28 00 00
    80)      6900.0  Rx     0000050F  8  78 28 2C 00 75 05 5F 00
    81)      6918.0  Rx     0000012D  8  00 00 88 13 E0 2E 01 00
    82)     -2000.0  Rx     000001A7  8  00 00 9C 18 08 00 44 16
    83)     -1862.0  Rx     0000012A  8  10 00 00 00 00 02 00 00
    84)     -1824.0  Rx     0000010B  8  05 0F 00 00 00 00 00 00
    85)     -1400.0  Rx     00000310  8  01 00 02 00 00 00 00 00
    86)     -1300.0  Rx     0000050E  8  00 00 00 00 00 00 00 00
    87)     -1270.0  Rx     0000010C  8  01 00 80 00 00 00 00 00
    88)     -1210.0  Rx     0000012C  8  02 08 00 00 70 17 00 00
    89)     -1200.0  Rx     0000019F  8  00 00 00 00 78 28 00 00
    90)     -1100.0  Rx     0000050F  8  78 28 33 00 76 05 5F 00
    91)     -1079.0  Rx     0000012D  8  00 00 88 13 E0 2E 01 00
    92)     -1000.0  Rx     000001A7  8  00 00 9C 18 08 00 44 16
    93)      -862.0  Rx     0000012A  8  10 00 00 00 00 02 00 00
    94)      -821.0  Rx     0000010B  8  05 0F 00 00 00 00 00 00
    95)      -400.0  Rx     00000310  8  01 00 02 00 00 00 00 00
    96)      -300.0  Rx     0000050E  8  00 00 00 00 00 00 00 00
    97)      -271.0  Rx     0000010C  8  01 00 80 00 00 00 00 00
    98)      -210.0  Rx     0000012C  8  02 08 00 00 70 17 00 00
    99)      -200.0  Rx     0000019F  8  00 00 00 00 78 28 00 00
   100)      -101.0  Rx     0000050F  8  79 28 2F 00 74 05 5F 00
   101)       -81.0  Rx     0000012D  8  00 00 88 13 E0 2E 01 00
   102)         0.0  Rx     000001A7  8  00 00 9C 18 08 00 44 16
   103)       137.0  Rx     0000012A  8  10 00 00 00 00 02 00 00
   104)       178.0  Rx     0000010B  8  05 0F 00 00 00 00 00 00
   105)       600.0  Rx     00000310  8  01 00 02 00 00 00 00 00
   106)       699.0  Rx     0000050E  8  00 00 00 00 00 00 00 00
   107)       727.0  Rx     0000010C  8  01 00 80 00 00 00 00 00
   108)       788.0  Rx     0000012C  8  02 08 00 00 70 17 00 00
   109)       800.0  Rx     0000019F  8  00 00 00 00 78 28 00 00
   110)       900.0  Rx     0000050F  8  78 28 2A 00 75 05 5F 00
   111)       919.0  Rx     0000012D  8  00 00 88 13 E0 2E 01 00
   112)       999.0  Rx     000001A7  8  00 00 9C 18 08 00 44 16
   113)      1137.0  Rx     0000012A  8  10 00 00 00 00 02 00 00
   114)      1177.0  Rx     0000010B  8  05 0F 00 00 00 00 00 00
   115)      1600.0  Rx     00000310  8  01 00 02 00 00 00 00 00
   116)      1700.0  Rx     0000050E  8  00 00 00 00 00 00 00 00
   117)      1727.0  Rx     0000010C  8  01 00 80 00 00 00 00 00
   118)      1786.0  Rx     0000012C  8  02 08 00 00 70 17 00 00
   119)      1800.0  Rx     0000019F  8  00 00 00 00 79 28 00 00
   120)      1899.0  Rx     0000050F  8  78 28 30 00 75 05 5F 00
   121)      1918.0  Rx     0000012D  8  00 00 88 13 E0 2E 01 00
   122)      2000.0  Rx     000001A7  8  00 00 9C 18 08 00 44 16
   123)      2140.0  Rx     0000012A  8  10 00 00 00 00 02 00 00
   124)      2177.0  Rx     0000010B  8  05 0F 00 00 00 00 00 00
   125)      2600.0  Rx     00000310  8  01 00 02 00 00 00 00 00
   126)      2699.0  Rx     0000050E  8  00 00 00 00 00 00 00 00
   127)      2726.0  Rx     0000010C  8  01 00 80 00 00 00 00 00
   128)      2786.0  Rx     0000012C  8  02 08 00 00 70 17 00 00
   129)      2800.0  Rx     0000019F  8  00 00 00 00 78 28 00 00
   130)      2899.0  Rx     0000050F  8  78 28 30 00 74 05 5F 00
   131)      2916.0  Rx     0000012D  8  00 00 88 13 E0 2E 01 00
   132)      2999.0  Rx     000001A7  8  00 00 9C 18 08 00 44 16
   133)      3137.0  Rx     0000012A  8  10 00 00 00 00 02 00 00
   134)      3176.0  Rx     0000010B  8  05 0F 00 00 00 00 00 00
   135)      3600.0  Rx     00000310  8  01 00 02 00 00 00 00 00
   136)      3700.0  Rx     0000050E  8  00 00 00 00 00 00 00 00
   137)      3727.0  Rx     0000010C  8  01 00 80 00 00 00 00 00
   138)      3788.0  Rx     0000012C  8  02 08 00 00 70 17 00 00
   139)      3799.0  Rx     0000019F  8  00 00 00 00 79 28 00 00
   140)      3899.0  Rx     0000050F  8  78 28 30 00 75 05 5F 00
   141)      3925.0  Rx     0000012D  8  00 00 88 13 E0 2E 01 00
   142)      4000.0  Rx     000001A7  8  00 00 9C 18 08 00 44 16
   143)      4138.0  Rx     0000012A  8  10 00 00 00 00 02 00 00
   144)      4177.0  Rx     0000010B  8  05 0F 00 00 00 00 00 00
   145)      4578.0  Rx     08192A3B  8  00 00 00 00 00 00 00 00
   146)      4600.0  Rx     00000310  8  01 00 02 00 00 00 00 00
   147)      4700.0  Rx     0000050E  8  00 00 00 00 00 00 00 00
   148)      4729.0  Rx     0000010C  8  01 00 80 00 00 00 00 00
   149)      4787.0  Rx     0000012C  8  02 08 00 00 70 17 00 00
   150)      4800.0  Rx     0000019F  8  00 00 00 00 78 28 00 00
   151)      4899.0  Rx     0000050F  8  78 28 32 00 76 05 5F 00
   152)      4918.0  Rx     0000012D  8  00 00 88 13 E0 2E 01 00
   153)      5000.0  Rx     000001A7  8  00 00 9C 18 08 00 44 16
   154)      5101.0  Rx     10000201  8  03 02 02 00 00 00 03 00
   155)      5138.0  Rx     0000012A  8  10 00 00 00 00 02 00 00
   156)      5179.0  Rx     0000010B  8  05 0F 00 00 00 00 00 00
   157)      5201.0  Rx     10000202  8  00 00 00 00 00 00 00 00
   158)      5300.0  Rx     10000203  8  AD 00 03 00 38 0F 79 28
   159)      5400.0  Rx     10000204  8  52 28 D1 FF 74 05 5F 00
   160)      5500.0  Rx     10000205  8  01 00 64 64 64 64 00 00
   161)      5503.0  Rx     10000206  8  00 00 44 16 9C 18 EC 13
   162)      5506.0  Rx     10000207  8  00 00 00 00 05 11 00 00
   163)      5509.0  Rx     10000208  8  00 00 00 00 00 00 00 00
   164)      5600.0  Rx     00000310  8  01 00 02 00 00 00 00 00
   165)      5700.0  Rx     0000050E  8  00 00 00 00 00 00 00 00
   166)      5727.0  Rx     0000010C  8  01 00 80 00 00 00 00 00
   167)      5788.0  Rx     0000012C  8  02 08 00 00 70 17 00 00
   168)      5800.0  Rx     0000019F  8  00 00 00 00 79 28 00 00
   169)      5900.0  Rx     0000050F  8  79 28 2F 00 74 05 5F 00
   170)      5920.0  Rx     0000012D  8  00 00 88 13 E0 2E 01 00
   171)      5999.0  Rx     000001A7  8  00 00 9C 18 08 00 44 16
   172)      6139.0  Rx     0000012A  8  10 00 00 00 00 02 00 00
   173)      6176.0  Rx     0000010B  8  05 0F 00 00 00 00 00 00
   174)      6600.0  Rx     00000310  8  01 00 02 00 00 00 00 00
   175)      6700.0  Rx     0000050E  8  00 00 00 00 00 00 00 00
   176)      6729.0  Rx     0000010C  8  01 00 80 00 00 00 00 00
   177)      6786.0  Rx     0000012C  8  02 08 00 00 70 17 00 00
   178)      6800.0  Rx     0000019F  8  00 00 00 00 79 28 00 00
   179)      6900.0  Rx     0000050F  8  78 28 2C 00 74 05 5F 00
   180)      6918.0  Rx     0000012D  8  00 00 88 13 E0 2E 01 00
   181)      7000.0  Rx     000001A7  8  00 00 9C 18 08 00 44 16
   182)      7138.0  Rx     0000012A  8  10 00 00 00 00 02 00 00
   183)      7179.0  Rx     0000010B  8  05 0F 00 00 00 00 00 00
   184)      7600.0  Rx     00000310  8  01 00 02 00 00 00 00 00
   185)      7700.0  Rx     0000050E  8  00 00 00 00 00 00 00 00
   186)      7727.0  Rx     0000010C  8  01 00 80 00 00 00 00 00
   187)      7785.0  Rx     0000012C  8  02 08 00 00 70 17 00 00
   188)      7799.0  Rx     0000019F  8  00 00 00 00 78 28 00 00
   189)      7899.0  Rx     0000050F  8  79 28 30 00 75 05 5F 00
   190)      7918.0  Rx     0000012D  8  00 00 88 13 E0 2E 01 00
   191)     -1000.0  Rx     000001A7  8  00 00 9C 18 08 00 44 16
   192)      -865.0  Rx     0000012A  8  10 00 00 00 00 02 00 00
   193)      -824.0  Rx     0000010B  8  05 0F 00 00 00 00 00 00
   194)      -401.0  Rx     00000310  8  01 00 02 00 00 00 00 00
   195)      -301.0  Rx     0000050E  8  00 00 00 00 00 00 00 00
   196)      -271.0  Rx     0000010C  8  01 00 80 00 00 00 00 00
   197)      -213.0  Rx     0000012C  8  02 08 00 00 70 17 00 00
   198)      -200.0  Rx     0000019F  8  00 00 00 00 79 28 00 00
   199)      -100.0  Rx     0000050F  8  79 28 30 00 77 05 5F 00
   200)       -83.0  Rx     0000012D  8  00 00 88 13 E0 2E 01 00
   201)        -1.0  Rx     000001A7  8  00 00 9C 18 08 00 44 16
   202)       137.0  Rx     0000012A  8  10 00 00 00 00 02 00 00
   203)       177.0  Rx     0000010B  8  05 0F 00 00 00 00 00 00
   204)       599.0  Rx     00000310  8  01 00 02 00 00 00 00 00
   205)       700.0  Rx     0000050E  8  00 00 00 00 00 00 00 00
   206)       729.0  Rx     0000010C  8  01 00 80 00 00 00 00 00
   207)       787.0  Rx     0000012C  8  02 08 00 00 70 17 00 00
   208)       800.0  Rx     0000019F  8  00 00 00 00 79 28 00 00
   209)       900.0  Rx     0000050F  8  78 28 2A 00 75 05 5F 00
   210)       919.0  Rx     0000012D  8  00 00 88 13 E0 2E 01 00
   211)      1000.0  Rx     000001A7  8  00 00 9C 18 08 00 44 16
   212)      1139.0  Rx     0000012A  8  10 00 00 00 00 02 00 00
   213)      1178.0  Rx     0000010B  8  05 0F 00 00 00 00 00 00
   214)      1600.0  Rx     00000310  8  01 00 02 00 00 00 00 00
   215)      1699.0  Rx     0000050E  8  00 00 00 00 00 00 00 00
   216)      1729.0  Rx     0000010C  8  01 00 80 00 00 00 00 00
   217)      1788.0  Rx     0000012C  8  02 08 00 00 70 17 00 00
   218)      1800.0  Rx     0000019F  8  00 00 00 00 78 28 00 00
   219)      1899.0  Rx     0000050F  8  79 28 32 00 76 05 5F 00
   220)      1917.0  Rx     0000012D  8  00 00 88 13 E0 2E 01 00
   221)      2000.0  Rx     000001A7  8  00 00 9C 18 08 00 44 16
   222)      2136.0  Rx     0000012A  8  10 00 00 00 00 02 00 00
   223)      2176.0  Rx     0000010B  8  05 0F 00 00 00 00 00 00
   224)      2600.0  Rx     00000310  8  01 00 02 00 00 00 00 00
   225)      2699.0  Rx     0000050E  8  00 00 00 00 00 00 00 00
   226)      2728.0  Rx     0000010C  8  01 00 80 00 00 00 00 00
   227)      2788.0  Rx     0000012C  8  02 08 00 00 70 17 00 00
   228)      2800.0  Rx     0000019F  8  00 00 00 00 78 28 00 00
   229)      2899.0  Rx     0000050F  8  78 28 32 00 76 05 5F 00
   230)      2917.0  Rx     0000012D  8  00 00 88 13 E0 2E 01 00
   231)      3000.0  Rx     000001A7  8  00 00 9C 18 08 00 44 16
   232)      3138.0  Rx     0000012A  8  10 00 00 00 00 02 00 00
   233)      3177.0  Rx     0000010B  8  05 0F 00 00 00 00 00 00
   234)      3599.0  Rx     00000310  8  01 00 02 00 00 00 00 00
   235)      3700.0  Rx     0000050E  8  00 00 00 00 00 00 00 00
   236)      3727.0  Rx     0000010C  8  01 00 80 00 00 00 00 00
   237)      3787.0  Rx     0000012C  8  02 08 00 00 70 17 00 00
   238)      3799.0  Rx     0000019F  8  00 00 00 00 79 28 00 00
   239)      3900.0  Rx     0000050F  8  78 28 2D 00 76 05 5F 00
   240)      3916.0  Rx     0000012D  8  00 00 88 13 E0 2E 01 00
   241)      3999.0  Rx     000001A7  8  00 00 9C 18 08 00 44 16
   242)      4138.0  Rx     0000012A  8  10 00 00 00 00 02 00 00
   243)      4177.0  Rx     0000010B  8  05 0F 00 00 00 00 00 00
   244)      4599.0  Rx     00000310  8  01 00 02 00 00 00 00 00
   245)      4699.0  Rx     0000050E  8  00 00 00 00 00 00 00 00
   246)      4729.0  Rx     0000010C  8  01 00 80 00 00 00 00 00
   247)      4788.0  Rx     0000012C  8  02 08 00 00 70 17 00 00
   248)      4799.0  Rx     0000019F  8  00 00 00 00 78 28 00 00
   249)      4899.0  Rx     0000050F  8  78 28 32 00 75 05 5F 00
   250)      4926.0  Rx     0000012D  8  00 00 88 13 E0 2E 01 00
   251)      4999.0  Rx     000001A7  8  00 00 9C 18 08 00 44 16
   252)      5140.0  Rx     0000012A  8  10 00 00 00 00 02 00 00
   253)      5180.0  Rx     0000010B  8  05 0F 00 00 00 00 00 00
   254)      5579.0  Rx     08192A3B  8  00 00 00 00 00 00 00 00
   255)      5599.0  Rx     00000310  8  01 00 02 00 00 00 00 00
   256)      5700.0  Rx     0000050E  8  00 00 00 00 00 00 00 00
   257)      5727.0  Rx     0000010C  8  01 00 80 00 00 00 00 00
   258)      5792.0  Rx     0000012C  8  02 08 00 00 70 17 00 00
   259)      5799.0  Rx     0000019F  8  00 00 00 00 79 28 00 00
   260)      5900.0  Rx     0000050F  8  78 28 2D 00 75 05 5F 00
   261)      5920.0  Rx     0000012D  8  00 00 88 13 E0 2E 01 00
   262)      6000.0  Rx     000001A7  8  00 00 9C 18 08 00 44 16
   263)      6100.0  Rx     10000201  8  03 02 02 00 00 00 03 00
   264)      6140.0  Rx     0000012A  8  10 00 00 00 00 02 00 00
   265)      6180.0  Rx     0000010B  8  05 0F 00 00 00 00 00 00
   266)      6200.0  Rx     10000202  8  00 00 00 00 00 00 00 00
   267)      6300.0  Rx     10000203  8  56 00 03 00 38 0F 79 28
   268)      6400.0  Rx     10000204  8  52 28 D1 FF 74 05 5F 00
   269)      6500.0  Rx     10000205  8  01 00 64 64 64 64 00 00
   270)      6503.0  Rx     10000206  8  00 00 44 16 9C 18 EC 13
   271)      6506.0  Rx     10000207  8  00 00 00 00 75 10 00 00
   272)      6509.0  Rx     10000208  8  00 00 00 00 00 00 00 00
   273)      6600.0  Rx     00000310  8  01 00 02 00 00 00 00 00
   274)      6699.0  Rx     0000050E  8  00 00 00 00 00 00 00 00
   275)      6730.0  Rx     0000010C  8  01 00 80 00 00 00 00 00
   276)      6789.0  Rx     0000012C  8  02 08 00 00 70 17 00 00
   277)      6800.0  Rx     0000019F  8  00 00 00 00 79 28 00 00
   278)      6900.0  Rx     0000050F  8  78 28 2E 00 77 05 60 00
   279)      6921.0  Rx     0000012D  8  00 00 88 13 E0 2E 01 00
   280)      7000.0  Rx     000001A7  8  00 00 9C 18 08 00 44 16
   281)      7140.0  Rx     0000012A  8  10 00 00 00 00 02 00 00
   282)      7178.0  Rx     0000010B  8  05 0F 00 00 00 00 00 00
   283)      7599.0  Rx     00000310  8  01 00 02 00 00 00 00 00
   284)      7700.0  Rx     0000050E  8  00 00 00 00 00 00 00 00
   285)      7729.0  Rx     0000010C  8  01 00 80 00 00 00 00 00
   286)      7788.0  Rx     0000012C  8  02 08 00 00 70 17 00 00
   287)      7799.0  Rx     0000019F  8  00 00 00 00 78 28 00 00
   288)      7900.0  Rx     0000050F  8  79 28 2D 00 77 05 5F 00
   289)      7922.0  Rx     0000012D  8  00 00 88 13 E0 2E 01 00
   290)      8000.0  Rx     000001A7  8  00 00 9C 18 08 00 44 16
   291)      8139.0  Rx     0000012A  8  10 00 00 00 00 02 00 00
   292)      8179.0  Rx     0000010B  8  05 0F 00 00 00 00 00 00
   293)      8600.0  Rx     00000310  8  01 00 02 00 00 00 00 00
   294)      8699.0  Rx     0000050E  8  00 00 00 00 00 00 00 00
   295)      8728.0  Rx     0000010C  8  01 00 80 00 00 00 00 00
   296)      8788.0  Rx     0000012C  8  02 08 00 00 70 17 00 00
   297)      8800.0  Rx     0000019F  8  00 00 00 00 78 28 00 00
   298)      8900.0  Rx     0000050F  8  78 28 2D 00 77 05 5F 00
   299)      8919.0  Rx     0000012D  8  00 00 88 13 E0 2E 01 00
   300)        -1.0  Rx     000001A7  8  00 00 9C 18 08 00 44 16
   301)       139.0  Rx     0000012A  8  10 00 00 00 00 02 00 00
   302)       177.0  Rx     0000010B  8  05 0F 00 00 00 00 00 00
   303)       600.0  Rx     00000310  8  01 00 02 00 00 00 00 00
   304)       700.0  Rx     0000050E  8  00 00 00 00 00 00 00 00
   305)       728.0  Rx     0000010C  8  01 00 80 00 00 00 00 00
   306)       791.0  Rx     0000012C  8  02 08 00 00 70 17 00 00
   307)       799.0  Rx     0000019F  8  00 00 00 00 79 28 00 00
   308)       899.0  Rx     0000050F  8  78 28 2A 00 76 05 60 00
   309)       918.0  Rx     0000012D  8  00 00 88 13 E0 2E 01 00
   310)      1000.0  Rx     000001A7  8  00 00 9C 18 08 00 44 16
   311)      1139.0  Rx     0000012A  8  10 00 00 00 00 02 00 00
   312)      1180.0  Rx     0000010B  8  05 0F 00 00 00 00 00 00
   313)      1600.0  Rx     00000310  8  01 00 02 00 00 00 00 00
   314)      1699.0  Rx     0000050E  8  00 00 00 00 00 00 00 00
   315)      1728.0  Rx     0000010C  8  01 00 80 00 00 00 00 00
   316)      1790.0  Rx     0000012C  8  02 08 00 00 70 17 00 00
   317)      1800.0  Rx     0000019F  8  00 00 00 00 78 28 00 00
   318)      1899.0  Rx     0000050F  8  78 28 37 00 77 05 60 00
   319)      1919.0  Rx     0000012D  8  00 00 88 13 E0 2E 01 00
   320)      2000.0  Rx     000001A7  8  00 00 9C 18 08 00 44 16
   321)      2139.0  Rx     0000012A  8  10 00 00 00 00 02 00 00
   322)      2180.0  Rx     0000010B  8  05 0F 00 00 00 00 00 00
   323)      2600.0  Rx     00000310  8  01 00 02 00 00 00 00 00
   324)      2699.0  Rx     0000050E  8  00 00 00 00 00 00 00 00
   325)      2727.0  Rx     0000010C  8  01 00 80 00 00 00 00 00
   326)      2788.0  Rx     0000012C  8  02 08 00 00 70 17 00 00
   327)      2800.0  Rx     0000019F  8  00 00 00 00 79 28 00 00
   328)      2899.0  Rx     0000050F  8  79 28 2C 00 75 05 60 00
   329)      2918.0  Rx     0000012D  8  00 00 88 13 E0 2E 01 00
   330)      2999.0  Rx     000001A7  8  00 00 9C 18 08 00 44 16
   331)      3138.0  Rx     0000012A  8  10 00 00 00 00 02 00 00
   332)      3179.0  Rx     0000010B  8  05 0F 00 00 00 00 00 00
   333)      3600.0  Rx     00000310  8  01 00 02 00 00 00 00 00
   334)      3700.0  Rx     0000050E  8  00 00 00 00 00 00 00 00
   335)      3729.0  Rx     0000010C  8  01 00 80 00 00 00 00 00
   336)      3788.0  Rx     0000012C  8  02 08 00 00 70 17 00 00
   337)      3799.0  Rx     0000019F  8  00 00 00 00 78 28 00 00
   338)      3899.0  Rx     0000050F  8  78 28 31 00 75 05 60 00
   339)      3918.0  Rx     0000012D  8  00 00 88 13 E0 2E 01 00
   340)      3999.0  Rx     000001A7  8  00 00 9C 18 08 00 44 16
   341)      4140.0  Rx     0000012A  8  10 00 00 00 00 02 00 00
   342)      4180.0  Rx     0000010B  8  05 0F 00 00 00 00 00 00
   343)      4599.0  Rx     00000310  8  01 00 02 00 00 00 00 00
   344)      4700.0  Rx     0000050E  8  00 00 00 00 00 00 00 00
   345)      4728.0  Rx     0000010C  8  01 00 80 00 00 00 00 00
   346)      4787.0  Rx     0000012C  8  02 08 00 00 70 17 00 00
   347)      4799.0  Rx     0000019F  8  00 00 00 00 79 28 00 00
   348)      4900.0  Rx     0000050F  8  78 28 31 00 77 05 60 00
   349)      4921.0  Rx     0000012D  8  00 00 88 13 E0 2E 01 00
   350)      4999.0  Rx     000001A7  8  00 00 9C 18 08 00 44 16
   351)      5137.0  Rx     0000012A  8  10 00 00 00 00 02 00 00
   352)      5177.0  Rx     0000010B  8  05 0F 00 00 00 00 00 00
   353)      5600.0  Rx     00000310  8  01 00 02 00 00 00 00 00
   354)      5700.0  Rx     0000050E  8  00 00 00 00 00 00 00 00
   355)      5730.0  Rx     0000010C  8  01 00 80 00 00 00 00 00
   356)      5792.0  Rx     0000012C  8  02 08 00 00 70 17 00 00
   357)      5799.0  Rx     0000019F  8  00 00 00 00 79 28 00 00
   358)      5899.0  Rx     0000050F  8  78 28 2E 00 75 05 60 00
   359)      5927.0  Rx     0000012D  8  00 00 88 13 E0 2E 01 00
   360)      6000.0  Rx     000001A7  8  00 00 9C 18 08 00 44 16
   361)      6139.0  Rx     0000012A  8  10 00 00 00 00 02 00 00
   362)      6178.0  Rx     0000010B  8  05 0F 00 00 00 00 00 00
   363)      6582.0  Rx     08192A3B  8  00 00 00 00 00 00 00 00
   364)      6600.0  Rx     00000310  8  01 00 02 00 00 00 00 00
   365)      6699.0  Rx     0000050E  8  00 00 00 00 00 00 00 00
   366)      6730.0  Rx     0000010C  8  01 00 80 00 00 00 00 00
   367)      6790.0  Rx     0000012C  8  02 08 00 00 70 17 00 00
   368)      6799.0  Rx     0000019F  8  00 00 00 00 79 28 00 00
   369)      6899.0  Rx     0000050F  8  79 28 30 00 74 05 60 00
   370)      6920.0  Rx     0000012D  8  00 00 88 13 E0 2E 01 00
   371)      6999.0  Rx     000001A7  8  00 00 9C 18 08 00 44 16
   372)      7099.0  Rx     10000201  8  03 02 02 00 00 00 03 00
   373)      7141.0  Rx     0000012A  8  10 00 00 00 00 02 00 00
   374)      7180.0  Rx     0000010B  8  05 0F 00 00 00 00 00 00
   375)      7200.0  Rx     10000202  8  00 00 00 00 00 00 00 00
   376)      7299.0  Rx     10000203  8  1E 00 03 00 38 0F 79 28
   377)      7400.0  Rx     10000204  8  52 28 D1 FF 77 05 60 00
   378)      7499.0  Rx     10000205  8  01 00 64 64 64 64 00 00
   379)      7502.0  Rx     10000206  8  00 00 44 16 9C 18 EC 13
   380)      7505.0  Rx     10000207  8  00 00 00 00 CF 0F 00 00
   381)      7508.0  Rx     10000208  8  00 00 00 00 00 00 00 00
   382)      7599.0  Rx     00000310  8  01 00 02 00 00 00 00 00
   383)      7699.0  Rx     0000050E  8  00 00 00 00 00 00 00 00
   384)      7727.0  Rx     0000010C  8  01 00 80 00 00 00 00 00
   385)      7788.0  Rx     0000012C  8  02 08 00 00 70 17 00 00
   386)      7799.0  Rx     0000019F  8  00 00 00 00 78 28 00 00
   387)      7899.0  Rx     0000050F  8  78 28 2E 00 75 05 60 00
   388)      7918.0  Rx     0000012D  8  00 00 88 13 E0 2E 01 00
   389)      7999.0  Rx     000001A7  8  00 00 9C 18 08 00 44 16
   390)      8139.0  Rx     0000012A  8  10 00 00 00 00 02 00 00
   391)      8178.0  Rx     0000010B  8  05 0F 00 00 00 00 00 00
   392)      8600.0  Rx     00000310  8  01 00 02 00 00 00 00 00
   393)      8699.0  Rx     0000050E  8  00 00 00 00 00 00 00 00
   394)      8727.0  Rx     0000010C  8  01 00 80 00 00 00 00 00
   395)      8789.0  Rx     0000012C  8  02 08 00 00 70 17 00 00
   396)      8799.0  Rx     0000019F  8  00 00 00 00 79 28 00 00
   397)      8899.0  Rx     0000050F  8  79 28 37 00 77 05 60 00
   398)      8920.0  Rx     0000012D  8  00 00 88 13 E0 2E 01 00
   399)      8999.0  Rx     000001A7  8  00 00 9C 18 08 00 44 16
   400)      9139.0  Rx     0000012A  8  10 00 00 00 00 02 00 00
   401)      9178.0  Rx     0000010B  8  05 0F 00 00 00 00 00 00
   402)      9600.0  Rx     00000310  8  01 00 02 00 00 00 00 00
   403)      9699.0  Rx     0000050E  8  00 00 00 00 00 00 00 00
   404)      9730.0  Rx     0000010C  8  01 00 80 00 00 00 00 00
   405)      9790.0  Rx     0000012C  8  02 08 00 00 70 17 00 00
   406)      9799.0  Rx     0000019F  8  00 00 00 00 78 28 00 00
   407)      9899.0  Rx     0000050F  8  79 28 2F 00 75 05 60 00
   408)      9919.0  Rx     0000012D  8  00 00 88 13 E0 2E 01 00
   409)       999.0  Rx     000001A7  8  00 00 9C 18 08 00 44 16
   410)      1138.0  Rx     0000012A  8  10 00 00 00 00 02 00 00
   411)      1177.0  Rx     0000010B  8  05 0F 00 00 00 00 00 00
   412)      1600.0  Rx     00000310  8  01 00 02 00 00 00 00 00
   413)      1699.0  Rx     0000050E  8  00 00 00 00 00 00 00 00
   414)      1727.0  Rx     0000010C  8  01 00 80 00 00 00 00 00
   415)      1788.0  Rx     0000012C  8  02 08 00 00 70 17 00 00
   416)      1799.0  Rx     0000019F  8  00 00 00 00 78 28 00 00
   417)      1899.0  Rx     0000050F  8  78 28 2D 00 77 05 60 00
   418)      1919.0  Rx     0000012D  8  00 00 88 13 E0 2E 01 00
   419)      1999.0  Rx     000001A7  8  00 00 9C 18 08 00 44 16
   420)      2139.0  Rx     0000012A  8  10 00 00 00 00 02 00 00
   421)      2179.0  Rx     0000010B  8  05 0F 00 00 00 00 00 00
   422)      2600.0  Rx     00000310  8  01 00 02 00 00 00 00 00
   423)      2699.0  Rx     0000050E  8  00 00 00 00 00 00 00 00
   424)      2729.0  Rx     0000010C  8  01 00 80 00 00 00 00 00
   425)      2790.0  Rx     0000012C  8  02 08 00 00 70 17 00 00
   426)      2800.0  Rx     0000019F  8  00 00 00 00 78 28 00 00
   427)      2899.0  Rx     0000050F  8  78 28 2D 00 76 05 60 00
   428)      2919.0  Rx     0000012D  8  00 00 88 13 E0 2E 01 00
   429)      2999.0  Rx     000001A7  8  00 00 9C 18 08 00 44 16
   430)      3139.0  Rx     0000012A  8  10 00 00 00 00 02 00 00
   431)      3179.0  Rx     0000010B  8  05 0F 00 00 00 00 00 00
   432)      3599.0  Rx     00000310  8  01 00 02 00 00 00 00 00
   433)      3699.0  Rx     0000050E  8  00 00 00 00 00 00 00 00
   434)      3727.0  Rx     0000010C  8  01 00 80 00 00 00 00 00
   435)      3788.0  Rx     0000012C  8  02 08 00 00 70 17 00 00
   436)      3799.0  Rx     0000019F  8  00 00 00 00 78 28 00 00
   437)      3899.0  Rx     0000050F  8  78 28 2A 00 74 05 60 00
   438)      3919.0  Rx     0000012D  8  00 00 88 13 E0 2E 01 00
   439)      3999.0  Rx     000001A7  8  00 00 9C 18 08 00 44 16
   440)      4140.0  Rx     0000012A  8  10 00 00 00 00 02 00 00
   441)      4177.0  Rx     0000010B  8  05 0F 00 00 00 00 00 00
   442)      4599.0  Rx     00000310  8  01 00 02 00 00 00 00 00
   443)      4699.0  Rx     0000050E  8  00 00 00 00 00 00 00 00
   444)      4729.0  Rx     0000010C  8  01 00 80 00 00 00 00 00
   445)      4787.0  Rx     0000012C  8  02 08 00 00 70 17 00 00
   446)      4799.0  Rx     0000019F  8  00 00 00 00 79 28 00 00
   447)      4899.0  Rx     0000050F  8  78 28 32 00 74 05 60 00
   448)      4917.0  Rx     0000012D  8  00 00 88 13 E0 2E 01 00
   449)      4999.0  Rx     000001A7  8  00 00 9C 18 08 00 44 16
   450)      5140.0  Rx     0000012A  8  10 00 00 00 00 02 00 00
   451)      5180.0  Rx     0000010B  8  05 0F 00 00 00 00 00 00
   452)      5599.0  Rx     00000310  8  01 00 02 00 00 00 00 00
   453)      5699.0  Rx     0000050E  8  00 00 00 00 00 00 00 00
   454)      5729.0  Rx     0000010C  8  01 00 80 00 00 00 00 00
   455)      5791.0  Rx     0000012C  8  02 08 00 00 70 17 00 00
   456)      5799.0  Rx     0000019F  8  00 00 00 00 78 28 00 00
   457)      5899.0  Rx     0000050F  8  78 28 2A 00 76 05 60 00
   458)      5918.0  Rx     0000012D  8  00 00 88 13 E0 2E 01 00
   459)      5999.0  Rx     000001A7  8  00 00 9C 18 08 00 44 16
   460)      6139.0  Rx     0000012A  8  10 00 00 00 00 02 00 00
   461)      6176.0  Rx     0000010B  8  05 0F 00 00 00 00 00 00
   462)      6599.0  Rx     00000310  8  01 00 02 00 00 00 00 00
   463)      6699.0  Rx     0000050E  8  00 00 00 00 00 00 00 00
   464)      6728.0  Rx     0000010C  8  01 00 80 00 00 00 00 00
   465)      6788.0  Rx     0000012C  8  02 08 00 00 70 17 00 00
   466)      6799.0  Rx     0000019F  8  00 00 00 00 78 28 00 00
   467)      6899.0  Rx     0000050F  8  78 28 33 00 77 05 60 00
   468)      6925.0  Rx     0000012D  8  00 00 88 13 E0 2E 01 00
   469)      6999.0  Rx     000001A7  8  00 00 9C 18 08 00 44 16
   470)      7139.0  Rx     0000012A  8  10 00 00 00 00 02 00 00
   471)      7178.0  Rx     0000010B  8  05 0F 00 00 00 00 00 00
   472)      7581.0  Rx     08192A3B  8  00 00 00 00 00 00 00 00
   473)      7599.0  Rx     00000310  8  01 00 02 00 00 00 00 00
   474)      7699.0  Rx     0000050E  8  00 00 00 00 00 00 00 00
   475)      7729.0  Rx     0000010C  8  01 00 80 00 00 00 00 00
   476)      7789.0  Rx     0000012C  8  02 08 00 00 70 17 00 00
   477)      7799.0  Rx     0000019F  8  00 00 00 00 79 28 00 00
   478)      7899.0  Rx     0000050F  8  79 28 2E 00 74 05 60 00
   479)      7918.0  Rx     0000012D  8  00 00 88 13 E0 2E 01 00
   480)      7999.0  Rx     000001A7  8  00 00 9C 18 08 00 44 16
   481)      8100.0  Rx     10000201  8  03 02 02 00 00 00 03 00
   482)      8138.0  Rx     0000012A  8  10 00 00 00 00 02 00 00
   483)      8179.0  Rx     0000010B  8  05 0F 00 00 00 00 00 00
   484)      8199.0  Rx     10000202  8  00 00 00 00 00 00 00 00
   485)      8299.0  Rx     10000203  8  0A 00 03 00 38 0F 79 28
   486)      8399.0  Rx     10000204  8  52 28 D1 FF 76 05 60 00
   487)      8499.0  Rx     10000205  8  01 00 64 64 64 64 00 00
   488)      8502.0  Rx     10000206  8  00 00 44 16 9C 18 EC 13
   489)      8505.0  Rx     10000207  8  00 00 00 00 E5 0F 00 00
   490)      8508.0  Rx     10000208  8  00 00 00 00 00 00 00 00
   491)      8599.0  Rx     00000310  8  01 00 02 00 00 00 00 00
   492)      8699.0  Rx     0000050E  8  00 00 00 00 00 00 00 00
   493)      8727.0  Rx     0000010C  8  01 00 80 00 00 00 00 00
   494)      8787.0  Rx     0000012C  8  02 08 00 00 70 17 00 00
   495)      8799.0  Rx     0000019F  8  00 00 00 00 78 28 00 00
   496)      8898.0  Rx     0000050F  8  78 28 34 00 76 05 60 00
   497)      8919.0  Rx     0000012D  8  00 00 88 13 E0 2E 01 00
   498)      8999.0  Rx     000001A7  8  00 00 9C 18 08 00 44 16
   499)      9138.0  Rx     0000012A  8  10 00 00 00 00 02 00 00
   500)      9178.0  Rx     0000010B  8  05 0F 00 00 00 00 00 00
   501)      9599.0  Rx     00000310  8  01 00 02 00 00 00 00 00
   502)      9699.0  Rx     0000050E  8  00 00 00 00 00 00 00 00
   503)      9730.0  Rx     0000010C  8  01 00 80 00 00 00 00 00
   504)      9788.0  Rx     0000012C  8  02 08 00 00 70 17 00 00
   505)      9799.0  Rx     0000019F  8  00 00 00 00 78 28 00 00
   506)      9899.0  Rx     0000050F  8  78 28 2E 00 76 05 60 00
   507)      9917.0  Rx     0000012D  8  00 00 88 13 E0 2E 01 00
   508)      9999.0  Rx     000001A7  8  00 00 9C 18 08 00 44 16
   509)     10139.0  Rx     0000012A  8  10 00 00 00 00 02 00 00
   510)     10180.0  Rx     0000010B  8  05 0F 00 00 00 00 00 00
   511)     10598.0  Rx     00000310  8  01 00 02 00 00 00 00 00
   512)     10698.0  Rx     0000050E  8  00 00 00 00 00 00 00 00
   513)     10730.0  Rx     0000010C  8  01 00 80 00 00 00 00 00
   514)     10788.0  Rx     0000012C  8  02 08 00 00 70 17 00 00
   515)     10799.0  Rx     0000019F  8  00 00 00 00 79 28 00 00
   516)     10898.0  Rx     0000050F  8  79 28 2D 00 74 05 60 00
   517)     10918.0  Rx     0000012D  8  00 00 88 13 E0 2E 01 00
   518)      1999.0  Rx     000001A7  8  00 00 9C 18 08 00 44 16
   519)      2138.0  Rx     0000012A  8  10 00 00 00 00 02 00 00
   520)      2179.0  Rx     0000010B  8  05 0F 00 00 00 00 00 00
   521)      2599.0  Rx     00000310  8  01 00 02 00 00 00 00 00
   522)      2699.0  Rx     0000050E  8  00 00 00 00 00 00 00 00
   523)      2728.0  Rx     0000010C  8  01 00 80 00 00 00 00 00
   524)      2790.0  Rx     0000012C  8  02 08 00 00 70 17 00 00
   525)      2799.0  Rx     0000019F  8  00 00 00 00 79 28 00 00
   526)      2898.0  Rx     0000050F  8  79 28 2E 00 77 05 60 00
   527)      2918.0  Rx     0000012D  8  00 00 88 13 E0 2E 01 00
   528)      2998.0  Rx     000001A7  8  00 00 9C 18 08 00 44 16
   529)      3140.0  Rx     0000012A  8  10 00 00 00 00 02 00 00
   530)      3179.0  Rx     0000010B  8  05 0F 00 00 00 00 00 00
   531)      3599.0  Rx     00000310  8  01 00 02 00 00 00 00 00
   532)      3699.0  Rx     0000050E  8  00 00 00 00 00 00 00 00
   533)      3729.0  Rx     0000010C  8  01 00 80 00 00 00 00 00
   534)      3789.0  Rx     0000012C  8  02 08 00 00 70 17 00 00
   535)      3799.0  Rx     0000019F  8  00 00 00 00 78 28 00 00
   536)      3898.0  Rx     0000050F  8  78 28 33 00 74 05 60 00
   537)      3920.0  Rx     0000012D  8  00 00 88 13 E0 2E 01 00
   538)      3999.0  Rx     000001A7  8  00 00 9C 18 08 00 44 16
   539)      4140.0  Rx     0000012A  8  10 00 00 00 00 02 00 00
   540)      4179.0  Rx     0000010B  8  05 0F 00 00 00 00 00 00
   541)      4599.0  Rx     00000310  8  01 00 02 00 00 00 00 00
   542)      4699.0  Rx     0000050E  8  00 00 00 00 00 00 00 00
   543)      4728.0  Rx     0000010C  8  01 00 80 00 00 00 00 00
   544)      4789.0  Rx     0000012C  8  02 08 00 00 70 17 00 00
   545)      4799.0  Rx     0000019F  8  00 00 00 00 78 28 00 00
   546)      4898.0  Rx     0000050F  8  78 28 2D 00 74 05 60 00
   547)      4919.0  Rx     0000012D  8  00 00 88 13 E0 2E 01 00
   548)      4999.0  Rx     000001A7  8  00 00 9C 18 08 00 44 16
   549)      5139.0  Rx     0000012A  8  10 00 00 00 00 02 00 00
   550)      5178.0  Rx     0000010B  8  05 0F 00 00 00 00 00 00
   551)      5599.0  Rx     00000310  8  01 00 02 00 00 00 00 00
   552)      5699.0  Rx     0000050E  8  00 00 00 00 00 00 00 00
   553)      5726.0  Rx     0000010C  8  01 00 80 00 00 00 00 00
   554)      5787.0  Rx     0000012C  8  02 08 00 00 70 17 00 00
   555)      5798.0  Rx     0000019F  8  00 00 00 00 78 28 00 00
   556)      5899.0  Rx     0000050F  8  79 28 24 00 75 05 60 00
   557)      5918.0  Rx     0000012D  8  00 00 88 13 E0 2E 01 00
   558)      5999.0  Rx     000001A7  8  00 00 9C 18 08 00 44 16
   559)      6098.0  Rx     00000644  8  13 0A 00 00 03 00 00 00
   560)      6138.0  Rx     0000012A  8  10 00 00 00 00 02 00 00
   561)      6176.0  Rx     0000010B  8  05 0F 00 00 00 00 00 00
   562)      6198.0  Rx     00000645  8  05 00 00 00 00 00 00 00
   563)      6599.0  Rx     00000310  8  01 00 02 00 00 00 00 00
   564)      6699.0  Rx     0000050E  8  00 00 00 00 00 00 00 00
   565)      6730.0  Rx     0000010C  8  01 00 80 00 00 00 00 00
   566)      6789.0  Rx     0000012C  8  02 08 00 00 70 17 00 00
   567)      6799.0  Rx     0000019F  8  00 00 00 00 78 28 00 00
   568)      6899.0  Rx     0000050F  8  78 28 31 00 76 05 60 00
   569)      6917.0  Rx     0000012D  8  00 00 88 13 E0 2E 01 00
   570)      6999.0  Rx     000001A7  8  00 00 9C 18 08 00 44 16
   571)      7139.0  Rx     0000012A  8  10 00 00 00 00 02 00 00
   572)      7179.0  Rx     0000010B  8  05 0F 00 00 00 00 00 00
   573)      7599.0  Rx     00000310  8  01 00 02 00 00 00 00 00
   574)      7699.0  Rx     0000050E  8  00 00 00 00 00 00 00 00
   575)      7729.0  Rx     0000010C  8  01 00 80 00 00 00 00 00
   576)      7788.0  Rx     0000012C  8  02 08 00 00 70 17 00 00
   577)      7799.0  Rx     0000019F  8  00 00 00 00 78 28 00 00
   578)      7899.0  Rx     0000050F  8  78 28 33 00 74 05 60 00
   579)      7926.0  Rx     0000012D  8  00 00 88 13 E0 2E 01 00
   580)      7998.0  Rx     000001A7  8  00 00 9C 18 08 00 44 16
   581)      8139.0  Rx     0000012A  8  10 00 00 00 00 02 00 00
   582)      8178.0  Rx     0000010B  8  05 0F 00 00 00 00 00 00
   583)      8582.0  Rx     08192A3B  8  00 00 00 00 00 00 00 00
   584)      8598.0  Rx     00000310  8  01 00 02 00 00 00 00 00
   585)      8699.0  Rx     0000050E  8  00 00 00 00 00 00 00 00
   586)      8728.0  Rx     0000010C  8  01 00 80 00 00 00 00 00
   587)      8788.0  Rx     0000012C  8  02 08 00 00 70 17 00 00
   588)      8798.0  Rx     0000019F  8  00 00 00 00 78 28 00 00
   589)      8898.0  Rx     0000050F  8  78 28 2A 00 75 05 60 00
   590)      8919.0  Rx     0000012D  8  00 00 88 13 E0 2E 01 00
   591)      8999.0  Rx     000001A7  8  00 00 9C 18 08 00 44 16
   592)      9099.0  Rx     10000201  8  03 02 02 00 00 00 03 00
   593)      9139.0  Rx     0000012A  8  10 00 00 00 00 02 00 00
   594)      9179.0  Rx     0000010B  8  05 0F 00 00 00 00 00 00
   595)      9200.0  Rx     10000202  8  00 00 00 00 00 00 00 00
   596)      9299.0  Rx     10000203  8  41 00 03 00 38 0F 79 28
   597)      9399.0  Rx     10000204  8  52 28 D1 FF 74 05 60 00
   598)      9499.0  Rx     10000205  8  01 00 64 64 64 64 00 00
   599)      9502.0  Rx     10000206  8  00 00 44 16 9C 18 EC 13
   600)      9505.0  Rx     10000207  8  00 00 00 00 91 10 00 00
   601)      9508.0  Rx     10000208  8  00 00 00 00 00 00 00 00
   602)      9599.0  Rx     00000310  8  01 00 02 00 00 00 00 00
   603)      9699.0  Rx     0000050E  8  00 00 00 00 00 00 00 00
   604)      9727.0  Rx     0000010C  8  01 00 80 00 00 00 00 00
   605)      9790.0  Rx     0000012C  8  02 08 00 00 70 17 00 00
   606)      9799.0  Rx     0000019F  8  00 00 00 00 78 28 00 00
   607)      9898.0  Rx     0000050F  8  78 28 33 00 77 05 60 00
   608)      9919.0  Rx     0000012D  8  00 00 88 13 E0 2E 01 00
   609)      9998.0  Rx     000001A7  8  00 00 9C 18 08 00 44 16
   610)     10137.0  Rx     0000012A  8  10 00 00 00 00 02 00 00
   611)     10178.0  Rx     0000010B  8  05 0F 00 00 00 00 00 00
   612)     10599.0  Rx     00000310  8  01 00 02 00 00 00 00 00
   613)     10699.0  Rx     0000050E  8  00 00 00 00 00 00 00 00
   614)     10731.0  Rx     0000010C  8  01 00 80 00 00 00 00 00
   615)     10789.0  Rx     0000012C  8  02 08 00 00 70 17 00 00
   616)     10798.0  Rx     0000019F  8  00 00 00 00 78 28 00 00
   617)     10899.0  Rx     0000050F  8  78 28 2A 00 75 05 60 00
   618)     10919.0  Rx     0000012D  8  00 00 88 13 E0 2E 01 00
   619)     10999.0  Rx     000001A7  8  00 00 9C 18 08 00 44 16
   620)     11138.0  Rx     0000012A  8  10 00 00 00 00 02 00 00
   621)     11178.0  Rx     0000010B  8  05 0F 00 00 00 00 00 00
   622)     11598.0  Rx     00000310  8  01 00 02 00 00 00 00 00
   623)     11699.0  Rx     0000050E  8  00 00 00 00 00 00 00 00
   624)     11730.0  Rx     0000010C  8  01 00 80 00 00 00 00 00
   625)     11787.0  Rx     0000012C  8  02 08 00 00 70 17 00 00
   626)     11799.0  Rx     0000019F  8  00 00 00 00 78 28 00 00
   627)     11899.0  Rx     0000050F  8  78 28 29 00 75 05 60 00
   628)     11922.0  Rx     0000012D  8  00 00 88 13 E0 2E 01 00
   629)      2998.0  Rx     000001A7  8  00 00 9C 18 08 00 44 16
   630)      3141.0  Rx     0000012A  8  10 00 00 00 00 02 00 00
   631)      3178.0  Rx     0000010B  8  05 0F 00 00 00 00 00 00
   632)      3599.0  Rx     00000310  8  01 00 02 00 00 00 00 00
   633)      3699.0  Rx     0000050E  8  00 00 00 00 00 00 00 00
   634)      3729.0  Rx     0000010C  8  01 00 80 00 00 00 00 00
   635)      3789.0  Rx     0000012C  8  02 08 00 00 70 17 00 00
   636)      3799.0  Rx     0000019F  8  00 00 00 00 78 28 00 00
   637)      3899.0  Rx     0000050F  8  78 28 2D 00 74 05 60 00
   638)      3919.0  Rx     0000012D  8  00 00 88 13 E0 2E 01 00
   639)      3998.0  Rx     000001A7  8  00 00 9C 18 08 00 44 16
   640)      4138.0  Rx     0000012A  8  10 00 00 00 00 02 00 00
   641)      4179.0  Rx     0000010B  8  05 0F 00 00 00 00 00 00
   642)      4598.0  Rx     00000310  8  01 00 02 00 00 00 00 00
   643)      4699.0  Rx     0000050E  8  00 00 00 00 00 00 00 00
   644)      4728.0  Rx     0000010C  8  01 00 80 00 00 00 00 00
   645)      4790.0  Rx     0000012C  8  02 08 00 00 70 17 00 00
   646)      4799.0  Rx     0000019F  8  00 00 00 00 78 28 00 00
   647)      4899.0  Rx     0000050F  8  78 28 2C 00 74 05 60 00
   648)      4920.0  Rx     0000012D  8  00 00 88 13 E0 2E 01 00
   649)      4998.0  Rx     000001A7  8  00 00 9C 18 08 00 44 16
   650)      5140.0  Rx     0000012A  8  10 00 00 00 00 02 00 00
   651)      5179.0  Rx     0000010B  8  05 0F 00 00 00 00 00 00
   652)      5599.0  Rx     00000310  8  01 00 02 00 00 00 00 00
   653)      5698.0  Rx     0000050E  8  00 00 00 00 00 00 00 00
   654)      5730.0  Rx     0000010C  8  01 00 80 00 00 00 00 00
   655)      5787.0  Rx     0000012C  8  02 08 00 00 70 17 00 00
   656)      5799.0  Rx     0000019F  8  00 00 00 00 78 28 00 00
   657)      5899.0  Rx     0000050F  8  79 28 2E 00 75 05 60 00
   658)      5921.0  Rx     0000012D  8  00 00 88 13 E0 2E 01 00
   659)      5998.0  Rx     000001A7  8  00 00 9C 18 08 00 44 16
   660)      6139.0  Rx     0000012A  8  10 00 00 00 00 02 00 00
   661)      6179.0  Rx     0000010B  8  05 0F 00 00 00 00 00 00
   662)      6599.0  Rx     00000310  8  01 00 02 00 00 00 00 00
   663)      6698.0  Rx     0000050E  8  00 00 00 00 00 00 00 00
   664)      6730.0  Rx     0000010C  8  01 00 80 00 00 00 00 00
   665)      6788.0  Rx     0000012C  8  02 08 00 00 70 17 00 00
   666)      6799.0  Rx     0000019F  8  00 00 00 00 79 28 00 00
   667)      6898.0  Rx     0000050F  8  78 28 31 00 77 05 60 00
   668)      6919.0  Rx     0000012D  8  00 00 88 13 E0 2E 01 00
   669)      6999.0  Rx     000001A7  8  00 00 9C 18 08 00 44 16
   670)      7141.0  Rx     0000012A  8  10 00 00 00 00 02 00 00
   671)      7179.0  Rx     0000010B  8  05 0F 00 00 00 00 00 00
   672)      7599.0  Rx     00000310  8  01 00 02 00 00 00 00 00
   673)      7699.0  Rx     0000050E  8  00 00 00 00 00 00 00 00
   674)      7730.0  Rx     0000010C  8  01 00 80 00 00 00 00 00
   675)      7790.0  Rx     0000012C  8  02 08 00 00 70 17 00 00
   676)      7798.0  Rx     0000019F  8  00 00 00 00 78 28 00 00
   677)      7898.0  Rx     0000050F  8  78 28 30 00 77 05 60 00
   678)      7921.0  Rx     0000012D  8  00 00 88 13 E0 2E 01 00
   679)      7998.0  Rx     000001A7  8  00 00 9C 18 08 00 44 16
   680)      8137.0  Rx     0000012A  8  10 00 00 00 00 02 00 00
   681)      8178.0  Rx     0000010B  8  05 0F 00 00 00 00 00 00
   682)      8599.0  Rx     00000310  8  01 00 02 00 00 00 00 00
   683)      8698.0  Rx     0000050E  8  00 00 00 00 00 00 00 00
   684)      8729.0  Rx     0000010C  8  01 00 80 00 00 00 00 00
   685)      8789.0  Rx     0000012C  8  02 08 00 00 70 17 00 00
   686)      8799.0  Rx     0000019F  8  00 00 00 00 79 28 00 00
   687)      8899.0  Rx     0000050F  8  78 28 31 00 74 05 60 00
   688)      8924.0  Rx     0000012D  8  00 00 88 13 E0 2E 01 00
   689)      8998.0  Rx     000001A7  8  00 00 9C 18 08 00 44 16
   690)      9142.0  Rx     0000012A  8  10 00 00 00 00 02 00 00
   691)      9181.0  Rx     0000010B  8  05 0F 00 00 00 00 00 00
   692)      9579.0  Rx     08192A3B  8  00 00 00 00 00 00 00 00
   693)      9598.0  Rx     00000310  8  01 00 02 00 00 00 00 00
   694)      9698.0  Rx     0000050E  8  00 00 00 00 00 00 00 00
   695)      9728.0  Rx     0000010C  8  01 00 80 00 00 00 00 00
   696)      9789.0  Rx     0000012C  8  02 08 00 00 70 17 00 00
   697)      9798.0  Rx     0000019F  8  00 00 00 00 78 28 00 00
   698)      9898.0  Rx     0000050F  8  78 28 29 00 74 05 60 00
   699)      9918.0  Rx     0000012D  8  00 00 88 13 E0 2E 01 00
   700)      9999.0  Rx     000001A7  8  00 00 9C 18 08 00 44 16
   701)     10099.0  Rx     10000201  8  03 02 02 00 00 00 03 00
   702)     10141.0  Rx     0000012A  8  10 00 00 00 00 02 00 00
   703)     10179.0  Rx     0000010B  8  05 0F 00 00 00 00 00 00
   704)     10199.0  Rx     10000202  8  00 00 00 00 00 00 00 00
   705)     10299.0  Rx     10000203  8  A8 00 03 00 38 0F 79 28
   706)     10398.0  Rx     10000204  8  52 28 D1 FF 76 05 60 00
   707)     10498.0  Rx     10000205  8  01 00 64 64 64 64 00 00
   708)     10501.0  Rx     10000206  8  00 00 44 16 9C 18 EC 13
   709)     10504.0  Rx     10000207  8  00 00 00 00 04 11 00 00
   710)     10507.0  Rx     10000208  8  00 00 00 00 00 00 00 00
   711)     10599.0  Rx     00000310  8  01 00 02 00 00 00 00 00
   712)     10699.0  Rx     0000050E  8  00 00 00 00 00 00 00 00
   713)     10729.0  Rx     0000010C  8  01 00 80 00 00 00 00 00
   714)     10789.0  Rx     0000012C  8  02 08 00 00 70 17 00 00
   715)     10799.0  Rx     0000019F  8  00 00 00 00 78 28 00 00
   716)     10899.0  Rx     0000050F  8  78 28 2D 00 77 05 60 00
   717)     10921.0  Rx     0000012D  8  00 00 88 13 E0 2E 01 00
   718)     10999.0  Rx     000001A7  8  00 00 9C 18 08 00 44 16
   719)     11137.0  Rx     0000012A  8  10 00 00 00 00 02 00 00
   720)     11177.0  Rx     0000010B  8  05 0F 00 00 00 00 00 00
   721)     11599.0  Rx     00000310  8  01 00 02 00 00 00 00 00
   722)     11699.0  Rx     0000050E  8  00 00 00 00 00 00 00 00
   723)     11729.0  Rx     0000010C  8  01 00 80 00 00 00 00 00
   724)     11791.0  Rx     0000012C  8  02 08 00 00 70 17 00 00
   725)     11799.0  Rx     0000019F  8  00 00 00 00 78 28 00 00
   726)     11898.0  Rx     0000050F  8  79 28 2E 00 76 05 60 00
   727)     11917.0  Rx     0000012D  8  00 00 88 13 E0 2E 01 00
   728)     11999.0  Rx     000001A7  8  00 00 9C 18 08 00 44 16
   729)     12139.0  Rx     0000012A  8  10 00 00 00 00 02 00 00
   730)     12179.0  Rx     0000010B  8  05 0F 00 00 00 00 00 00
   731)     12598.0  Rx     00000310  8  01 00 02 00 00 00 00 00
   732)     12699.0  Rx     0000050E  8  00 00 00 00 00 00 00 00
   733)     12727.0  Rx     0000010C  8  01 00 80 00 00 00 00 00
   734)     12789.0  Rx     0000012C  8  02 08 00 00 70 17 00 00
   735)     12799.0  Rx     0000019F  8  00 00 00 00 78 28 00 00
   736)     12898.0  Rx     0000050F  8  78 28 33 00 74 05 60 00
   737)     12917.0  Rx     0000012D  8  00 00 88 13 E0 2E 01 00
   738)      3998.0  Rx     000001A7  8  00 00 9C 18 08 00 44 16
   739)      4136.0  Rx     0000012A  8  10 00 00 00 00 02 00 00
   740)      4178.0  Rx     0000010B  8  05 0F 00 00 00 00 00 00
   741)      4598.0  Rx     00000310  8  01 00 02 00 00 00 00 00
   742)      4698.0  Rx     0000050E  8  00 00 00 00 00 00 00 00
   743)      4731.0  Rx     0000010C  8  01 00 80 00 00 00 00 00
   744)      4790.0  Rx     0000012C  8  02 08 00 00 70 17 00 00
   745)      4798.0  Rx     0000019F  8  00 00 00 00 78 28 00 00
   746)      4898.0  Rx     0000050F  8  78 28 26 00 74 05 60 00
   747)      4920.0  Rx     0000012D  8  00 00 88 13 E0 2E 01 00
   748)      4999.0  Rx     000001A7  8  00 00 9C 18 08 00 44 16
   749)      5142.0  Rx     0000012A  8  10 00 00 00 00 02 00 00
   750)      5178.0  Rx     0000010B  8  05 0F 00 00 00 00 00 00
   751)      5598.0  Rx     00000310  8  01 00 02 00 00 00 00 00
   752)      5698.0  Rx     0000050E  8  00 00 00 00 00 00 00 00
   753)      5731.0  Rx     0000010C  8  01 00 80 00 00 00 00 00
   754)      5789.0  Rx     0000012C  8  02 08 00 00 70 17 00 00
   755)      5799.0  Rx     0000019F  8  00 00 00 00 78 28 00 00
   756)      5898.0  Rx     0000050F  8  79 28 30 00 77 05 60 00
   757)      5921.0  Rx     0000012D  8  00 00 88 13 E0 2E 01 00
   758)      5999.0  Rx     000001A7  8  00 00 9C 18 08 00 44 16
   759)      6139.0  Rx     0000012A  8  10 00 00 00 00 02 00 00
   760)      6180.0  Rx     0000010B  8  05 0F 00 00 00 00 00 00
   761)      6598.0  Rx     00000310  8  01 00 02 00 00 00 00 00
   762)      6698.0  Rx     0000050E  8  00 00 00 00 00 00 00 00
   763)      6728.0  Rx     0000010C  8  01 00 80 00 00 00 00 00
   764)      6790.0  Rx     0000012C  8  02 08 00 00 70 17 00 00
   765)      6799.0  Rx     0000019F  8  00 00 00 00 78 28 00 00
   766)      6898.0  Rx     0000050F  8  78 28 34 00 77 05 60 00
   767)      6920.0  Rx     0000012D  8  00 00 88 13 E0 2E 01 00
   768)      6998.0  Rx     000001A7  8  00 00 9C 18 08 00 44 16
   769)      7139.0  Rx     0000012A  8  10 00 00 00 00 02 00 00
   770)      7179.0  Rx     0000010B  8  05 0F 00 00 00 00 00 00
   771)      7598.0  Rx     00000310  8  01 00 02 00 00 00 00 00
   772)      7698.0  Rx     0000050E  8  00 00 00 00 00 00 00 00
   773)      7732.0  Rx     0000010C  8  01 00 80 00 00 00 00 00
   774)      7787.0  Rx     0000012C  8  02 08 00 00 70 17 00 00
   775)      7799.0  Rx     0000019F  8  00 00 00 00 78 28 00 00
   776)      7898.0  Rx     0000050F  8  78 28 2E 00 76 05 60 00
   777)      7918.0  Rx     0000012D  8  00 00 88 13 E0 2E 01 00
   778)      7998.0  Rx     000001A7  8  00 00 9C 18 08 00 44 16
   779)      8137.0  Rx     0000012A  8  10 00 00 00 00 02 00 00
   780)      8179.0  Rx     0000010B  8  05 0F 00 00 00 00 00 00
   781)      8598.0  Rx     00000310  8  01 00 02 00 00 00 00 00
   782)      8699.0  Rx     0000050E  8  00 00 00 00 00 00 00 00
   783)      8728.0  Rx     0000010C  8  01 00 80 00 00 00 00 00
   784)      8789.0  Rx     0000012C  8  02 08 00 00 70 17 00 00
   785)      8799.0  Rx     0000019F  8  00 00 00 00 78 28 00 00
   786)      8899.0  Rx     0000050F  8  78 28 2C 00 77 05 60 00
   787)      8917.0  Rx     0000012D  8  00 00 88 13 E0 2E 01 00
   788)      8998.0  Rx     000001A7  8  00 00 9C 18 08 00 44 16
   789)      9137.0  Rx     0000012A  8  10 00 00 00 00 02 00 00
   790)      9176.0  Rx     0000010B  8  05 0F 00 00 00 00 00 00
   791)      9598.0  Rx     00000310  8  01 00 02 00 00 00 00 00
   792)      9699.0  Rx     0000050E  8  00 00 00 00 00 00 00 00
   793)      9731.0  Rx     0000010C  8  01 00 80 00 00 00 00 00
   794)      9791.0  Rx     0000012C  8  02 08 00 00 70 17 00 00
   795)      9798.0  Rx     0000019F  8  00 00 00 00 78 28 00 00
   796)      9899.0  Rx     0000050F  8  78 28 2F 00 75 05 60 00
   797)      9926.0  Rx     0000012D  8  00 00 88 13 E0 2E 01 00
   798)      9999.0  Rx     000001A7  8  00 00 9C 18 08 00 44 16
   799)     10139.0  Rx     0000012A  8  10 00 00 00 00 02 00 00
   800)     10181.0  Rx     0000010B  8  05 0F 00 00 00 00 00 00
   801)     10579.0  Rx     08192A3B  8  00 00 00 00 00 00 00 00
   802)     10599.0  Rx     00000310  8  01 00 02 00 00 00 00 00
   803)     10699.0  Rx     0000050E  8  00 00 00 00 00 00 00 00
   804)     10729.0  Rx     0000010C  8  01 00 80 00 00 00 00 00
   805)     10788.0  Rx     0000012C  8  02 08 00 00 70 17 00 00
   806)     10799.0  Rx     0000019F  8  00 00 00 00 78 28 00 00
   807)     10898.0  Rx     0000050F  8  78 28 31 00 76 05 60 00
   808)     10920.0  Rx     0000012D  8  00 00 88 13 E0 2E 01 00
   809)     10998.0  Rx     000001A7  8  00 00 9C 18 08 00 44 16
   810)     11098.0  Rx     10000201  8  03 02 02 00 00 00 03 00
   811)     11140.0  Rx     0000012A  8  10 00 00 00 00 02 00 00
   812)     11181.0  Rx     0000010B  8  05 0F 00 00 00 00 00 00
   813)     11199.0  Rx     10000202  8  00 00 00 00 00 00 00 00
   814)     11299.0  Rx     10000203  8  62 00 03 00 38 0F 79 28
   815)     11399.0  Rx     10000204  8  52 28 D1 FF 76 05 60 00
   816)     11499.0  Rx     10000205  8  01 00 64 64 64 64 00 00
   817)     11502.0  Rx     10000206  8  00 00 44 16 9C 18 EC 13
   818)     11505.0  Rx     10000207  8  00 00 00 00 85 10 00 00
   819)     11508.0  Rx     10000208  8  00 00 00 00 00 00 00 00
   820)     11598.0  Rx     00000310  8  01 00 02 00 00 00 00 00
   821)     11698.0  Rx     0000050E  8  00 00 00 00 00 00 00 00
   822)     11727.0  Rx     0000010C  8  01 00 80 00 00 00 00 00
   823)     11788.0  Rx     0000012C  8  02 08 00 00 70 17 00 00
   824)     11798.0  Rx     0000019F  8  00 00 00 00 78 28 00 00
   825)     11898.0  Rx     0000050F  8  78 28 2F 00 76 05 60 00
   826)     11919.0  Rx     0000012D  8  00 00 88 13 E0 2E 01 00
   827)     11998.0  Rx     000001A7  8  00 00 9C 18 08 00 44 16
   828)     12140.0  Rx     0000012A  8  10 00 00 00 00 02 00 00
   829)     12180.0  Rx     0000010B  8  05 0F 00 00 00 00 00 00
   830)     12598.0  Rx     00000310  8  01 00 02 00 00 00 00 00
   831)     12698.0  Rx     0000050E  8  00 00 00 00 00 00 00 00
   832)     12730.0  Rx     0000010C  8  01 00 80 00 00 00 00 00
   833)     12791.0  Rx     0000012C  8  02 08 00 00 70 17 00 00
   834)     12798.0  Rx     0000019F  8  00 00 00 00 78 28 00 00
   835)     12898.0  Rx     0000050F  8  78 28 2F 00 74 05 60 00
   836)     12920.0  Rx     0000012D  8  00 00 88 13 E0 2E 01 00
   837)     12998.0  Rx     000001A7  8  00 00 9C 18 08 00 44 16
   838)     13143.0  Rx     0000012A  8  10 00 00 00 00 02 00 00
   839)     13182.0  Rx     0000010B  8  05 0F 00 00 00 00 00 00
   840)     13598.0  Rx     00000310  8  01 00 02 00 00 00 00 00
   841)     13698.0  Rx     0000050E  8  00 00 00 00 00 00 00 00
   842)     13728.0  Rx     0000010C  8  01 00 80 00 00 00 00 00
   843)     13791.0  Rx     0000012C  8  02 08 00 00 70 17 00 00
   844)     13798.0  Rx     0000019F  8  00 00 00 00 78 28 00 00
   845)     13898.0  Rx     0000050F  8  78 28 2D 00 77 05 60 00
   846)     13920.0  Rx     0000012D  8  00 00 88 13 E0 2E 01 00
   847)      4998.0  Rx     000001A7  8  00 00 9C 18 08 00 44 16
   848)      5138.0  Rx     0000012A  8  10 00 00 00 00 02 00 00
   849)      5179.0  Rx     0000010B  8  05 0F 00 00 00 00 00 00
   850)      5598.0  Rx     00000310  8  01 00 02 00 00 00 00 00
   851)      5698.0  Rx     0000050E  8  00 00 00 00 00 00 00 00
   852)      5730.0  Rx     0000010C  8  01 00 80 00 00 00 00 00
   853)      5791.0  Rx     0000012C  8  02 08 00 00 70 17 00 00
   854)      5798.0  Rx     0000019F  8  00 00 00 00 78 28 00 00
   855)      5898.0  Rx     0000050F  8  78 28 33 00 77 05 60 00
   856)      5922.0  Rx     0000012D  8  00 00 88 13 E0 2E 01 00
   857)      5998.0  Rx     000001A7  8  00 00 9C 18 08 00 44 16
   858)      6141.0  Rx     0000012A  8  10 00 00 00 00 02 00 00
   859)      6180.0  Rx     0000010B  8  05 0F 00 00 00 00 00 00
   860)      6599.0  Rx     00000310  8  01 00 02 00 00 00 00 00
   861)      6699.0  Rx     0000050E  8  00 00 00 00 00 00 00 00
   862)      6729.0  Rx     0000010C  8  01 00 80 00 00 00 00 00
   863)      6790.0  Rx     0000012C  8  02 08 00 00 70 17 00 00
   864)      6798.0  Rx     0000019F  8  00 00 00 00 78 28 00 00
   865)      6898.0  Rx     0000050F  8  78 28 33 00 74 05 60 00
   866)      6920.0  Rx     0000012D  8  00 00 88 13 E0 2E 01 00
   867)      6998.0  Rx     000001A7  8  00 00 9C 18 08 00 44 16
   868)      7139.0  Rx     0000012A  8  10 00 00 00 00 02 00 00
   869)      7181.0  Rx     0000010B  8  05 0F 00 00 00 00 00 00
   870)      7599.0  Rx     00000310  8  01 00 02 00 00 00 00 00
   871)      7698.0  Rx     0000050E  8  00 00 00 00 00 00 00 00
   872)      7729.0  Rx     0000010C  8  01 00 80 00 00 00 00 00
   873)      7787.0  Rx     0000012C  8  02 08 00 00 70 17 00 00
   874)      7798.0  Rx     0000019F  8  00 00 00 00 78 28 00 00
   875)      7897.0  Rx     0000050F  8  78 28 36 00 77 05 60 00
   876)      7921.0  Rx     0000012D  8  00 00 88 13 E0 2E 01 00
   877)      7998.0  Rx     000001A7  8  00 00 9C 18 08 00 44 16
   878)      8140.0  Rx     0000012A  8  10 00 00 00 00 02 00 00
   879)      8180.0  Rx     0000010B  8  05 0F 00 00 00 00 00 00
   880)      8598.0  Rx     00000310  8  01 00 02 00 00 00 00 00
   881)      8698.0  Rx     0000050E  8  00 00 00 00 00 00 00 00
   882)      8728.0  Rx     0000010C  8  01 00 80 00 00 00 00 00
   883)      8790.0  Rx     0000012C  8  02 08 00 00 70 17 00 00
   884)      8799.0  Rx     0000019F  8  00 00 00 00 78 28 00 00
   885)      8898.0  Rx     0000050F  8  78 28 2E 00 77 05 60 00
   886)      8919.0  Rx     0000012D  8  00 00 88 13 E0 2E 01 00
   887)      8998.0  Rx     000001A7  8  00 00 9C 18 08 00 44 16
   888)      9138.0  Rx     0000012A  8  10 00 00 00 00 02 00 00
   889)      9178.0  Rx     0000010B  8  05 0F 00 00 00 00 00 00
   890)      9598.0  Rx     00000310  8  01 00 02 00 00 00 00 00
   891)      9698.0  Rx     0000050E  8  00 00 00 00 00 00 00 00
   892)      9729.0  Rx     0000010C  8  01 00 80 00 00 00 00 00
   893)      9791.0  Rx     0000012C  8  02 08 00 00 70 17 00 00
   894)      9798.0  Rx     0000019F  8  00 00 00 00 78 28 00 00
   895)      9898.0  Rx     0000050F  8  78 28 2D 00 76 05 60 00
   896)      9918.0  Rx     0000012D  8  00 00 88 13 E0 2E 01 00
   897)      9998.0  Rx     000001A7  8  00 00 9C 18 08 00 44 16
   898)     10137.0  Rx     0000012A  8  10 00 00 00 00 02 00 00
   899)     10179.0  Rx     0000010B  8  05 0F 00 00 00 00 00 00
   900)     10598.0  Rx     00000310  8  01 00 02 00 00 00 00 00
   901)     10698.0  Rx     0000050E  8  00 00 00 00 00 00 00 00
   902)     10732.0  Rx     0000010C  8  01 00 80 00 00 00 00 00
   903)     10791.0  Rx     0000012C  8  02 08 00 00 70 17 00 00
   904)     10798.0  Rx     0000019F  8  00 00 00 00 78 28 00 00
   905)     10897.0  Rx     0000050F  8  78 28 2C 00 74 05 60 00
   906)     10928.0  Rx     0000012D  8  00 00 88 13 E0 2E 01 00
   907)     10998.0  Rx     000001A7  8  00 00 9C 18 08 00 44 16
   908)     11140.0  Rx     0000012A  8  10 00 00 00 00 02 00 00
   909)     11178.0  Rx     0000010B  8  05 0F 00 00 00 00 00 00
   910)     11581.0  Rx     08192A3B  8  00 00 00 00 00 00 00 00
   911)     11598.0  Rx     00000310  8  01 00 02 00 00 00 00 00
   912)     11698.0  Rx     0000050E  8  00 00 00 00 00 00 00 00
   913)     11728.0  Rx     0000010C  8  01 00 80 00 00 00 00 00
   914)     11788.0  Rx     0000012C  8  02 08 00 00 70 17 00 00
   915)     11798.0  Rx     0000019F  8  00 00 00 00 78 28 00 00
   916)     11898.0  Rx     0000050F  8  78 28 36 00 75 05 60 00
   917)     11918.0  Rx     0000012D  8  00 00 88 13 E0 2E 01 00
   918)     11998.0  Rx     000001A7  8  00 00 9C 18 08 00 44 16
   919)     12099.0  Rx     10000201  8  03 02 02 00 00 00 03 00
   920)     12140.0  Rx     0000012A  8  10 00 00 00 00 02 00 00
   921)     12178.0  Rx     0000010B  8  05 0F 00 00 00 00 00 00
   922)     12198.0  Rx     10000202  8  00 00 00 00 00 00 00 00
   923)     12298.0  Rx     10000203  8  22 00 03 00 38 0F 79 28
   924)     12398.0  Rx     10000204  8  52 28 D1 FF 76 05 60 00
   925)     12499.0  Rx     10000205  8  01 00 64 64 64 64 00 00
   926)     12502.0  Rx     10000206  8  00 00 44 16 9C 18 EC 13
   927)     12504.0  Rx     10000207  8  00 00 00 00 CB 0F 00 00
   928)     12507.0  Rx     10000208  8  00 00 00 00 00 00 00 00
   929)     12598.0  Rx     00000310  8  01 00 02 00 00 00 00 00
   930)     12698.0  Rx     0000050E  8  00 00 00 00 00 00 00 00
   931)     12728.0  Rx     0000010C  8  01 00 80 00 00 00 00 00
   932)     12788.0  Rx     0000012C  8  02 08 00 00 70 17 00 00
   933)     12798.0  Rx     0000019F  8  00 00 00 00 78 28 00 00
   934)     12898.0  Rx     0000050F  8  78 28 37 00 74 05 60 00
   935)     12919.0  Rx     0000012D  8  00 00 88 13 E0 2E 01 00
   936)     12998.0  Rx     000001A7  8  00 00 9C 18 08 00 44 16
   937)     13137.0  Rx     0000012A  8  10 00 00 00 00 02 00 00
   938)     13177.0  Rx     0000010B  8  05 0F 00 00 00 00 00 00
   939)     13598.0  Rx     00000310  8  01 00 02 00 00 00 00 00
   940)     13698.0  Rx     0000050E  8  00 00 00 00 00 00 00 00
   941)     13728.0  Rx     0000010C  8  01 00 80 00 00 00 00 00
   942)     13788.0  Rx     0000012C  8  02 08 00 00 70 17 00 00
   943)     13798.0  Rx     0000019F  8  00 00 00 00 78 28 00 00
   944)     13898.0  Rx     0000050F  8  77 28 34 00 75 05 60 00
   945)     13917.0  Rx     0000012D  8  00 00 88 13 E0 2E 01 00
   946)     13998.0  Rx     000001A7  8  00 00 9C 18 08 00 44 16
   947)     14138.0  Rx     0000012A  8  10 00 00 00 00 02 00 00
   948)     14177.0  Rx     0000010B  8  05 0F 00 00 00 00 00 00
   949)     14597.0  Rx     00000310  8  01 00 02 00 00 00 00 00
   950)     14698.0  Rx     0000050E  8  00 00 00 00 00 00 00 00
   951)     14728.0  Rx     0000010C  8  01 00 80 00 00 00 00 00
   952)     14789.0  Rx     0000012C  8  02 08 00 00 70 17 00 00
   953)     14798.0  Rx     0000019F  8  00 00 00 00 78 28 00 00
   954)     14898.0  Rx     0000050F  8  78 28 2E 00 74 05 60 00
   955)     14917.0  Rx     0000012D  8  00 00 88 13 E0 2E 01 00
   956)      5998.0  Rx     000001A7  8  00 00 9C 18 08 00 44 16
   957)      6138.0  Rx     0000012A  8  10 00 00 00 00 02 00 00
   958)      6178.0  Rx     0000010B  8  05 0F 00 00 00 00 00 00
   959)      6598.0  Rx     00000310  8  01 00 02 00 00 00 00 00
   960)      6698.0  Rx     0000050E  8  00 00 00 00 00 00 00 00
   961)      6731.0  Rx     0000010C  8  01 00 80 00 00 00 00 00
   962)      6789.0  Rx     0000012C  8  02 08 00 00 70 17 00 00
   963)      6798.0  Rx     0000019F  8  00 00 00 00 78 28 00 00
   964)      6898.0  Rx     0000050F  8  78 28 2D 00 75 05 60 00
   965)      6918.0  Rx     0000012D  8  00 00 88 13 E0 2E 01 00
   966)      6998.0  Rx     000001A7  8  00 00 9C 18 08 00 44 16
   967)      7141.0  Rx     0000012A  8  10 00 00 00 00 02 00 00
   968)      7180.0  Rx     0000010B  8  05 0F 00 00 00 00 00 00
   969)      7598.0  Rx     00000310  8  01 00 02 00 00 00 00 00
   970)      7698.0  Rx     0000050E  8  00 00 00 00 00 00 00 00
   971)      7732.0  Rx     0000010C  8  01 00 80 00 00 00 00 00
   972)      7792.0  Rx     0000012C  8  02 08 00 00 70 17 00 00
   973)      7798.0  Rx     0000019F  8  00 00 00 00 78 28 00 00
   974)      7898.0  Rx     0000050F  8  78 28 2B 00 75 05 60 00
   975)      7920.0  Rx     0000012D  8  00 00 88 13 E0 2E 01 00
   976)      7997.0  Rx     000001A7  8  00 00 9C 18 08 00 44 16
   977)      8139.0  Rx     0000012A  8  10 00 00 00 00 02 00 00
   978)      8180.0  Rx     0000010B  8  05 0F 00 00 00 00 00 00
   979)      8598.0  Rx     00000310  8  01 00 02 00 00 00 00 00
   980)      8698.0  Rx     0000050E  8  00 00 00 00 00 00 00 00
   981)      8728.0  Rx     0000010C  8  01 00 80 00 00 00 00 00
   982)      8790.0  Rx     0000012C  8  02 08 00 00 70 17 00 00
   983)      8798.0  Rx     0000019F  8  00 00 00 00 78 28 00 00
   984)      8897.0  Rx     0000050F  8  78 28 30 00 76 05 60 00
   985)      8921.0  Rx     0000012D  8  00 00 88 13 E0 2E 01 00
   986)      8998.0  Rx     000001A7  8  00 00 9C 18 08 00 44 16
   987)      9138.0  Rx     0000012A  8  10 00 00 00 00 02 00 00
   988)      9179.0  Rx     0000010B  8  05 0F 00 00 00 00 00 00
   989)      9598.0  Rx     00000310  8  01 00 02 00 00 00 00 00
   990)      9698.0  Rx     0000050E  8  00 00 00 00 00 00 00 00
   991)      9731.0  Rx     0000010C  8  01 00 80 00 00 00 00 00
   992)      9790.0  Rx     0000012C  8  02 08 00 00 70 17 00 00
   993)      9798.0  Rx     0000019F  8  00 00 00 00 78 28 00 00
   994)      9898.0  Rx     0000050F  8  78 28 2F 00 77 05 60 00
   995)      9920.0  Rx     0000012D  8  00 00 88 13 E0 2E 01 00
   996)      9998.0  Rx     000001A7  8  00 00 9C 18 08 00 44 16
   997)     10138.0  Rx     0000012A  8  10 00 00 00 00 02 00 00
   998)     10178.0  Rx     0000010B  8  05 0F 00 00 00 00 00 00
   999)     10597.0  Rx     00000310  8  01 00 02 00 00 00 00 00
  1000)     10697.0  Rx     0000050E  8  00 00 00 00 00 00 00 00
  1001)     10731.0  Rx     0000010C  8  01 00 80 00 00 00 00 00
  1002)     10788.0  Rx     0000012C  8  02 08 00 00 70 17 00 00
  1003)     10798.0  Rx     0000019F  8  00 00 00 00 78 28 00 00
  1004)     10897.0  Rx     0000050F  8  78 28 2E 00 77 05 60 00
  1005)     10918.0  Rx     0000012D  8  00 00 88 13 E0 2E 01 00
  1006)     10997.0  Rx     000001A7  8  00 00 9C 18 08 00 44 16
  1007)     11139.0  Rx     0000012A  8  10 00 00 00 00 02 00 00
  1008)     11176.0  Rx     0000010B  8  05 0F 00 00 00 00 00 00
  1009)     11598.0  Rx     00000310  8  01 00 02 00 00 00 00 00
  1010)     11698.0  Rx     0000050E  8  00 00 00 00 00 00 00 00
  1011)     11729.0  Rx     0000010C  8  01 00 80 00 00 00 00 00
  1012)     11791.0  Rx     0000012C  8  02 08 00 00 70 17 00 00
  1013)     11798.0  Rx     0000019F  8  00 00 00 00 78 28 00 00
  1014)     11898.0  Rx     0000050F  8  78 28 32 00 76 05 60 00
  1015)     11927.0  Rx     0000012D  8  00 00 88 13 E0 2E 01 00
  1016)     11997.0  Rx     000001A7  8  00 00 9C 18 08 00 44 16
  1017)     12139.0  Rx     0000012A  8  10 00 00 00 00 02 00 00
  1018)     12179.0  Rx     0000010B  8  05 0F 00 00 00 00 00 00
  1019)     12582.0  Rx     08192A3B  8  00 00 00 00 00 00 00 00
  1020)     12598.0  Rx     00000310  8  01 00 02 00 00 00 00 00
  1021)     12697.0  Rx     0000050E  8  00 00 00 00 00 00 00 00
  1022)     12731.0  Rx     0000010C  8  01 00 80 00 00 00 00 00
  1023)     12791.0  Rx     0000012C  8  02 08 00 00 70 17 00 00
  1024)     12798.0  Rx     0000019F  8  00 00 00 00 78 28 00 00
  1025)     12898.0  Rx     0000050F  8  78 28 39 00 77 05 60 00
  1026)     12919.0  Rx     0000012D  8  00 00 88 13 E0 2E 01 00
  1027)     12998.0  Rx     000001A7  8  00 00 9C 18 08 00 44 16
  1028)     13098.0  Rx     10000201  8  03 02 02 00 00 00 03 00
  1029)     13141.0  Rx     0000012A  8  10 00 00 00 00 02 00 00
  1030)     13180.0  Rx     0000010B  8  05 0F 00 00 00 00 00 00
  1031)     13198.0  Rx     10000202  8  00 00 00 00 00 00 00 00
  1032)     13298.0  Rx     10000203  8  0B 00 03 00 38 0F 79 28
  1033)     13398.0  Rx     10000204  8  52 28 D1 FF 77 05 60 00
  1034)     13498.0  Rx     10000205  8  01 00 64 64 64 64 00 00
  1035)     13501.0  Rx     10000206  8  00 00 44 16 9C 18 EC 13
  1036)     13503.0  Rx     10000207  8  00 00 00 00 E6 0F 00 00
  1037)     13506.0  Rx     10000208  8  00 00 00 00 00 00 00 00
  1038)     13598.0  Rx     00000310  8  01 00 02 00 00 00 00 00
  1039)     13697.0  Rx     0000050E  8  00 00 00 00 00 00 00 00
  1040)     13727.0  Rx     0000010C  8  01 00 80 00 00 00 00 00
  1041)     13790.0  Rx     0000012C  8  02 08 00 00 70 17 00 00
  1042)     13797.0  Rx     0000019F  8  00 00 00 00 78 28 00 00
  1043)     13897.0  Rx     0000050F  8  78 28 35 00 76 05 60 00
  1044)     13921.0  Rx     0000012D  8  00 00 88 13 E0 2E 01 00
  1045)     13997.0  Rx     000001A7  8  00 00 9C 18 08 00 44 16
  1046)     14137.0  Rx     0000012A  8  10 00 00 00 00 02 00 00
  1047)     14178.0  Rx     0000010B  8  05 0F 00 00 00 00 00 00
  1048)     14598.0  Rx     00000310  8  01 00 02 00 00 00 00 00
  1049)     14698.0  Rx     0000050E  8  00 00 00 00 00 00 00 00
  1050)     14727.0  Rx     0000010C  8  01 00 80 00 00 00 00 00
  1051)     14787.0  Rx     0000012C  8  02 08 00 00 70 17 00 00
  1052)     14798.0  Rx     0000019F  8  00 00 00 00 78 28 00 00
  1053)     14898.0  Rx     0000050F  8  78 28 31 00 76 05 60 00
  1054)     14918.0  Rx     0000012D  8  00 00 88 13 E0 2E 01 00
  1055)     14997.0  Rx     000001A7  8  00 00 9C 18 08 00 44 16
  1056)     15137.0  Rx     0000012A  8  10 00 00 00 00 02 00 00
  1057)     15178.0  Rx     0000010B  8  05 0F 00 00 00 00 00 00
  1058)     15597.0  Rx     00000310  8  01 00 02 00 00 00 00 00
  1059)     15698.0  Rx     0000050E  8  00 00 00 00 00 00 00 00
  1060)     15728.0  Rx     0000010C  8  01 00 80 00 00 00 00 00
  1061)     15788.0  Rx     0000012C  8  02 08 00 00 70 17 00 00
  1062)     15797.0  Rx     0000019F  8  00 00 00 00 78 28 00 00
  1063)     15897.0  Rx     0000050F  8  78 28 2D 00 77 05 60 00
  1064)     15918.0  Rx     0000012D  8  00 00 88 13 E0 2E 01 00
  1065)      6998.0  Rx     000001A7  8  00 00 9C 18 08 00 44 16
  1066)      7139.0  Rx     0000012A  8  10 00 00 00 00 02 00 00
  1067)      7177.0  Rx     0000010B  8  05 0F 00 00 00 00 00 00
  1068)      7598.0  Rx     00000310  8  01 00 02 00 00 00 00 00
  1069)      7697.0  Rx     0000050E  8  00 00 00 00 00 00 00 00
  1070)      7728.0  Rx     0000010C  8  01 00 80 00 00 00 00 00
  1071)      7789.0  Rx     0000012C  8  02 08 00 00 70 17 00 00
  1072)      7798.0  Rx     0000019F  8  00 00 00 00 78 28 00 00
  1073)      7898.0  Rx     0000050F  8  78 28 30 00 76 05 60 00
  1074)      7919.0  Rx     0000012D  8  00 00 88 13 E0 2E 01 00
  1075)      7998.0  Rx     000001A7  8  00 00 9C 18 08 00 44 16
  1076)      8140.0  Rx     0000012A  8  10 00 00 00 00 02 00 00
  1077)      8178.0  Rx     0000010B  8  05 0F 00 00 00 00 00 00
  1078)      8598.0  Rx     00000310  8  01 00 02 00 00 00 00 00
  1079)      8698.0  Rx     0000050E  8  00 00 00 00 00 00 00 00
  1080)      8728.0  Rx     0000010C  8  01 00 80 00 00 00 00 00
  1081)      8789.0  Rx     0000012C  8  02 08 00 00 70 17 00 00
  1082)      8798.0  Rx     0000019F  8  00 00 00 00 78 28 00 00
  1083)      8898.0  Rx     0000050F  8  78 28 2E 00 76 05 60 00
  1084)      8917.0  Rx     0000012D  8  00 00 88 13 E0 2E 01 00
  1085)      8997.0  Rx     000001A7  8  00 00 9C 18 08 00 44 16
  1086)      9140.0  Rx     0000012A  8  10 00 00 00 00 02 00 00
  1087)      9179.0  Rx     0000010B  8  05 0F 00 00 00 00 00 00
  1088)      9597.0  Rx     00000310  8  01 00 02 00 00 00 00 00
  1089)      9698.0  Rx     0000050E  8  00 00 00 00 00 00 00 00
  1090)      9728.0  Rx     0000010C  8  01 00 80 00 00 00 00 00
  1091)      9788.0  Rx     0000012C  8  02 08 00 00 70 17 00 00
  1092)      9798.0  Rx     0000019F  8  00 00 00 00 78 28 00 00
  1093)      9898.0  Rx     0000050F  8  78 28 30 00 75 05 60 00
  1094)      9917.0  Rx     0000012D  8  00 00 88 13 E0 2E 01 00
  1095)      9997.0  Rx     000001A7  8  00 00 9C 18 08 00 44 16
  1096)     10138.0  Rx     0000012A  8  10 00 00 00 00 02 00 00
  1097)     10180.0  Rx     0000010B  8  05 0F 00 00 00 00 00 00
  1098)     10597.0  Rx     00000310  8  01 00 02 00 00 00 00 00
  1099)     10698.0  Rx     0000050E  8  00 00 00 00 00 00 00 00
  1100)     10728.0  Rx     0000010C  8  01 00 80 00 00 00 00 00
  1101)     10788.0  Rx     0000012C  8  02 08 00 00 70 17 00 00
  1102)     10798.0  Rx     0000019F  8  00 00 00 00 78 28 00 00
  1103)     10897.0  Rx     0000050F  8  78 28 31 00 77 05 60 00
  1104)     10918.0  Rx     0000012D  8  00 00 88 13 E0 2E 01 00
  1105)     10998.0  Rx     000001A7  8  00 00 9C 18 08 00 44 16
  1106)     11097.0  Rx     00000644  8  13 0A 00 00 03 00 00 00
  1107)     11138.0  Rx     0000012A  8  10 00 00 00 00 02 00 00
  1108)     11179.0  Rx     0000010B  8  05 0F 00 00 00 00 00 00
  1109)     11197.0  Rx     00000645  8  05 00 00 00 00 00 00 00
  1110)     11597.0  Rx     00000310  8  01 00 02 00 00 00 00 00
  1111)     11698.0  Rx     0000050E  8  00 00 00 00 00 00 00 00
  1112)     11730.0  Rx     0000010C  8  01 00 80 00 00 00 00 00
  1113)     11790.0  Rx     0000012C  8  02 08 00 00 70 17 00 00
  1114)     11798.0  Rx     0000019F  8  00 00 00 00 78 28 00 00
  1115)     11897.0  Rx     0000050F  8  78 28 2F 00 75 05 60 00
  1116)     11920.0  Rx     0000012D  8  00 00 88 13 E0 2E 01 00
  1117)     11998.0  Rx     000001A7  8  00 00 9C 18 08 00 44 16
  1118)     12136.0  Rx     0000012A  8  10 00 00 00 00 02 00 00
  1119)     12178.0  Rx     0000010B  8  05 0F 00 00 00 00 00 00
  1120)     12598.0  Rx     00000310  8  01 00 02 00 00 00 00 00
  1121)     12698.0  Rx     0000050E  8  00 00 00 00 00 00 00 00
  1122)     12729.0  Rx     0000010C  8  01 00 80 00 00 00 00 00
  1123)     12791.0  Rx     0000012C  8  02 08 00 00 70 17 00 00
  1124)     12798.0  Rx     0000019F  8  00 00 00 00 78 28 00 00
  1125)     12898.0  Rx     0000050F  8  78 28 32 00 75 05 60 00
  1126)     12925.0  Rx     0000012D  8  00 00 88 13 E0 2E 01 00
  1127)     12998.0  Rx     000001A7  8  00 00 9C 18 08 00 44 16
  1128)     13138.0  Rx     0000012A  8  10 00 00 00 00 02 00 00
  1129)     13178.0  Rx     0000010B  8  05 0F 00 00 00 00 00 00
  1130)     13581.0  Rx     08192A3B  8  00 00 00 00 00 00 00 00
  1131)     13598.0  Rx     00000310  8  01 00 02 00 00 00 00 00
  1132)     13698.0  Rx     0000050E  8  00 00 00 00 00 00 00 00
  1133)     13732.0  Rx     0000010C  8  01 00 80 00 00 00 00 00
  1134)     13788.0  Rx     0000012C  8  02 08 00 00 70 17 00 00
  1135)     13798.0  Rx     0000019F  8  00 00 00 00 78 28 00 00
  1136)     13897.0  Rx     0000050F  8  78 28 2D 00 74 05 60 00
  1137)     13919.0  Rx     0000012D  8  00 00 88 13 E0 2E 01 00
  1138)     13998.0  Rx     000001A7  8  00 00 9C 18 08 00 44 16
  1139)     14098.0  Rx     10000201  8  03 02 02 00 00 00 03 00
  1140)     14138.0  Rx     0000012A  8  10 00 00 00 00 02 00 00
  1141)     14178.0  Rx     0000010B  8  05 0F 00 00 00 00 00 00
  1142)     14198.0  Rx     10000202  8  00 00 00 00 00 00 00 00
  1143)     14298.0  Rx     10000203  8  5A 00 03 00 38 0F 79 28
  1144)     14398.0  Rx     10000204  8  52 28 D1 FF 76 05 60 00
  1145)     14498.0  Rx     10000205  8  01 00 64 64 64 64 00 00
  1146)     14501.0  Rx     10000206  8  00 00 44 16 9C 18 EC 13
  1147)     14504.0  Rx     10000207  8  00 00 00 00 B2 10 00 00
  1148)     14507.0  Rx     10000208  8  00 00 00 00 00 00 00 00
