***BUSMASTER Ver 3.2.2***
***PROTOCOL CAN***
***NOTE: PLEASE DO NOT EDIT THIS DOCUMENT***
***[START LOGGING SESSION]***
***START DATE AND TIME 22:12:2025 17:55:10:294***
***HEX***
***SYSTEM MODE***
***START CHANNEL BAUD RATE***
***CHANNEL 1 - Vector - VN1630 log Channel 1 SN - 3953 - 500000 bps***
***END CHANNEL BAUD RATE***
***START DATABASE FILES***
***C:\Users\zzgurukul\Downloads\K3_DBC_V2.9 (1).dbf***
***END DATABASE FILES***
***<Time><Tx/Rx><Channel><CAN ID><Type><DLC><DataBytes>***
17:55:10:3004 Rx 1 0x1A7 s 8 00 00 9C 18 08 00 44 16 
17:55:10:3142 Rx 1 0x12A s 8 10 00 00 00 00 02 00 00 
17:55:10:3181 Rx 1 0x10B s 8 05 0F 00 00 00 00 00 00 
17:55:10:3604 Rx 1 0x310 s 8 01 00 02 00 00 00 00 00 
17:55:10:3704 Rx 1 0x50E s 8 00 00 00 00 00 00 00 00 
17:55:10:3731 Rx 1 0x10C s 8 01 00 80 00 00 00 00 00 
17:55:10:3790 Rx 1 0x12C s 8 02 08 00 00 70 17 00 00 
17:55:10:3804 Rx 1 0x19F s 8 00 00 00 00 78 28 00 00 
17:55:10:3904 Rx 1 0x50F s 8 78 28 33 00 75 05 5F 00 
17:55:10:3922 Rx 1 0x12D s 8 00 00 88 13 E0 2E 01 00 
17:55:10:4004 Rx 1 0x1A7 s 8 00 00 9C 18 08 00 44 16 
17:55:10:4104 Rx 1 0x644 s 8 13 0A 00 00 03 00 00 00 
17:55:10:4141 Rx 1 0x12A s 8 10 00 00 00 00 02 00 00 
17:55:10:4182 Rx 1 0x10B s 8 05 0F 00 00 00 00 00 00 
17:55:10:4204 Rx 1 0x645 s 8 05 00 00 00 00 00 00 00 
17:55:10:4604 Rx 1 0x310 s 8 01 00 02 00 00 00 00 00 
17:55:10:4704 Rx 1 0x50E s 8 00 00 00 00 00 00 00 00 
17:55:10:4732 Rx 1 0x10C s 8 01 00 80 00 00 00 00 00 
17:55:10:4791 Rx 1 0x12C s 8 02 08 00 00 70 17 00 00 
17:55:10:4805 Rx 1 0x19F s 8 00 00 00 00 78 28 00 00 
17:55:10:4904 Rx 1 0x50F s 8 78 28 30 00 77 05 5F 00 
17:55:10:4921 Rx 1 0x12D s 8 00 00 88 13 E0 2E 01 00 
17:55:10:5004 Rx 1 0x1A7 s 8 00 00 9C 18 08 00 44 16 
17:55:10:5141 Rx 1 0x12A s 8 10 00 00 00 00 02 00 00 
17:55:10:5180 Rx 1 0x10B s 8 05 0F 00 00 00 00 00 00 
17:55:10:5605 Rx 1 0x310 s 8 01 00 02 00 00 00 00 00 
17:55:10:5704 Rx 1 0x50E s 8 00 00 00 00 00 00 00 00 
17:55:10:5730 Rx 1 0x10C s 8 01 00 80 00 00 00 00 00 
17:55:10:5794 Rx 1 0x12C s 8 02 08 00 00 70 17 00 00 
17:55:10:5804 Rx 1 0x19F s 8 00 00 00 00 78 28 00 00 
17:55:10:5904 Rx 1 0x50F s 8 78 28 2F 00 76 05 5F 00 
17:55:10:5929 Rx 1 0x12D s 8 00 00 88 13 E0 2E 01 00 
17:55:10:6004 Rx 1 0x1A7 s 8 00 00 9C 18 08 00 44 16 
17:55:10:6141 Rx 1 0x12A s 8 10 00 00 00 00 02 00 00 
17:55:10:6181 Rx 1 0x10B s 8 05 0F 00 00 00 00 00 00 
17:55:10:6584 Rx 1 0x8192A3B x 8 00 00 00 00 00 00 00 00 
17:55:10:6604 Rx 1 0x310 s 8 01 00 02 00 00 00 00 00 
17:55:10:6704 Rx 1 0x50E s 8 00 00 00 00 00 00 00 00 
17:55:10:6732 Rx 1 0x10C s 8 01 00 80 00 00 00 00 00 
17:55:10:6791 Rx 1 0x12C s 8 02 08 00 00 70 17 00 00 
17:55:10:6804 Rx 1 0x19F s 8 00 00 00 00 78 28 00 00 
17:55:10:6903 Rx 1 0x50F s 8 79 28 28 00 74 05 5F 00 
17:55:10:6923 Rx 1 0x12D s 8 00 00 88 13 E0 2E 01 00 
17:55:10:7004 Rx 1 0x1A7 s 8 00 00 9C 18 08 00 44 16 
17:55:10:7105 Rx 1 0x10000201 x 8 03 02 02 00 00 00 03 00 
17:55:10:7141 Rx 1 0x12A s 8 10 00 00 00 00 02 00 00 
17:55:10:7181 Rx 1 0x10B s 8 05 0F 00 00 00 00 00 00 
17:55:10:7204 Rx 1 0x10000202 x 8 00 00 00 00 00 00 00 00 
17:55:10:7305 Rx 1 0x10000203 x 8 67 00 03 00 38 0F 79 28 
17:55:10:7404 Rx 1 0x10000204 x 8 52 28 D1 FF 76 05 5F 00 
17:55:10:7505 Rx 1 0x10000205 x 8 01 00 64 64 64 64 00 00 
17:55:10:7507 Rx 1 0x10000206 x 8 00 00 44 16 9C 18 EC 13 
17:55:10:7510 Rx 1 0x10000207 x 8 00 00 00 00 D1 10 00 00 
17:55:10:7513 Rx 1 0x10000208 x 8 00 00 00 00 00 00 00 00 
17:55:10:7604 Rx 1 0x310 s 8 01 00 02 00 00 00 00 00 
17:55:10:7704 Rx 1 0x50E s 8 00 00 00 00 00 00 00 00 
17:55:10:7731 Rx 1 0x10C s 8 01 00 80 00 00 00 00 00 
17:55:10:7792 Rx 1 0x12C s 8 02 08 00 00 70 17 00 00 
17:55:10:7804 Rx 1 0x19F s 8 00 00 00 00 78 28 00 00 
17:55:10:7904 Rx 1 0x50F s 8 78 28 2B 00 76 05 5F 00 
17:55:10:7922 Rx 1 0x12D s 8 00 00 88 13 E0 2E 01 00 
17:55:10:8004 Rx 1 0x1A7 s 8 00 00 9C 18 08 00 44 16 
17:55:10:8142 Rx 1 0x12A s 8 10 00 00 00 00 02 00 00 
17:55:10:8181 Rx 1 0x10B s 8 05 0F 00 00 00 00 00 00 
17:55:10:8604 Rx 1 0x310 s 8 01 00 02 00 00 00 00 00 
17:55:10:8704 Rx 1 0x50E s 8 00 00 00 00 00 00 00 00 
17:55:10:8731 Rx 1 0x10C s 8 01 00 80 00 00 00 00 00 
17:55:10:8790 Rx 1 0x12C s 8 02 08 00 00 70 17 00 00 
17:55:10:8804 Rx 1 0x19F s 8 00 00 00 00 78 28 00 00 
17:55:10:8904 Rx 1 0x50F s 8 78 28 2A 00 76 05 5F 00 
17:55:10:8920 Rx 1 0x12D s 8 00 00 88 13 E0 2E 01 00 
17:55:10:9003 Rx 1 0x1A7 s 8 00 00 9C 18 08 00 44 16 
17:55:10:9143 Rx 1 0x12A s 8 10 00 00 00 00 02 00 00 
17:55:10:9182 Rx 1 0x10B s 8 05 0F 00 00 00 00 00 00 
17:55:10:9604 Rx 1 0x310 s 8 01 00 02 00 00 00 00 00 
17:55:10:9704 Rx 1 0x50E s 8 00 00 00 00 00 00 00 00 
17:55:10:9732 Rx 1 0x10C s 8 01 00 80 00 00 00 00 00 
17:55:10:9794 Rx 1 0x12C s 8 02 08 00 00 70 17 00 00 
17:55:10:9804 Rx 1 0x19F s 8 00 00 00 00 78 28 00 00 
17:55:10:9904 Rx 1 0x50F s 8 78 28 2C 00 75 05 5F 00 
17:55:10:9922 Rx 1 0x12D s 8 00 00 88 13 E0 2E 01 00 
17:55:11:0004 Rx 1 0x1A7 s 8 00 00 9C 18 08 00 44 16 
17:55:11:0142 Rx 1 0x12A s 8 10 00 00 00 00 02 00 00 
17:55:11:0180 Rx 1 0x10B s 8 05 0F 00 00 00 00 00 00 
17:55:11:0604 Rx 1 0x310 s 8 01 00 02 00 00 00 00 00 
17:55:11:0704 Rx 1 0x50E s 8 00 00 00 00 00 00 00 00 
17:55:11:0734 Rx 1 0x10C s 8 01 00 80 00 00 00 00 00 
17:55:11:0794 Rx 1 0x12C s 8 02 08 00 00 70 17 00 00 
17:55:11:0804 Rx 1 0x19F s 8 00 00 00 00 78 28 00 00 
17:55:11:0904 Rx 1 0x50F s 8 78 28 33 00 76 05 5F 00 
17:55:11:0925 Rx 1 0x12D s 8 00 00 88 13 E0 2E 01 00 
17:55:11:1004 Rx 1 0x1A7 s 8 00 00 9C 18 08 00 44 16 
17:55:11:1142 Rx 1 0x12A s 8 10 00 00 00 00 02 00 00 
17:55:11:1183 Rx 1 0x10B s 8 05 0F 00 00 00 00 00 00 
17:55:11:1604 Rx 1 0x310 s 8 01 00 02 00 00 00 00 00 
17:55:11:1704 Rx 1 0x50E s 8 00 00 00 00 00 00 00 00 
17:55:11:1733 Rx 1 0x10C s 8 01 00 80 00 00 00 00 00 
17:55:11:1794 Rx 1 0x12C s 8 02 08 00 00 70 17 00 00 
17:55:11:1804 Rx 1 0x19F s 8 00 00 00 00 78 28 00 00 
17:55:11:1903 Rx 1 0x50F s 8 79 28 2F 00 74 05 5F 00 
17:55:11:1923 Rx 1 0x12D s 8 00 00 88 13 E0 2E 01 00 
17:55:11:2004 Rx 1 0x1A7 s 8 00 00 9C 18 08 00 44 16 
17:55:11:2141 Rx 1 0x12A s 8 10 00 00 00 00 02 00 00 
17:55:11:2182 Rx 1 0x10B s 8 05 0F 00 00 00 00 00 00 
17:55:11:2604 Rx 1 0x310 s 8 01 00 02 00 00 00 00 00 
17:55:11:2703 Rx 1 0x50E s 8 00 00 00 00 00 00 00 00 
17:55:11:2731 Rx 1 0x10C s 8 01 00 80 00 00 00 00 00 
17:55:11:2792 Rx 1 0x12C s 8 02 08 00 00 70 17 00 00 
17:55:11:2804 Rx 1 0x19F s 8 00 00 00 00 78 28 00 00 
17:55:11:2904 Rx 1 0x50F s 8 78 28 2A 00 75 05 5F 00 
17:55:11:2923 Rx 1 0x12D s 8 00 00 88 13 E0 2E 01 00 
17:55:11:3003 Rx 1 0x1A7 s 8 00 00 9C 18 08 00 44 16 
17:55:11:3141 Rx 1 0x12A s 8 10 00 00 00 00 02 00 00 
17:55:11:3181 Rx 1 0x10B s 8 05 0F 00 00 00 00 00 00 
17:55:11:3604 Rx 1 0x310 s 8 01 00 02 00 00 00 00 00 
17:55:11:3704 Rx 1 0x50E s 8 00 00 00 00 00 00 00 00 
17:55:11:3731 Rx 1 0x10C s 8 01 00 80 00 00 00 00 00 
17:55:11:3790 Rx 1 0x12C s 8 02 08 00 00 70 17 00 00 
17:55:11:3804 Rx 1 0x19F s 8 00 00 00 00 79 28 00 00 
17:55:11:3903 Rx 1 0x50F s 8 78 28 30 00 75 05 5F 00 
17:55:11:3922 Rx 1 0x12D s 8 00 00 88 13 E0 2E 01 00 
17:55:11:4004 Rx 1 0x1A7 s 8 00 00 9C 18 08 00 44 16 
17:55:11:4144 Rx 1 0x12A s 8 10 00 00 00 00 02 00 00 
17:55:11:4181 Rx 1 0x10B s 8 05 0F 00 00 00 00 00 00 
17:55:11:4604 Rx 1 0x310 s 8 01 00 02 00 00 00 00 00 
17:55:11:4703 Rx 1 0x50E s 8 00 00 00 00 00 00 00 00 
17:55:11:4730 Rx 1 0x10C s 8 01 00 80 00 00 00 00 00 
17:55:11:4790 Rx 1 0x12C s 8 02 08 00 00 70 17 00 00 
17:55:11:4804 Rx 1 0x19F s 8 00 00 00 00 78 28 00 00 
17:55:11:4903 Rx 1 0x50F s 8 78 28 30 00 74 05 5F 00 
17:55:11:4920 Rx 1 0x12D s 8 00 00 88 13 E0 2E 01 00 
17:55:11:5003 Rx 1 0x1A7 s 8 00 00 9C 18 08 00 44 16 
17:55:11:5141 Rx 1 0x12A s 8 10 00 00 00 00 02 00 00 
17:55:11:5180 Rx 1 0x10B s 8 05 0F 00 00 00 00 00 00 
17:55:11:5604 Rx 1 0x310 s 8 01 00 02 00 00 00 00 00 
17:55:11:5704 Rx 1 0x50E s 8 00 00 00 00 00 00 00 00 
17:55:11:5731 Rx 1 0x10C s 8 01 00 80 00 00 00 00 00 
17:55:11:5792 Rx 1 0x12C s 8 02 08 00 00 70 17 00 00 
17:55:11:5803 Rx 1 0x19F s 8 00 00 00 00 79 28 00 00 
17:55:11:5903 Rx 1 0x50F s 8 78 28 30 00 75 05 5F 00 
17:55:11:5929 Rx 1 0x12D s 8 00 00 88 13 E0 2E 01 00 
17:55:11:6004 Rx 1 0x1A7 s 8 00 00 9C 18 08 00 44 16 
17:55:11:6142 Rx 1 0x12A s 8 10 00 00 00 00 02 00 00 
17:55:11:6181 Rx 1 0x10B s 8 05 0F 00 00 00 00 00 00 
17:55:11:6582 Rx 1 0x8192A3B x 8 00 00 00 00 00 00 00 00 
17:55:11:6604 Rx 1 0x310 s 8 01 00 02 00 00 00 00 00 
17:55:11:6704 Rx 1 0x50E s 8 00 00 00 00 00 00 00 00 
17:55:11:6733 Rx 1 0x10C s 8 01 00 80 00 00 00 00 00 
17:55:11:6791 Rx 1 0x12C s 8 02 08 00 00 70 17 00 00 
17:55:11:6804 Rx 1 0x19F s 8 00 00 00 00 78 28 00 00 
17:55:11:6903 Rx 1 0x50F s 8 78 28 32 00 76 05 5F 00 
17:55:11:6922 Rx 1 0x12D s 8 00 00 88 13 E0 2E 01 00 
17:55:11:7004 Rx 1 0x1A7 s 8 00 00 9C 18 08 00 44 16 
17:55:11:7105 Rx 1 0x10000201 x 8 03 02 02 00 00 00 03 00 
17:55:11:7142 Rx 1 0x12A s 8 10 00 00 00 00 02 00 00 
17:55:11:7183 Rx 1 0x10B s 8 05 0F 00 00 00 00 00 00 
17:55:11:7205 Rx 1 0x10000202 x 8 00 00 00 00 00 00 00 00 
17:55:11:7304 Rx 1 0x10000203 x 8 AD 00 03 00 38 0F 79 28 
17:55:11:7404 Rx 1 0x10000204 x 8 52 28 D1 FF 74 05 5F 00 
17:55:11:7504 Rx 1 0x10000205 x 8 01 00 64 64 64 64 00 00 
17:55:11:7507 Rx 1 0x10000206 x 8 00 00 44 16 9C 18 EC 13 
17:55:11:7510 Rx 1 0x10000207 x 8 00 00 00 00 05 11 00 00 
17:55:11:7513 Rx 1 0x10000208 x 8 00 00 00 00 00 00 00 00 
17:55:11:7604 Rx 1 0x310 s 8 01 00 02 00 00 00 00 00 
17:55:11:7704 Rx 1 0x50E s 8 00 00 00 00 00 00 00 00 
17:55:11:7731 Rx 1 0x10C s 8 01 00 80 00 00 00 00 00 
17:55:11:7792 Rx 1 0x12C s 8 02 08 00 00 70 17 00 00 
17:55:11:7804 Rx 1 0x19F s 8 00 00 00 00 79 28 00 00 
17:55:11:7904 Rx 1 0x50F s 8 79 28 2F 00 74 05 5F 00 
17:55:11:7924 Rx 1 0x12D s 8 00 00 88 13 E0 2E 01 00 
17:55:11:8003 Rx 1 0x1A7 s 8 00 00 9C 18 08 00 44 16 
17:55:11:8143 Rx 1 0x12A s 8 10 00 00 00 00 02 00 00 
17:55:11:8180 Rx 1 0x10B s 8 05 0F 00 00 00 00 00 00 
17:55:11:8604 Rx 1 0x310 s 8 01 00 02 00 00 00 00 00 
17:55:11:8704 Rx 1 0x50E s 8 00 00 00 00 00 00 00 00 
17:55:11:8733 Rx 1 0x10C s 8 01 00 80 00 00 00 00 00 
17:55:11:8790 Rx 1 0x12C s 8 02 08 00 00 70 17 00 00 
17:55:11:8804 Rx 1 0x19F s 8 00 00 00 00 79 28 00 00 
17:55:11:8904 Rx 1 0x50F s 8 78 28 2C 00 74 05 5F 00 
17:55:11:8922 Rx 1 0x12D s 8 00 00 88 13 E0 2E 01 00 
17:55:11:9004 Rx 1 0x1A7 s 8 00 00 9C 18 08 00 44 16 
17:55:11:9142 Rx 1 0x12A s 8 10 00 00 00 00 02 00 00 
17:55:11:9183 Rx 1 0x10B s 8 05 0F 00 00 00 00 00 00 
17:55:11:9604 Rx 1 0x310 s 8 01 00 02 00 00 00 00 00 
17:55:11:9704 Rx 1 0x50E s 8 00 00 00 00 00 00 00 00 
17:55:11:9731 Rx 1 0x10C s 8 01 00 80 00 00 00 00 00 
17:55:11:9789 Rx 1 0x12C s 8 02 08 00 00 70 17 00 00 
17:55:11:9803 Rx 1 0x19F s 8 00 00 00 00 78 28 00 00 
17:55:11:9903 Rx 1 0x50F s 8 79 28 30 00 75 05 5F 00 
17:55:11:9922 Rx 1 0x12D s 8 00 00 88 13 E0 2E 01 00 
17:55:12:0004 Rx 1 0x1A7 s 8 00 00 9C 18 08 00 44 16 
17:55:12:0139 Rx 1 0x12A s 8 10 00 00 00 00 02 00 00 
17:55:12:0180 Rx 1 0x10B s 8 05 0F 00 00 00 00 00 00 
17:55:12:0603 Rx 1 0x310 s 8 01 00 02 00 00 00 00 00 
17:55:12:0703 Rx 1 0x50E s 8 00 00 00 00 00 00 00 00 
17:55:12:0733 Rx 1 0x10C s 8 01 00 80 00 00 00 00 00 
17:55:12:0791 Rx 1 0x12C s 8 02 08 00 00 70 17 00 00 
17:55:12:0804 Rx 1 0x19F s 8 00 00 00 00 79 28 00 00 
17:55:12:0904 Rx 1 0x50F s 8 79 28 30 00 77 05 5F 00 
17:55:12:0921 Rx 1 0x12D s 8 00 00 88 13 E0 2E 01 00 
17:55:12:1003 Rx 1 0x1A7 s 8 00 00 9C 18 08 00 44 16 
17:55:12:1141 Rx 1 0x12A s 8 10 00 00 00 00 02 00 00 
17:55:12:1181 Rx 1 0x10B s 8 05 0F 00 00 00 00 00 00 
17:55:12:1603 Rx 1 0x310 s 8 01 00 02 00 00 00 00 00 
17:55:12:1704 Rx 1 0x50E s 8 00 00 00 00 00 00 00 00 
17:55:12:1733 Rx 1 0x10C s 8 01 00 80 00 00 00 00 00 
17:55:12:1791 Rx 1 0x12C s 8 02 08 00 00 70 17 00 00 
17:55:12:1804 Rx 1 0x19F s 8 00 00 00 00 79 28 00 00 
17:55:12:1904 Rx 1 0x50F s 8 78 28 2A 00 75 05 5F 00 
17:55:12:1923 Rx 1 0x12D s 8 00 00 88 13 E0 2E 01 00 
17:55:12:2004 Rx 1 0x1A7 s 8 00 00 9C 18 08 00 44 16 
17:55:12:2143 Rx 1 0x12A s 8 10 00 00 00 00 02 00 00 
17:55:12:2182 Rx 1 0x10B s 8 05 0F 00 00 00 00 00 00 
17:55:12:2604 Rx 1 0x310 s 8 01 00 02 00 00 00 00 00 
17:55:12:2703 Rx 1 0x50E s 8 00 00 00 00 00 00 00 00 
17:55:12:2733 Rx 1 0x10C s 8 01 00 80 00 00 00 00 00 
17:55:12:2792 Rx 1 0x12C s 8 02 08 00 00 70 17 00 00 
17:55:12:2804 Rx 1 0x19F s 8 00 00 00 00 78 28 00 00 
17:55:12:2903 Rx 1 0x50F s 8 79 28 32 00 76 05 5F 00 
17:55:12:2921 Rx 1 0x12D s 8 00 00 88 13 E0 2E 01 00 
17:55:12:3004 Rx 1 0x1A7 s 8 00 00 9C 18 08 00 44 16 
17:55:12:3140 Rx 1 0x12A s 8 10 00 00 00 00 02 00 00 
17:55:12:3180 Rx 1 0x10B s 8 05 0F 00 00 00 00 00 00 
17:55:12:3604 Rx 1 0x310 s 8 01 00 02 00 00 00 00 00 
17:55:12:3703 Rx 1 0x50E s 8 00 00 00 00 00 00 00 00 
17:55:12:3732 Rx 1 0x10C s 8 01 00 80 00 00 00 00 00 
17:55:12:3792 Rx 1 0x12C s 8 02 08 00 00 70 17 00 00 
17:55:12:3804 Rx 1 0x19F s 8 00 00 00 00 78 28 00 00 
17:55:12:3903 Rx 1 0x50F s 8 78 28 32 00 76 05 5F 00 
17:55:12:3921 Rx 1 0x12D s 8 00 00 88 13 E0 2E 01 00 
17:55:12:4004 Rx 1 0x1A7 s 8 00 00 9C 18 08 00 44 16 
17:55:12:4142 Rx 1 0x12A s 8 10 00 00 00 00 02 00 00 
17:55:12:4181 Rx 1 0x10B s 8 05 0F 00 00 00 00 00 00 
17:55:12:4603 Rx 1 0x310 s 8 01 00 02 00 00 00 00 00 
17:55:12:4704 Rx 1 0x50E s 8 00 00 00 00 00 00 00 00 
17:55:12:4731 Rx 1 0x10C s 8 01 00 80 00 00 00 00 00 
17:55:12:4791 Rx 1 0x12C s 8 02 08 00 00 70 17 00 00 
17:55:12:4803 Rx 1 0x19F s 8 00 00 00 00 79 28 00 00 
17:55:12:4904 Rx 1 0x50F s 8 78 28 2D 00 76 05 5F 00 
17:55:12:4920 Rx 1 0x12D s 8 00 00 88 13 E0 2E 01 00 
17:55:12:5003 Rx 1 0x1A7 s 8 00 00 9C 18 08 00 44 16 
17:55:12:5142 Rx 1 0x12A s 8 10 00 00 00 00 02 00 00 
17:55:12:5181 Rx 1 0x10B s 8 05 0F 00 00 00 00 00 00 
17:55:12:5603 Rx 1 0x310 s 8 01 00 02 00 00 00 00 00 
17:55:12:5703 Rx 1 0x50E s 8 00 00 00 00 00 00 00 00 
17:55:12:5733 Rx 1 0x10C s 8 01 00 80 00 00 00 00 00 
17:55:12:5792 Rx 1 0x12C s 8 02 08 00 00 70 17 00 00 
17:55:12:5803 Rx 1 0x19F s 8 00 00 00 00 78 28 00 00 
17:55:12:5903 Rx 1 0x50F s 8 78 28 32 00 75 05 5F 00 
17:55:12:5930 Rx 1 0x12D s 8 00 00 88 13 E0 2E 01 00 
17:55:12:6003 Rx 1 0x1A7 s 8 00 00 9C 18 08 00 44 16 
17:55:12:6144 Rx 1 0x12A s 8 10 00 00 00 00 02 00 00 
17:55:12:6184 Rx 1 0x10B s 8 05 0F 00 00 00 00 00 00 
17:55:12:6583 Rx 1 0x8192A3B x 8 00 00 00 00 00 00 00 00 
17:55:12:6603 Rx 1 0x310 s 8 01 00 02 00 00 00 00 00 
17:55:12:6704 Rx 1 0x50E s 8 00 00 00 00 00 00 00 00 
17:55:12:6731 Rx 1 0x10C s 8 01 00 80 00 00 00 00 00 
17:55:12:6796 Rx 1 0x12C s 8 02 08 00 00 70 17 00 00 
17:55:12:6803 Rx 1 0x19F s 8 00 00 00 00 79 28 00 00 
17:55:12:6904 Rx 1 0x50F s 8 78 28 2D 00 75 05 5F 00 
17:55:12:6924 Rx 1 0x12D s 8 00 00 88 13 E0 2E 01 00 
17:55:12:7004 Rx 1 0x1A7 s 8 00 00 9C 18 08 00 44 16 
17:55:12:7104 Rx 1 0x10000201 x 8 03 02 02 00 00 00 03 00 
17:55:12:7144 Rx 1 0x12A s 8 10 00 00 00 00 02 00 00 
17:55:12:7184 Rx 1 0x10B s 8 05 0F 00 00 00 00 00 00 
17:55:12:7204 Rx 1 0x10000202 x 8 00 00 00 00 00 00 00 00 
17:55:12:7304 Rx 1 0x10000203 x 8 56 00 03 00 38 0F 79 28 
17:55:12:7404 Rx 1 0x10000204 x 8 52 28 D1 FF 74 05 5F 00 
17:55:12:7504 Rx 1 0x10000205 x 8 01 00 64 64 64 64 00 00 
17:55:12:7507 Rx 1 0x10000206 x 8 00 00 44 16 9C 18 EC 13 
17:55:12:7510 Rx 1 0x10000207 x 8 00 00 00 00 75 10 00 00 
17:55:12:7513 Rx 1 0x10000208 x 8 00 00 00 00 00 00 00 00 
17:55:12:7604 Rx 1 0x310 s 8 01 00 02 00 00 00 00 00 
17:55:12:7703 Rx 1 0x50E s 8 00 00 00 00 00 00 00 00 
17:55:12:7734 Rx 1 0x10C s 8 01 00 80 00 00 00 00 00 
17:55:12:7793 Rx 1 0x12C s 8 02 08 00 00 70 17 00 00 
17:55:12:7804 Rx 1 0x19F s 8 00 00 00 00 79 28 00 00 
17:55:12:7904 Rx 1 0x50F s 8 78 28 2E 00 77 05 60 00 
17:55:12:7925 Rx 1 0x12D s 8 00 00 88 13 E0 2E 01 00 
17:55:12:8004 Rx 1 0x1A7 s 8 00 00 9C 18 08 00 44 16 
17:55:12:8144 Rx 1 0x12A s 8 10 00 00 00 00 02 00 00 
17:55:12:8182 Rx 1 0x10B s 8 05 0F 00 00 00 00 00 00 
17:55:12:8603 Rx 1 0x310 s 8 01 00 02 00 00 00 00 00 
17:55:12:8704 Rx 1 0x50E s 8 00 00 00 00 00 00 00 00 
17:55:12:8733 Rx 1 0x10C s 8 01 00 80 00 00 00 00 00 
17:55:12:8792 Rx 1 0x12C s 8 02 08 00 00 70 17 00 00 
17:55:12:8803 Rx 1 0x19F s 8 00 00 00 00 78 28 00 00 
17:55:12:8904 Rx 1 0x50F s 8 79 28 2D 00 77 05 5F 00 
17:55:12:8926 Rx 1 0x12D s 8 00 00 88 13 E0 2E 01 00 
17:55:12:9004 Rx 1 0x1A7 s 8 00 00 9C 18 08 00 44 16 
17:55:12:9143 Rx 1 0x12A s 8 10 00 00 00 00 02 00 00 
17:55:12:9183 Rx 1 0x10B s 8 05 0F 00 00 00 00 00 00 
17:55:12:9604 Rx 1 0x310 s 8 01 00 02 00 00 00 00 00 
17:55:12:9703 Rx 1 0x50E s 8 00 00 00 00 00 00 00 00 
17:55:12:9732 Rx 1 0x10C s 8 01 00 80 00 00 00 00 00 
17:55:12:9792 Rx 1 0x12C s 8 02 08 00 00 70 17 00 00 
17:55:12:9804 Rx 1 0x19F s 8 00 00 00 00 78 28 00 00 
17:55:12:9904 Rx 1 0x50F s 8 78 28 2D 00 77 05 5F 00 
17:55:12:9923 Rx 1 0x12D s 8 00 00 88 13 E0 2E 01 00 
17:55:13:0003 Rx 1 0x1A7 s 8 00 00 9C 18 08 00 44 16 
17:55:13:0143 Rx 1 0x12A s 8 10 00 00 00 00 02 00 00 
17:55:13:0181 Rx 1 0x10B s 8 05 0F 00 00 00 00 00 00 
17:55:13:0604 Rx 1 0x310 s 8 01 00 02 00 00 00 00 00 
17:55:13:0704 Rx 1 0x50E s 8 00 00 00 00 00 00 00 00 
17:55:13:0732 Rx 1 0x10C s 8 01 00 80 00 00 00 00 00 
17:55:13:0795 Rx 1 0x12C s 8 02 08 00 00 70 17 00 00 
17:55:13:0803 Rx 1 0x19F s 8 00 00 00 00 79 28 00 00 
17:55:13:0903 Rx 1 0x50F s 8 78 28 2A 00 76 05 60 00 
17:55:13:0922 Rx 1 0x12D s 8 00 00 88 13 E0 2E 01 00 
17:55:13:1004 Rx 1 0x1A7 s 8 00 00 9C 18 08 00 44 16 
17:55:13:1143 Rx 1 0x12A s 8 10 00 00 00 00 02 00 00 
17:55:13:1184 Rx 1 0x10B s 8 05 0F 00 00 00 00 00 00 
17:55:13:1604 Rx 1 0x310 s 8 01 00 02 00 00 00 00 00 
17:55:13:1703 Rx 1 0x50E s 8 00 00 00 00 00 00 00 00 
17:55:13:1732 Rx 1 0x10C s 8 01 00 80 00 00 00 00 00 
17:55:13:1794 Rx 1 0x12C s 8 02 08 00 00 70 17 00 00 
17:55:13:1804 Rx 1 0x19F s 8 00 00 00 00 78 28 00 00 
17:55:13:1903 Rx 1 0x50F s 8 78 28 37 00 77 05 60 00 
17:55:13:1923 Rx 1 0x12D s 8 00 00 88 13 E0 2E 01 00 
17:55:13:2004 Rx 1 0x1A7 s 8 00 00 9C 18 08 00 44 16 
17:55:13:2143 Rx 1 0x12A s 8 10 00 00 00 00 02 00 00 
17:55:13:2184 Rx 1 0x10B s 8 05 0F 00 00 00 00 00 00 
17:55:13:2604 Rx 1 0x310 s 8 01 00 02 00 00 00 00 00 
17:55:13:2703 Rx 1 0x50E s 8 00 00 00 00 00 00 00 00 
17:55:13:2731 Rx 1 0x10C s 8 01 00 80 00 00 00 00 00 
17:55:13:2792 Rx 1 0x12C s 8 02 08 00 00 70 17 00 00 
17:55:13:2804 Rx 1 0x19F s 8 00 00 00 00 79 28 00 00 
17:55:13:2903 Rx 1 0x50F s 8 79 28 2C 00 75 05 60 00 
17:55:13:2922 Rx 1 0x12D s 8 00 00 88 13 E0 2E 01 00 
17:55:13:3003 Rx 1 0x1A7 s 8 00 00 9C 18 08 00 44 16 
17:55:13:3142 Rx 1 0x12A s 8 10 00 00 00 00 02 00 00 
17:55:13:3183 Rx 1 0x10B s 8 05 0F 00 00 00 00 00 00 
17:55:13:3604 Rx 1 0x310 s 8 01 00 02 00 00 00 00 00 
17:55:13:3704 Rx 1 0x50E s 8 00 00 00 00 00 00 00 00 
17:55:13:3733 Rx 1 0x10C s 8 01 00 80 00 00 00 00 00 
17:55:13:3792 Rx 1 0x12C s 8 02 08 00 00 70 17 00 00 
17:55:13:3803 Rx 1 0x19F s 8 00 00 00 00 78 28 00 00 
17:55:13:3903 Rx 1 0x50F s 8 78 28 31 00 75 05 60 00 
17:55:13:3922 Rx 1 0x12D s 8 00 00 88 13 E0 2E 01 00 
17:55:13:4003 Rx 1 0x1A7 s 8 00 00 9C 18 08 00 44 16 
17:55:13:4144 Rx 1 0x12A s 8 10 00 00 00 00 02 00 00 
17:55:13:4184 Rx 1 0x10B s 8 05 0F 00 00 00 00 00 00 
17:55:13:4603 Rx 1 0x310 s 8 01 00 02 00 00 00 00 00 
17:55:13:4704 Rx 1 0x50E s 8 00 00 00 00 00 00 00 00 
17:55:13:4732 Rx 1 0x10C s 8 01 00 80 00 00 00 00 00 
17:55:13:4791 Rx 1 0x12C s 8 02 08 00 00 70 17 00 00 
17:55:13:4803 Rx 1 0x19F s 8 00 00 00 00 79 28 00 00 
17:55:13:4904 Rx 1 0x50F s 8 78 28 31 00 77 05 60 00 
17:55:13:4925 Rx 1 0x12D s 8 00 00 88 13 E0 2E 01 00 
17:55:13:5003 Rx 1 0x1A7 s 8 00 00 9C 18 08 00 44 16 
17:55:13:5141 Rx 1 0x12A s 8 10 00 00 00 00 02 00 00 
17:55:13:5181 Rx 1 0x10B s 8 05 0F 00 00 00 00 00 00 
17:55:13:5604 Rx 1 0x310 s 8 01 00 02 00 00 00 00 00 
17:55:13:5704 Rx 1 0x50E s 8 00 00 00 00 00 00 00 00 
17:55:13:5734 Rx 1 0x10C s 8 01 00 80 00 00 00 00 00 
17:55:13:5796 Rx 1 0x12C s 8 02 08 00 00 70 17 00 00 
17:55:13:5803 Rx 1 0x19F s 8 00 00 00 00 79 28 00 00 
17:55:13:5903 Rx 1 0x50F s 8 78 28 2E 00 75 05 60 00 
17:55:13:5931 Rx 1 0x12D s 8 00 00 88 13 E0 2E 01 00 
17:55:13:6004 Rx 1 0x1A7 s 8 00 00 9C 18 08 00 44 16 
17:55:13:6143 Rx 1 0x12A s 8 10 00 00 00 00 02 00 00 
17:55:13:6182 Rx 1 0x10B s 8 05 0F 00 00 00 00 00 00 
17:55:13:6586 Rx 1 0x8192A3B x 8 00 00 00 00 00 00 00 00 
17:55:13:6604 Rx 1 0x310 s 8 01 00 02 00 00 00 00 00 
17:55:13:6703 Rx 1 0x50E s 8 00 00 00 00 00 00 00 00 
17:55:13:6734 Rx 1 0x10C s 8 01 00 80 00 00 00 00 00 
17:55:13:6794 Rx 1 0x12C s 8 02 08 00 00 70 17 00 00 
17:55:13:6803 Rx 1 0x19F s 8 00 00 00 00 79 28 00 00 
17:55:13:6903 Rx 1 0x50F s 8 79 28 30 00 74 05 60 00 
17:55:13:6924 Rx 1 0x12D s 8 00 00 88 13 E0 2E 01 00 
17:55:13:7003 Rx 1 0x1A7 s 8 00 00 9C 18 08 00 44 16 
17:55:13:7103 Rx 1 0x10000201 x 8 03 02 02 00 00 00 03 00 
17:55:13:7145 Rx 1 0x12A s 8 10 00 00 00 00 02 00 00 
17:55:13:7184 Rx 1 0x10B s 8 05 0F 00 00 00 00 00 00 
17:55:13:7204 Rx 1 0x10000202 x 8 00 00 00 00 00 00 00 00 
17:55:13:7303 Rx 1 0x10000203 x 8 1E 00 03 00 38 0F 79 28 
17:55:13:7404 Rx 1 0x10000204 x 8 52 28 D1 FF 77 05 60 00 
17:55:13:7503 Rx 1 0x10000205 x 8 01 00 64 64 64 64 00 00 
17:55:13:7506 Rx 1 0x10000206 x 8 00 00 44 16 9C 18 EC 13 
17:55:13:7509 Rx 1 0x10000207 x 8 00 00 00 00 CF 0F 00 00 
17:55:13:7512 Rx 1 0x10000208 x 8 00 00 00 00 00 00 00 00 
17:55:13:7603 Rx 1 0x310 s 8 01 00 02 00 00 00 00 00 
17:55:13:7703 Rx 1 0x50E s 8 00 00 00 00 00 00 00 00 
17:55:13:7731 Rx 1 0x10C s 8 01 00 80 00 00 00 00 00 
17:55:13:7792 Rx 1 0x12C s 8 02 08 00 00 70 17 00 00 
17:55:13:7803 Rx 1 0x19F s 8 00 00 00 00 78 28 00 00 
17:55:13:7903 Rx 1 0x50F s 8 78 28 2E 00 75 05 60 00 
17:55:13:7922 Rx 1 0x12D s 8 00 00 88 13 E0 2E 01 00 
17:55:13:8003 Rx 1 0x1A7 s 8 00 00 9C 18 08 00 44 16 
17:55:13:8143 Rx 1 0x12A s 8 10 00 00 00 00 02 00 00 
17:55:13:8182 Rx 1 0x10B s 8 05 0F 00 00 00 00 00 00 
17:55:13:8604 Rx 1 0x310 s 8 01 00 02 00 00 00 00 00 
17:55:13:8703 Rx 1 0x50E s 8 00 00 00 00 00 00 00 00 
17:55:13:8731 Rx 1 0x10C s 8 01 00 80 00 00 00 00 00 
17:55:13:8793 Rx 1 0x12C s 8 02 08 00 00 70 17 00 00 
17:55:13:8803 Rx 1 0x19F s 8 00 00 00 00 79 28 00 00 
17:55:13:8903 Rx 1 0x50F s 8 79 28 37 00 77 05 60 00 
17:55:13:8924 Rx 1 0x12D s 8 00 00 88 13 E0 2E 01 00 
17:55:13:9003 Rx 1 0x1A7 s 8 00 00 9C 18 08 00 44 16 
17:55:13:9143 Rx 1 0x12A s 8 10 00 00 00 00 02 00 00 
17:55:13:9182 Rx 1 0x10B s 8 05 0F 00 00 00 00 00 00 
17:55:13:9604 Rx 1 0x310 s 8 01 00 02 00 00 00 00 00 
17:55:13:9703 Rx 1 0x50E s 8 00 00 00 00 00 00 00 00 
17:55:13:9734 Rx 1 0x10C s 8 01 00 80 00 00 00 00 00 
17:55:13:9794 Rx 1 0x12C s 8 02 08 00 00 70 17 00 00 
17:55:13:9803 Rx 1 0x19F s 8 00 00 00 00 78 28 00 00 
17:55:13:9903 Rx 1 0x50F s 8 79 28 2F 00 75 05 60 00 
17:55:13:9923 Rx 1 0x12D s 8 00 00 88 13 E0 2E 01 00 
17:55:14:0003 Rx 1 0x1A7 s 8 00 00 9C 18 08 00 44 16 
17:55:14:0142 Rx 1 0x12A s 8 10 00 00 00 00 02 00 00 
17:55:14:0181 Rx 1 0x10B s 8 05 0F 00 00 00 00 00 00 
17:55:14:0604 Rx 1 0x310 s 8 01 00 02 00 00 00 00 00 
17:55:14:0703 Rx 1 0x50E s 8 00 00 00 00 00 00 00 00 
17:55:14:0731 Rx 1 0x10C s 8 01 00 80 00 00 00 00 00 
17:55:14:0792 Rx 1 0x12C s 8 02 08 00 00 70 17 00 00 
17:55:14:0803 Rx 1 0x19F s 8 00 00 00 00 78 28 00 00 
17:55:14:0903 Rx 1 0x50F s 8 78 28 2D 00 77 05 60 00 
17:55:14:0923 Rx 1 0x12D s 8 00 00 88 13 E0 2E 01 00 
17:55:14:1003 Rx 1 0x1A7 s 8 00 00 9C 18 08 00 44 16 
17:55:14:1143 Rx 1 0x12A s 8 10 00 00 00 00 02 00 00 
17:55:14:1183 Rx 1 0x10B s 8 05 0F 00 00 00 00 00 00 
17:55:14:1604 Rx 1 0x310 s 8 01 00 02 00 00 00 00 00 
17:55:14:1703 Rx 1 0x50E s 8 00 00 00 00 00 00 00 00 
17:55:14:1733 Rx 1 0x10C s 8 01 00 80 00 00 00 00 00 
17:55:14:1794 Rx 1 0x12C s 8 02 08 00 00 70 17 00 00 
17:55:14:1804 Rx 1 0x19F s 8 00 00 00 00 78 28 00 00 
17:55:14:1903 Rx 1 0x50F s 8 78 28 2D 00 76 05 60 00 
17:55:14:1923 Rx 1 0x12D s 8 00 00 88 13 E0 2E 01 00 
17:55:14:2003 Rx 1 0x1A7 s 8 00 00 9C 18 08 00 44 16 
17:55:14:2143 Rx 1 0x12A s 8 10 00 00 00 00 02 00 00 
17:55:14:2183 Rx 1 0x10B s 8 05 0F 00 00 00 00 00 00 
17:55:14:2603 Rx 1 0x310 s 8 01 00 02 00 00 00 00 00 
17:55:14:2703 Rx 1 0x50E s 8 00 00 00 00 00 00 00 00 
17:55:14:2731 Rx 1 0x10C s 8 01 00 80 00 00 00 00 00 
17:55:14:2792 Rx 1 0x12C s 8 02 08 00 00 70 17 00 00 
17:55:14:2803 Rx 1 0x19F s 8 00 00 00 00 78 28 00 00 
17:55:14:2903 Rx 1 0x50F s 8 78 28 2A 00 74 05 60 00 
17:55:14:2923 Rx 1 0x12D s 8 00 00 88 13 E0 2E 01 00 
17:55:14:3003 Rx 1 0x1A7 s 8 00 00 9C 18 08 00 44 16 
17:55:14:3144 Rx 1 0x12A s 8 10 00 00 00 00 02 00 00 
17:55:14:3181 Rx 1 0x10B s 8 05 0F 00 00 00 00 00 00 
17:55:14:3603 Rx 1 0x310 s 8 01 00 02 00 00 00 00 00 
17:55:14:3703 Rx 1 0x50E s 8 00 00 00 00 00 00 00 00 
17:55:14:3733 Rx 1 0x10C s 8 01 00 80 00 00 00 00 00 
17:55:14:3791 Rx 1 0x12C s 8 02 08 00 00 70 17 00 00 
17:55:14:3803 Rx 1 0x19F s 8 00 00 00 00 79 28 00 00 
17:55:14:3903 Rx 1 0x50F s 8 78 28 32 00 74 05 60 00 
17:55:14:3921 Rx 1 0x12D s 8 00 00 88 13 E0 2E 01 00 
17:55:14:4003 Rx 1 0x1A7 s 8 00 00 9C 18 08 00 44 16 
17:55:14:4144 Rx 1 0x12A s 8 10 00 00 00 00 02 00 00 
